EC-Lab ASCII FILE
Nb header lines : 62                          

Potentio Electrochemical Impedance Spectroscopy

Run on channel : 1 (SN 35512)
User : 
CE vs. WE compliance from -10 V to 10 V
Electrode connection : standard
Ewe ctrl range : min = -5.00 V, max = 5.00 V
Safety Limits :
	Do not start on E overload
Acquisition started on : 05/22/2023 17:27:28
Technique started on : 05/22/2023 17:27:30
Saved on :
	File : FullCell_EMD_ZnAnode_Calendar_30C_EIS_RT_C01.mpr
	Directory : C:\Users\CESL\Documents\EC-Lab\Data\PhD\Leifer\Results\Zn Ion GPE\2023\0523\
	Host : 10.110.196.171
Device : VSP (SN 1724)
Address : USB
EC-Lab for windows v11.16 (software)
Internet server v11.16 (firmware)
Command interpretor v11.16 (firmware)
Electrode material : Au/Pd
Initial state : 
Electrolyte : NaCl (0.2M)
Comments : Fe(CN)63-/Fe(CN)64- 5.10-3 M
Reference electrode : SCE Saturated Calomel Electrode (0.241 V)
Electrode surface area : 0.001 cm²
Characteristic mass : 0.001 g
Equivalent Weight : 0.000 g/eq.
Density : 0.000 g/cm3
Cycle Definition : Charge/Discharge alternance
Mode                Single sine         
E (V)               0.0000              
vs.                 Eoc                 
tE (h:m:s)          0:00:0.0000         
record              0                   
dI                  0.000               
unit dI             mA                  
dt (s)              0.000               
fi                  1.000               
unit fi             MHz                 
ff                  10.000              
unit ff             mHz                 
Nd                  6                   
Points              per decade          
spacing             Logarithmic         
Va (mV)             10.0                
pw                  0.10                
Na                  2                   
corr                1                   
E range min (V)     -5.000              
E range max (V)     5.000               
I Range             Auto                
Bandwidth           5                   
nc cycles           0                   
goto Ns'            0                   
nr cycles           0                   
inc. cycle          0                   

freq/Hz	Re(Z)/Ohm	-Im(Z)/Ohm	|Z|/Ohm	Phase(Z)/deg	time/s	<Ewe>/V	<I>/mA	Cs/µF	Cp/µF	cycle number	I Range	|Ewe|/V	|I|/A	Re(Y)/Ohm-1	Im(Y)/Ohm-1	|Y|/Ohm-1	Phase(Y)/deg	
1.0000193E+006	-1.3089870E+001	8.0049248E+000	1.5343517E+001	-1.4855272E+002	2.307100296224235E+000	7.3085165E-001	-3.7019195E-003	1.9881744E-002	5.4115187E-003	1.000000000000000E+000	10	1.3419316E-004	8.7459193E-006	-5.5601366E-002	3.4002230E-002	6.5174103E-002	1.4855272E+002
6.7575181E+005	1.1414061E+001	-5.5352302E+000	1.2685407E+001	2.5870991E+001	2.716081009013578E+000	7.3026133E-001	-1.6469803E-003	-4.2549770E-002	-8.1013944E-003	1.000000000000000E+000	10	6.7047856E-004	5.2854321E-005	7.0930235E-002	-3.4397501E-002	7.8830741E-002	-2.5870991E+001
4.5664050E+005	6.6987877E+000	-2.0512443E+000	7.0058088E+000	1.7025179E+001	3.125095908442745E+000	7.3037022E-001	-2.7303793E-003	-1.6991366E-001	-1.4566207E-002	1.000000000000000E+000	10	2.4351268E-003	3.4758681E-004	1.3648334E-001	-4.1792739E-002	1.4273870E-001	-1.7025179E+001
3.0857416E+005	5.7263761E+000	-9.8413628E-001	5.8103275E+000	9.7516031E+000	3.534078807861079E+000	7.3018771E-001	5.0681178E-004	-5.2408934E-001	-1.5035386E-002	1.000000000000000E+000	10	6.5387543E-003	1.1253676E-003	1.6962062E-001	-2.9151039E-002	1.7210734E-001	-9.7516031E+000
2.0852534E+005	5.3600793E+000	-4.0958762E-001	5.3757057E+000	4.3697348E+000	3.943077893956797E+000	7.3011768E-001	1.3851286E-003	-1.8634359E+000	-1.0817755E-002	1.000000000000000E+000	10	1.0491351E-002	1.9516230E-003	1.8548135E-001	-1.4173459E-002	1.8602209E-001	-4.3697348E+000
1.4090817E+005	5.2477813E+000	7.3576579E-003	5.2477865E+000	-8.0331564E-002	4.484094266284956E+000	7.3014474E-001	2.9160699E-003	1.5351273E+002	3.0176665E-004	1.000000000000000E+000	10	1.0155792E-002	1.9352526E-003	1.9055633E-001	2.6716976E-004	1.9055653E-001	8.0331564E-002
9.5214820E+004	5.2561374E+000	3.7970623E-001	5.2698345E+000	-4.1319008E+000	5.025092638650676E+000	7.3014885E-001	2.6288987E-003	4.4021807E+000	2.2854375E-002	1.000000000000000E+000	10	1.0106071E-002	1.9177208E-003	1.8926607E-001	1.3672684E-002	1.8975928E-001	4.1319008E+000
6.4345688E+004	5.3448968E+000	7.4814373E-001	5.3970032E+000	-7.9681191E+000	5.434100658079842E+000	7.3018032E-001	3.7179042E-003	3.3060973E+000	6.3530222E-002	1.000000000000000E+000	10	1.0785481E-002	1.9984203E-003	1.8349913E-001	2.5685007E-002	1.8528801E-001	7.9681191E+000
4.3476547E+004	5.5043144E+000	1.1366993E+000	5.6204591E+000	-1.1668163E+001	5.843097344186390E+000	7.3016196E-001	3.5053245E-003	3.2204719E+000	1.3172467E-001	1.000000000000000E+000	10	1.0704679E-002	1.9045917E-003	1.7424473E-001	3.5983387E-002	1.7792141E-001	1.1668163E+001
2.9384758E+004	5.7220554E+000	1.5685910E+000	5.9331608E+000	-1.5329934E+001	6.252096403593896E+000	7.3014170E-001	3.3971653E-003	3.4529345E+000	2.4134344E-001	1.000000000000000E+000	10	1.0534784E-002	1.7755770E-003	1.6254734E-001	4.4559211E-002	1.6854423E-001	1.5329934E+001
1.9853508E+004	5.9745431E+000	2.0766246E+000	6.3251510E+000	-1.9166368E+001	6.661086316395085E+000	7.3016369E-001	3.7533222E-003	3.8603339E+000	4.1610134E-001	1.000000000000000E+000	10	1.0408616E-002	1.6455917E-003	1.4933544E-001	5.1905837E-002	1.5809900E-001	1.9166368E+001
1.3417967E+004	6.2551937E+000	2.7436879E+000	6.8304663E+000	-2.3683485E+001	7.070099509117426E+000	7.3017025E-001	4.4134264E-003	4.3231344E+000	6.9753730E-001	1.000000000000000E+000	10	1.0131417E-002	1.4832687E-003	1.3407262E-001	5.8807675E-002	1.4640290E-001	2.3683485E+001
9.0820293E+003	6.5564890E+000	3.6762102E+000	7.5167856E+000	-2.9279263E+001	7.367329709901242E+000	7.3016703E-001	6.4049582E-003	4.7669091E+000	1.1401795E+000	1.000000000000000E+000	10	1.0605410E-002	1.4108969E-003	1.1603981E-001	6.5063283E-002	1.3303559E-001	2.9279263E+001
6.1409590E+003	6.8915854E+000	4.9476933E+000	8.4837265E+000	-3.5675797E+001	7.770632982443203E+000	7.3017848E-001	7.1433913E-003	5.2381887E+000	1.7816130E+000	1.000000000000000E+000	10	1.0556388E-002	1.2443103E-003	9.5751546E-002	6.8743154E-002	1.1787273E-001	3.5675797E+001
4.1413242E+003	7.3126235E+000	6.8079591E+000	9.9911346E+000	-4.2953140E+001	8.236685804578883E+000	7.3021287E-001	1.0880311E-002	5.6450005E+000	2.6210072E+000	1.000000000000000E+000	10	1.0378944E-002	1.0388154E-003	7.3256068E-002	6.8200462E-002	1.0008873E-001	4.2953140E+001
2.7973140E+003	7.8260179E+000	9.4859877E+000	1.2297582E+001	-5.0477089E+001	8.702928600047017E+000	7.3021293E-001	1.0511087E-002	5.9978600E+000	3.5687985E+000	1.000000000000000E+000	10	1.0185128E-002	8.2822202E-004	5.1748931E-002	6.2725350E-002	8.1316799E-002	5.0477089E+001
1.8906046E+003	8.5400419E+000	1.3336407E+001	1.5836415E+001	-5.7366306E+001	9.166672382081742E+000	7.3021042E-001	1.0071008E-002	6.3121972E+000	4.4765606E+000	1.000000000000000E+000	10	1.0032726E-002	6.3352252E-004	3.4052283E-002	5.3177148E-002	6.3145600E-002	5.7366306E+001
1.2871166E+003	9.5023308E+000	1.8726128E+001	2.0999098E+001	-6.3095074E+001	9.633200430864235E+000	7.3021269E-001	1.0527863E-002	6.6031976E+000	5.2510839E+000	1.000000000000000E+000	10	9.9382196E-003	4.7326888E-004	2.1549087E-002	4.2466521E-002	4.7621094E-002	6.3095074E+001
8.6306641E+002	1.1105016E+001	2.6724741E+001	2.8940165E+001	-6.7435493E+001	1.010020858640200E+001	7.3021328E-001	9.7689116E-003	6.9002118E+000	5.8842001E+000	1.000000000000000E+000	10	9.8828394E-003	3.4149215E-004	1.3259197E-002	3.1908873E-002	3.4554053E-002	6.7435493E+001
5.8369244E+002	1.3504608E+001	3.7926037E+001	4.0258648E+001	-7.0400330E+001	1.081917864721618E+001	7.3019010E-001	-8.1773539E-004	7.1894984E+000	6.3805065E+000	1.000000000000000E+000	11	1.0070746E-002	2.5015112E-004	8.3322758E-003	2.3400174E-002	2.4839384E-002	7.0400330E+001
3.9411707E+002	1.7148649E+001	5.3609013E+001	5.6285011E+001	-7.2261375E+001	1.128621242937515E+001	7.3019022E-001	-5.5840710E-004	7.5328112E+000	6.8335629E+000	1.000000000000000E+000	11	9.9472115E-003	1.7672931E-004	5.4130792E-003	1.6922025E-002	1.7766720E-002	7.2261375E+001
2.6644943E+002	2.2805679E+001	7.5304626E+001	7.8682182E+001	-7.3151291E+001	1.174965303810313E+001	7.3019493E-001	-6.3298270E-004	7.9320183E+000	7.2656455E+000	1.000000000000000E+000	11	9.8873395E-003	1.2566174E-004	3.6837508E-003	1.2163789E-002	1.2709358E-002	7.3151291E+001
1.8005759E+002	3.1343266E+001	1.0521196E+002	1.0978140E+002	-7.3410896E+001	1.221467740685330E+001	7.3018920E-001	-5.9532363E-004	8.4012442E+000	7.7164273E+000	1.000000000000000E+000	11	9.8565258E-003	8.9783200E-005	2.6006782E-003	8.7298658E-003	9.1090109E-003	7.3410896E+001
1.2159529E+002	4.4545467E+001	1.4647336E+002	1.5309717E+002	-7.3084435E+001	1.267513750868966E+001	7.3019922E-001	-7.1464223E-004	8.9360323E+000	8.1795177E+000	1.000000000000000E+000	11	9.8451553E-003	6.4306580E-005	1.9005063E-003	6.2491987E-003	6.5317997E-003	7.3084435E+001
8.2236801E+001	6.5047272E+001	2.0322232E+002	2.1337868E+002	-7.2251205E+001	1.337631626197253E+001	7.3019373E-001	-1.3069380E-003	9.5231915E+000	8.6382008E+000	1.000000000000000E+000	12	9.8920027E-003	4.6358909E-005	1.4286537E-003	4.4634365E-003	4.6865037E-003	7.2251205E+001
5.5515171E+001	9.6027977E+001	2.7919199E+002	2.9524487E+002	-7.1019363E+001	1.383886977730435E+001	7.3019809E-001	-1.3245814E-003	1.0268465E+001	9.1821985E+000	1.000000000000000E+000	12	9.8568387E-003	3.3385299E-005	1.1016232E-003	3.2028619E-003	3.3870190E-003	7.1019363E+001
3.7560089E+001	1.4398228E+002	3.7956073E+002	4.0595227E+002	-6.9226295E+001	1.432975022730534E+001	7.3019862E-001	-1.4397642E-003	1.1163805E+001	9.7594385E+000	1.000000000000000E+000	12	9.8418854E-003	2.4243947E-005	8.7369361E-004	2.3031982E-003	2.4633438E-003	6.9226295E+001
2.5365252E+001	2.1829938E+002	5.1199280E+002	5.5658893E+002	-6.6907959E+001	1.478884803576511E+001	7.3019969E-001	-1.4770643E-003	1.2255108E+001	1.0369926E+001	1.000000000000000E+000	12	9.8321559E-003	1.7665023E-005	7.0466608E-004	1.6527026E-003	1.7966580E-003	6.6907959E+001
1.7132671E+001	3.2959070E+002	6.7240454E+002	7.4883771E+002	-6.3887417E+001	1.520183165540220E+001	7.3018992E-001	-1.5429923E-003	1.3815430E+001	1.1139104E+001	1.000000000000000E+000	12	9.8293088E-003	1.3126087E-005	5.8775936E-004	1.1990995E-003	1.3354028E-003	6.3887417E+001
1.1591243E+001	5.0309201E+002	8.6103937E+002	9.9724139E+002	-5.9702915E+001	1.561129714149865E+001	7.3018241E-001	-1.4624617E-003	1.5946564E+001	1.1888103E+001	1.000000000000000E+000	12	9.8286700E-003	9.8558585E-006	5.0587917E-004	8.6580962E-004	1.0027662E-003	5.9702915E+001
7.8281527E+000	7.5833990E+002	1.0823317E+003	1.3215602E+003	-5.4982841E+001	1.649924377028947E+001	7.3020095E-001	-1.5438537E-003	1.8784536E+001	1.2599326E+001	1.000000000000000E+000	13	9.8406607E-003	7.4462446E-006	4.3420022E-004	6.1970711E-004	7.5668137E-004	5.4982841E+001
5.2930207E+000	1.1066666E+003	1.2811544E+003	1.6929464E+003	-4.9179409E+001	1.733575807674788E+001	7.3020345E-001	-1.5856531E-003	2.3470106E+001	1.3441000E+001	1.000000000000000E+000	13	9.8379189E-003	5.8111223E-006	3.8612718E-004	4.4700777E-004	5.9068616E-004	4.9179409E+001
3.5755143E+000	1.5462920E+003	1.4100922E+003	2.0926965E+003	-4.2362263E+001	1.855127282781177E+001	7.3020470E-001	-1.6285179E-003	3.1567060E+001	1.4332324E+001	1.000000000000000E+000	13	9.8318979E-003	4.6981959E-006	3.5308476E-004	3.2198449E-004	4.7785236E-004	4.2362263E+001
2.4172332E+000	2.0293330E+003	1.4451859E+003	2.4913359E+003	-3.5456501E+001	2.032849120549508E+001	7.3020583E-001	-1.6766296E-003	4.5559383E+001	1.5330655E+001	1.000000000000000E+000	13	9.8305559E-003	3.9458973E-006	3.2695557E-004	2.3284082E-004	4.0139107E-004	3.5456501E+001
1.6327059E+000	2.4591389E+003	1.3547235E+003	2.8076040E+003	-2.8850080E+001	2.293937727619777E+001	7.3020166E-001	-1.2184375E-003	7.1955086E+001	1.6752945E+001	1.000000000000000E+000	13	9.8287947E-003	3.5007768E-006	3.1196894E-004	1.7186164E-004	3.5617559E-004	2.8850080E+001
1.1020596E+000	2.9491689E+003	1.2554069E+003	3.2052524E+003	-2.3058561E+001	2.865236650753650E+001	7.3019898E-001	-1.5059602E-003	1.1503514E+002	1.7647169E+001	1.000000000000000E+000	14	9.8305186E-003	3.0670030E-006	2.8706164E-004	1.2219686E-004	3.1198791E-004	2.3058561E+001
7.4560940E-001	3.2521467E+003	1.1024467E+003	3.4339258E+003	-1.8726168E+001	3.432412080364884E+001	7.3020583E-001	-1.6927955E-003	1.9362042E+002	1.9956507E+001	1.000000000000000E+000	14	9.8319715E-003	2.8631869E-006	2.7579622E-004	9.3492279E-005	2.9121188E-004	1.8726168E+001
5.0390220E-001	3.5471587E+003	9.3480872E+002	3.6682695E+003	-1.4763893E+001	4.269995453482261E+001	7.3020285E-001	-1.7234016E-003	3.3787115E+002	2.1941895E+001	1.000000000000000E+000	14	9.8301461E-003	2.6797775E-006	2.6360771E-004	6.9470472E-005	2.7260810E-004	1.4763893E+001
3.4010270E-001	3.7850535E+003	8.8667822E+002	3.8875220E+003	-1.3184244E+001	5.509339213676867E+001	7.3020226E-001	-1.7553089E-003	5.2776917E+002	2.7455564E+001	1.000000000000000E+000	14	9.8285824E-003	2.5282384E-006	2.5045304E-004	5.8670572E-005	2.5723327E-004	1.3184244E+001
2.3021273E-001	4.1381201E+003	9.8205902E+002	4.2530552E+003	-1.3350460E+001	7.338666279237077E+001	7.3019910E-001	-1.7681541E-003	7.0396844E+002	3.7534126E+001	1.000000000000000E+000	14	9.8273419E-003	2.3106547E-006	2.2877104E-004	5.4291962E-005	2.3512509E-004	1.3350460E+001
1.5547264E-001	4.4830781E+003	1.1016798E+003	4.6164585E+003	-1.3806391E+001	1.004579358114861E+002	7.3020154E-001	-1.7831706E-003	9.2920343E+002	5.2918034E+001	1.000000000000000E+000	14	9.8287575E-003	2.1290687E-006	2.1035771E-004	5.1693689E-005	2.1661626E-004	1.3806391E+001
1.0504906E-001	4.8260122E+003	1.3034781E+003	4.9989448E+003	-1.5114608E+001	1.405073634203582E+002	7.3019874E-001	-1.8020330E-003	1.1623159E+003	7.9026917E+001	1.000000000000000E+000	14	9.8284008E-003	1.9660952E-006	1.9312199E-004	5.2161136E-005	2.0004221E-004	1.5114608E+001
7.1022727E-002	5.4408062E+003	1.6365720E+003	5.6816143E+003	-1.6741070E+001	1.997281547399180E+002	7.3019707E-001	-1.7491913E-003	1.3692655E+003	1.1360944E+002	1.000000000000000E+000	14	9.8270830E-003	1.7296287E-006	1.6854651E-004	5.0698094E-005	1.7600632E-004	1.6741070E+001
4.7988325E-002	6.1357842E+003	2.0868855E+003	6.4809673E+003	-1.8784050E+001	2.873589693288086E+002	7.3019975E-001	-1.7041750E-003	1.5892269E+003	1.6477962E+002	1.000000000000000E+000	14	9.8280758E-003	1.5164520E-006	1.4607988E-004	4.9684277E-005	1.5429796E-004	1.8784050E+001
3.2443926E-002	6.9938906E+003	2.9004097E+003	7.5714517E+003	-2.2524088E+001	4.169591191378131E+002	7.3016727E-001	-1.6298320E-003	1.6913262E+003	2.4819200E+002	1.000000000000000E+000	14	9.8288599E-003	1.2981474E-006	1.2200020E-004	5.0594237E-005	1.3207507E-004	2.2524088E+001
2.1920588E-002	7.9735605E+003	4.0777634E+003	8.9557705E+003	-2.7085684E+001	6.087600111012289E+002	7.3016340E-001	-1.5283141E-003	1.7805160E+003	3.6913400E+002	1.000000000000000E+000	14	9.8269889E-003	1.0972801E-006	9.9413737E-005	5.0841238E-005	1.1165985E-004	2.7085684E+001
1.4807615E-002	9.0074570E+003	5.6346528E+003	1.0624669E+004	-3.2028214E+001	8.926782104799349E+002	7.3018527E-001	-1.4402069E-003	1.9075145E+003	5.3650201E+002	1.000000000000000E+000	14	9.8278858E-003	9.2500630E-007	7.9794212E-005	4.9915605E-005	9.4120580E-005	3.2028214E+001
1.0000636E-002	1.0378423E+004	7.9401738E+003	1.3067441E+004	-3.7418358E+001	1.313050697299917E+003	7.3018557E-001	-1.3404139E-003	2.0042991E+003	7.4001648E+002	1.000000000000000E+000	14	9.8281680E-003	7.5211113E-007	6.0778541E-005	4.6499568E-005	7.6526077E-005	3.7418358E+001