EC-Lab ASCII FILE
Nb header lines : 62                          

Potentio Electrochemical Impedance Spectroscopy

Run on channel : 1 (SN 35512)
User : 
CE vs. WE compliance from -10 V to 10 V
Electrode connection : standard
Ewe ctrl range : min = -5.00 V, max = 5.00 V
Safety Limits :
	Do not start on E overload
Acquisition started on : 05/22/2023 18:35:20
Technique started on : 05/22/2023 18:35:21
Saved on :
	File : FullCell_EMD_ZnAnode_Calendar_90C_EIS_RT_C01.mpr
	Directory : C:\Users\CESL\Documents\EC-Lab\Data\PhD\Leifer\Results\Zn Ion GPE\2023\0523\
	Host : 10.110.196.171
Device : VSP (SN 1724)
Address : USB
EC-Lab for windows v11.16 (software)
Internet server v11.16 (firmware)
Command interpretor v11.16 (firmware)
Electrode material : Au/Pd
Initial state : 
Electrolyte : NaCl (0.2M)
Comments : Fe(CN)63-/Fe(CN)64- 5.10-3 M
Reference electrode : SCE Saturated Calomel Electrode (0.241 V)
Electrode surface area : 0.001 cm²
Characteristic mass : 0.001 g
Equivalent Weight : 0.000 g/eq.
Density : 0.000 g/cm3
Cycle Definition : Charge/Discharge alternance
Mode                Single sine         
E (V)               0.0000              
vs.                 Eoc                 
tE (h:m:s)          0:00:0.0000         
record              0                   
dI                  0.000               
unit dI             mA                  
dt (s)              0.000               
fi                  1.000               
unit fi             MHz                 
ff                  10.000              
unit ff             mHz                 
Nd                  6                   
Points              per decade          
spacing             Logarithmic         
Va (mV)             10.0                
pw                  0.10                
Na                  2                   
corr                1                   
E range min (V)     -5.000              
E range max (V)     5.000               
I Range             Auto                
Bandwidth           5                   
nc cycles           0                   
goto Ns'            0                   
nr cycles           0                   
inc. cycle          0                   

freq/Hz	Re(Z)/Ohm	-Im(Z)/Ohm	|Z|/Ohm	Phase(Z)/deg	time/s	<Ewe>/V	<I>/mA	Cs/µF	Cp/µF	cycle number	I Range	|Ewe|/V	|I|/A	Re(Y)/Ohm-1	Im(Y)/Ohm-1	|Y|/Ohm-1	Phase(Y)/deg	
1.0000193E+006	6.8309166E-002	2.4721613E+000	2.4731050E+000	-8.8417244E+001	1.702600080898264E+000	4.6873856E-001	-1.8589839E-002	6.4377628E-002	6.4328507E-002	1.000000000000000E+000	9	6.3579158E-005	2.5708234E-005	1.1168467E-002	4.0419576E-001	4.0435001E-001	8.8417244E+001
6.7575181E+005	1.3540192E-001	-4.6425939E+000	4.6445680E+000	8.8329437E+001	2.345100324688246E+000	4.6813655E-001	-1.2245370E-002	-5.0730858E-002	-5.0687741E-002	1.000000000000000E+000	9	3.4803720E-004	7.4934243E-005	6.2767281E-003	-2.1521378E-001	2.1530528E-001	-8.8329437E+001
4.5664050E+005	1.7646682E+000	-2.1643748E+000	2.7925925E+000	5.0808792E+001	2.754095490818145E+000	4.6822411E-001	-1.7208969E-002	-1.6103238E-001	-9.6730411E-002	1.000000000000000E+000	9	1.1771974E-003	4.2154285E-004	2.2628091E-001	-2.7753475E-001	3.5809019E-001	-5.0808792E+001
3.0857416E+005	1.9488240E+000	-1.0473087E+000	2.2124128E+000	2.8253828E+001	3.163095136900665E+000	4.6800864E-001	-5.3037349E-003	-4.9247688E-001	-1.1035778E-001	1.000000000000000E+000	9	2.9105665E-003	1.3155621E-003	3.9814410E-001	-2.1396482E-001	4.5199519E-001	-2.8253828E+001
2.0852534E+005	1.9509981E+000	-4.3573105E-001	1.9990635E+000	1.2589688E+001	3.572093022958143E+000	4.6794239E-001	-7.2630206E-003	-1.7516317E+000	-8.3219789E-002	1.000000000000000E+000	9	6.9490643E-003	3.4761599E-003	4.8820662E-001	-1.0903486E-001	5.0023425E-001	-1.2589688E+001
1.4090817E+005	1.9702225E+000	-3.9897099E-002	1.9706264E+000	1.1600838E+000	3.981085389095824E+000	4.6798408E-001	1.6864683E-002	-2.8310181E+001	-1.1604240E-002	1.000000000000000E+000	9	1.0446470E-002	5.3010914E-003	5.0734884E-001	-1.0273838E-002	5.0745285E-001	-1.1600838E+000
9.5214820E+004	2.0088208E+000	2.9868561E-001	2.0309048E+000	-8.4571791E+000	4.390079301840160E+000	4.6803656E-001	3.2632556E-002	5.5963035E+000	1.2104609E-001	1.000000000000000E+000	9	1.0790979E-002	5.3133848E-003	4.8703715E-001	7.2416104E-002	4.9239138E-001	8.4571791E+000
6.4345688E+004	2.0893989E+000	6.4663285E-001	2.1871722E+000	-1.7196392E+001	4.799081214616308E+000	4.6804363E-001	4.2391825E-002	3.8251009E+000	3.3434322E-001	1.000000000000000E+000	9	1.0943723E-002	5.0035948E-003	4.3677264E-001	1.3517357E-001	4.5721138E-001	1.7196392E+001
4.3476547E+004	2.2197969E+000	1.0299877E+000	2.4471152E+000	-2.4891342E+001	5.340100706933299E+000	4.6805567E-001	3.4143995E-002	3.5541282E+000	6.2963420E-001	1.000000000000000E+000	9	1.0142445E-002	4.1446537E-003	3.7068447E-001	1.7199793E-001	4.0864444E-001	2.4891342E+001
2.9384758E+004	2.4084487E+000	1.4823459E+000	2.8280690E+000	-3.1611362E+001	5.881080065999413E+000	4.6805590E-001	3.6121935E-002	3.6538312E+000	1.0038471E+000	1.000000000000000E+000	9	1.0237155E-002	3.6198394E-003	3.0113235E-001	1.8534018E-001	3.5359818E-001	3.1611362E+001
1.9853508E+004	2.6559453E+000	2.0149214E+000	3.3337598E+000	-3.7185616E+001	6.290092698734952E+000	4.6805176E-001	3.7913311E-002	3.9785497E+000	1.4533573E+000	1.000000000000000E+000	9	9.5808562E-003	2.8738892E-003	2.3897393E-001	1.8129654E-001	2.9996163E-001	3.7185616E+001
1.3417967E+004	2.9650831E+000	2.7191188E+000	4.0230989E+000	-4.2522266E+001	6.699078078177990E+000	4.6805578E-001	4.3063521E-002	4.3621969E+000	1.9926920E+000	1.000000000000000E+000	9	9.8484484E-003	2.4479758E-003	1.8319577E-001	1.6799901E-001	2.4856460E-001	4.2522266E+001
9.0820293E+003	3.3327658E+000	3.6277213E+000	4.9262247E+000	-4.7426498E+001	7.306333893648116E+000	4.6814349E-001	-4.2366472E-004	4.8306246E+000	2.6196465E+000	1.000000000000000E+000	10	1.0032659E-002	2.0365817E-003	1.3733345E-001	1.4948772E-001	2.0299521E-001	4.7426498E+001
6.1409590E+003	3.8168316E+000	4.9129434E+000	6.2213516E+000	-5.2156616E+001	7.709630952882435E+000	4.6812072E-001	2.8470536E-003	5.2752390E+000	3.2896991E+000	1.000000000000000E+000	10	9.2717847E-003	1.4903168E-003	9.8612837E-002	1.2693234E-001	1.6073677E-001	5.2156616E+001
4.1413242E+003	4.4852266E+000	6.6771474E+000	8.0437279E+000	-5.6109638E+001	8.397666158889479E+000	4.6815410E-001	1.0844884E-002	5.7555914E+000	3.9660404E+000	1.000000000000000E+000	10	9.8981624E-003	1.2305442E-003	6.9321774E-002	1.0319918E-001	1.2432047E-001	5.6109638E+001
2.7973140E+003	5.4534864E+000	9.0241604E+000	1.0544003E+001	-5.8854565E+001	8.863962474366417E+000	4.6816465E-001	1.0324619E-002	6.3048110E+000	4.6182208E+000	1.000000000000000E+000	10	9.4977934E-003	9.0077682E-004	4.9052738E-002	8.1170052E-002	9.4840646E-002	5.8854565E+001
1.8906046E+003	6.8053865E+000	1.2155188E+001	1.3930609E+001	-6.0756622E+001	9.328667643108929E+000	4.6815374E-001	1.1070503E-002	6.9256053E+000	5.2727947E+000	1.000000000000000E+000	10	9.2894556E-003	6.6683773E-004	3.5068128E-002	6.2635630E-002	7.1784370E-002	6.0756622E+001
1.2871166E+003	8.6382380E+000	1.6180960E+001	1.8342373E+001	-6.1904381E+001	9.795211905235192E+000	4.6816847E-001	1.1396827E-002	7.6418405E+000	5.9469666E+000	1.000000000000000E+000	10	9.1844853E-003	5.0072506E-004	2.5675219E-002	4.8094261E-002	5.4518573E-002	6.1904381E+001
8.6306641E+002	1.1225609E+001	2.1682835E+001	2.4416380E+001	-6.2628551E+001	1.026219046072220E+001	4.6816042E-001	1.0302225E-002	8.5047169E+000	6.7070174E+000	1.000000000000000E+000	10	9.1219675E-003	3.7360031E-004	1.8829873E-002	3.6370855E-002	4.0956113E-002	6.2628551E+001
5.8369244E+002	1.4798973E+001	2.8963772E+001	3.2525524E+001	-6.2935345E+001	1.098117649488267E+001	4.6816659E-001	-2.4313198E-003	9.4141464E+000	7.4652195E+000	1.000000000000000E+000	11	9.3293497E-003	2.8683167E-004	1.3988880E-002	2.7378304E-002	3.0745085E-002	6.2935345E+001
3.9411707E+002	1.9623875E+001	3.8316494E+001	4.3049393E+001	-6.2880646E+001	1.144820859705214E+001	4.6815899E-001	-2.4456764E-003	1.0539236E+001	8.3492336E+000	1.000000000000000E+000	11	9.1916202E-003	2.1351335E-004	1.0588897E-002	2.0675294E-002	2.3229131E-002	6.2880646E+001
2.6644943E+002	2.6189636E+001	5.0408215E+001	5.6805679E+001	-6.2545826E+001	1.191164933913024E+001	4.6815452E-001	-2.6216717E-003	1.1849609E+001	9.3308916E+000	1.000000000000000E+000	11	9.1345692E-003	1.6080380E-004	8.1160730E-003	1.5621323E-002	1.7603874E-002	6.2545826E+001
1.8005759E+002	3.4621605E+001	6.5911423E+001	7.4451134E+001	-6.2288189E+001	1.237666368121427E+001	4.6815383E-001	-2.6664168E-003	1.3410594E+001	1.0510582E+001	1.000000000000000E+000	11	9.0961922E-003	1.2217667E-004	6.2460373E-003	1.1890992E-002	1.3431629E-002	6.2288189E+001
1.2159529E+002	4.5433197E+001	8.6128807E+001	9.7377342E+001	-6.2188225E+001	1.283713967635413E+001	4.6815860E-001	-2.8632917E-003	1.5196898E+001	1.1888744E+001	1.000000000000000E+000	11	9.0840431E-003	9.3287032E-005	4.7913445E-003	9.0830689E-003	1.0269329E-002	6.2188225E+001
8.2236801E+001	5.9137272E+001	1.1252118E+002	1.2711504E+002	-6.2275124E+001	1.329232356467401E+001	4.6815753E-001	-2.8401746E-003	1.7199652E+001	1.3477036E+001	1.000000000000000E+000	11	9.0699028E-003	7.1351926E-005	3.6598851E-003	6.9637061E-003	7.8668902E-003	6.2275124E+001
5.5515171E+001	7.6838676E+001	1.4797839E+002	1.6673868E+002	-6.2559132E+001	1.375491078666528E+001	4.6815804E-001	-2.9028163E-003	1.9373592E+001	1.5259280E+001	1.000000000000000E+000	11	9.0599144E-003	5.4336011E-005	2.7638033E-003	5.3226217E-003	5.9974086E-003	6.2559132E+001
3.7560089E+001	1.0133665E+002	1.9715718E+002	2.2167560E+002	-6.2797325E+001	1.451172868929280E+001	4.6816856E-001	-3.0881173E-003	2.1492203E+001	1.7000839E+001	1.000000000000000E+000	12	9.0888944E-003	4.1000880E-005	2.0622001E-003	4.0121470E-003	4.5110965E-003	6.2797325E+001
2.5365252E+001	1.3588200E+002	2.6174628E+002	2.9491528E+002	-6.2564533E+001	1.497088415108738E+001	4.6815917E-001	-3.2687709E-003	2.3971790E+001	1.8882822E+001	1.000000000000000E+000	12	9.0812221E-003	3.0792646E-005	1.5623105E-003	3.0094415E-003	3.3908042E-003	6.2564533E+001
1.7132671E+001	1.8443164E+002	3.4765289E+002	3.9354486E+002	-6.2053818E+001	1.538482153075165E+001	4.6815476E-001	-3.4159010E-003	2.6720785E+001	2.0852224E+001	1.000000000000000E+000	12	9.0787187E-003	2.3069082E-005	1.1908223E-003	2.2446949E-003	2.5410063E-003	6.2053818E+001
1.1591243E+001	2.5650278E+002	4.5649841E+002	5.2362628E+002	-6.0668716E+001	1.579426451018662E+001	4.6815804E-001	-3.3427558E-003	3.0078133E+001	2.2860542E+001	1.000000000000000E+000	12	9.0703862E-003	1.7322252E-005	9.3551172E-004	1.6649317E-003	1.9097590E-003	6.0668716E+001
7.8281527E+000	3.7138712E+002	5.8913788E+002	6.9642792E+002	-5.7773045E+001	1.637627171116765E+001	4.6816158E-001	-3.2553154E-003	3.4509918E+001	2.4695934E+001	1.000000000000000E+000	12	9.0670604E-003	1.3019381E-005	7.6572795E-004	1.2146877E-003	1.4358988E-003	5.7773045E+001
5.2930207E+000	5.3674634E+002	7.3420612E+002	9.0948077E+002	-5.3831078E+001	1.763974881119793E+001	4.6816680E-001	-3.4888748E-003	4.0954208E+001	2.6689934E+001	1.000000000000000E+000	13	9.0754759E-003	9.9787439E-006	6.4890640E-004	8.8762795E-004	1.0995285E-003	5.3831078E+001
3.5755143E+000	7.6890436E+002	8.7806958E+002	1.1671418E+003	-4.8792149E+001	1.885526556221885E+001	4.6816844E-001	-3.5125285E-003	5.0693550E+001	2.8692162E+001	1.000000000000000E+000	13	9.0699848E-003	7.7711074E-006	5.6444947E-004	6.4458715E-004	8.5679389E-004	4.8792149E+001
2.4172332E+000	1.0750408E+003	9.9135376E+002	1.4623594E+003	-4.2680840E+001	2.063248577996274E+001	4.6816730E-001	-3.5933182E-003	6.6416031E+001	3.0522635E+001	1.000000000000000E+000	13	9.0668974E-003	6.2001841E-006	5.0270907E-004	4.6357544E-004	6.8382645E-004	4.2680840E+001
1.6327059E+000	1.4090096E+003	1.0030031E+003	1.7295442E+003	-3.5445152E+001	2.324337289066170E+001	4.6816540E-001	-3.7266549E-003	9.7187386E+001	3.2685196E+001	1.000000000000000E+000	13	9.0673631E-003	5.2426317E-006	4.7103220E-004	3.3530415E-004	5.7818700E-004	3.5445152E+001
1.1020596E+000	1.7286731E+003	9.6524945E+002	1.9799033E+003	-2.9177940E+001	2.709238363345503E+001	4.6817198E-001	-3.8988269E-003	1.4961513E+002	3.5560402E+001	1.000000000000000E+000	13	9.0666143E-003	4.5793217E-006	4.4098610E-004	2.4623601E-004	5.0507515E-004	2.9177940E+001
7.4560940E-001	1.9749558E+003	8.7623505E+002	2.1606106E+003	-2.3925581E+001	3.276412952950341E+001	4.6816787E-001	-4.0142210E-003	2.4360609E+002	4.0066036E+001	1.000000000000000E+000	13	9.0653431E-003	4.1957319E-006	4.2306236E-004	1.8770144E-004	4.6283213E-004	2.3925581E+001
5.0390220E-001	2.1725403E+003	8.0587140E+002	2.3171880E+003	-2.0351583E+001	4.113997640737216E+001	4.6816435E-001	-4.4410895E-003	3.9192966E+002	4.7404228E+001	1.000000000000000E+000	13	9.0651689E-003	3.9121423E-006	4.0461810E-004	1.5008704E-004	4.3155756E-004	2.0351583E+001
3.4010270E-001	2.3141152E+003	7.7948578E+002	2.4418696E+003	-1.8615566E+001	5.353343048933311E+001	4.6816331E-001	-4.5163352E-003	6.0034631E+002	6.1174904E+001	1.000000000000000E+000	13	9.0648104E-003	3.7122418E-006	3.8809676E-004	1.3072639E-004	4.0952227E-004	1.8615566E+001
2.3021273E-001	2.5082014E+003	8.5186444E+002	2.6489143E+003	-1.8759111E+001	7.182570629155816E+001	4.6816197E-001	-4.5476910E-003	8.1155939E+002	8.3931587E+001	1.000000000000000E+000	13	9.0648970E-003	3.4221180E-006	3.5745927E-004	1.2140447E-004	3.7751315E-004	1.8759111E+001
1.5547264E-001	2.7590217E+003	1.0132233E+003	2.9391873E+003	-2.0165258E+001	9.889697640403756E+001	4.6816432E-001	-4.6391166E-003	1.0103248E+003	1.2006511E+002	1.000000000000000E+000	13	9.0648653E-003	3.0841402E-006	3.1937478E-004	1.1728721E-004	3.4023012E-004	2.0165258E+001
1.0504906E-001	3.0725588E+003	1.2663164E+003	3.3232778E+003	-2.2398390E+001	1.389464052929252E+002	4.6816316E-001	-4.6780733E-003	1.1964257E+003	1.7371483E+002	1.000000000000000E+000	13	9.0636145E-003	2.7273118E-006	2.7820628E-004	1.1465920E-004	3.0090773E-004	2.2398390E+001
7.1022727E-002	3.4307322E+003	1.6177172E+003	3.7930110E+003	-2.5245611E+001	1.981672021057748E+002	4.6816060E-001	-4.6250741E-003	1.3852246E+003	2.5197484E+002	1.000000000000000E+000	13	9.0654744E-003	2.3900470E-006	2.3846168E-004	1.1244350E-004	2.6364278E-004	2.5245611E+001
4.7988325E-002	3.9070068E+003	2.1374741E+003	4.4534814E+003	-2.8682512E+001	2.857980153080134E+002	4.6815068E-001	-4.5015216E-003	1.5516139E+003	3.5742596E+002	1.000000000000000E+000	13	9.0644071E-003	2.0353530E-006	1.9699031E-004	1.0777091E-004	2.2454343E-004	2.8682512E+001
3.2443926E-002	4.5574722E+003	2.9666516E+003	5.4379751E+003	-3.3061806E+001	4.153981729836960E+002	4.6816757E-001	-4.2097471E-003	1.6535609E+003	4.9212888E+002	1.000000000000000E+000	13	9.0641947E-003	1.6668326E-006	1.5411667E-004	1.0032106E-004	1.8389199E-004	3.3061806E+001
2.1920588E-002	5.3029463E+003	3.9731536E+003	6.6262500E+003	-3.6841839E+001	6.071990634537360E+002	4.6814036E-001	-3.7749677E-003	1.8273956E+003	6.5700342E+002	1.000000000000000E+000	13	9.0647051E-003	1.3679993E-006	1.2077626E-004	9.0489812E-005	1.5091492E-004	3.6841839E+001
1.4807615E-002	6.5640889E+003	5.0866240E+003	8.3042764E+003	-3.7772713E+001	1.026395024324476E+003	4.6815404E-001	-3.1324304E-003	2.1130286E+003	7.9279529E+002	1.000000000000000E+000	14	9.0644807E-003	1.0915437E-006	9.5185518E-005	7.3760872E-005	1.2041989E-004	3.7772713E+001
1.0000636E-002	8.8911035E+003	6.8859106E+003	1.1245776E+004	-3.7756779E+001	1.446767515784391E+003	4.6815386E-001	-2.6231196E-003	2.3111660E+003	8.6651282E+002	1.000000000000000E+000	14	9.0633519E-003	8.0593384E-007	7.0303475E-005	5.4448068E-005	8.8922272E-005	3.7756779E+001