EC-Lab ASCII FILE
Nb header lines : 62                          

Potentio Electrochemical Impedance Spectroscopy

Run on channel : 1 (SN 35512)
User : 
CE vs. WE compliance from -10 V to 10 V
Electrode connection : standard
Ewe ctrl range : min = -5.00 V, max = 5.00 V
Safety Limits :
	Do not start on E overload
Acquisition started on : 05/22/2023 16:34:29
Technique started on : 05/22/2023 16:34:31
Saved on :
	File : FullCell_EMD_ZnAnode_NoCalendar_EIS_RT_C01.mpr
	Directory : C:\Users\CESL\Documents\EC-Lab\Data\PhD\Leifer\Results\Zn Ion GPE\2023\0523\
	Host : 10.110.196.171
Device : VSP (SN 1724)
Address : USB
EC-Lab for windows v11.16 (software)
Internet server v11.16 (firmware)
Command interpretor v11.16 (firmware)
Electrode material : Au/Pd
Initial state : 
Electrolyte : NaCl (0.2M)
Comments : Fe(CN)63-/Fe(CN)64- 5.10-3 M
Reference electrode : SCE Saturated Calomel Electrode (0.241 V)
Electrode surface area : 0.001 cm²
Characteristic mass : 0.001 g
Equivalent Weight : 0.000 g/eq.
Density : 0.000 g/cm3
Cycle Definition : Charge/Discharge alternance
Mode                Single sine         
E (V)               0.0000              
vs.                 Eoc                 
tE (h:m:s)          0:00:0.0000         
record              0                   
dI                  0.000               
unit dI             mA                  
dt (s)              0.000               
fi                  1.000               
unit fi             MHz                 
ff                  10.000              
unit ff             mHz                 
Nd                  6                   
Points              per decade          
spacing             Logarithmic         
Va (mV)             10.0                
pw                  0.10                
Na                  2                   
corr                1                   
E range min (V)     -5.000              
E range max (V)     5.000               
I Range             Auto                
Bandwidth           5                   
nc cycles           0                   
goto Ns'            0                   
nr cycles           0                   
inc. cycle          0                   

freq/Hz	Re(Z)/Ohm	-Im(Z)/Ohm	|Z|/Ohm	Phase(Z)/deg	time/s	<Ewe>/V	<I>/mA	Cs/µF	Cp/µF	cycle number	I Range	|Ewe|/V	|I|/A	Re(Y)/Ohm-1	Im(Y)/Ohm-1	|Y|/Ohm-1	Phase(Y)/deg	
1.0000193E+006	-2.0625305E+001	6.7277613E+000	2.1694838E+001	-1.6193420E+002	2.306090242840583E+000	-1.1914822E+000	-3.6571659E-003	2.3655992E-002	2.2749377E-003	1.000000000000000E+000	10	1.7227381E-004	7.9407746E-006	-4.3821532E-002	1.4294135E-002	4.6093915E-002	1.6193420E+002
6.7575181E+005	1.6311193E+001	-5.5651531E+000	1.7234442E+001	1.8838928E+001	2.715097382286331E+000	-1.1920648E+000	7.5292989E-004	-4.2320985E-002	-4.4128136E-003	1.000000000000000E+000	10	9.0039306E-004	5.2243820E-005	5.4915044E-002	-1.8736249E-002	5.8023348E-002	-1.8838928E+001
4.5664050E+005	9.2580967E+000	-2.0538726E+000	9.4831820E+000	1.2508270E+001	3.124086655065184E+000	-1.1919488E+000	1.8531319E-003	-1.6969623E-001	-7.9599628E-003	1.000000000000000E+000	10	3.2748261E-003	3.4532987E-004	1.0294696E-001	-2.2838382E-002	1.0544984E-001	-1.2508270E+001
3.0857416E+005	7.8080091E+000	-9.2011589E-001	7.8620367E+000	6.7208858E+000	3.533080914465245E+000	-1.1921573E+000	2.9999583E-003	-5.6055480E-001	-7.6777325E-003	1.000000000000000E+000	10	8.7976083E-003	1.1189986E-003	1.2631944E-001	-1.4885808E-002	1.2719351E-001	-6.7208858E+000
2.0852534E+005	7.3040123E+000	-3.2330140E-001	7.3111639E+000	2.5344596E+000	4.074085260188440E+000	-1.1922125E+000	4.3407036E-003	-2.3607700E+000	-4.6163192E-003	1.000000000000000E+000	10	1.0083302E-002	1.3791651E-003	1.3664334E-001	-6.0483175E-003	1.3677713E-001	-2.5344596E+000
1.4090817E+005	7.1499920E+000	1.2539394E-001	7.1510916E+000	-1.0047294E+000	4.615090859209886E+000	-1.1922058E+000	4.6446533E-003	9.0075655E+000	2.7695922E-003	1.000000000000000E+000	10	1.0160738E-002	1.4208653E-003	1.3981728E-001	2.4520643E-003	1.3983878E-001	1.0047294E+000
9.5214820E+004	7.1474466E+000	5.1974565E-001	7.1663189E+000	-4.1590953E+000	5.156081978231668E+000	-1.1921813E+000	6.3881790E-003	3.2160642E+000	1.6916642E-002	1.000000000000000E+000	10	1.0114903E-002	1.4114502E-003	1.3917418E-001	1.0120423E-002	1.3954166E-001	4.1590953E+000
6.4345688E+004	7.2379785E+000	9.1665798E-001	7.2957931E+000	-7.2178316E+000	5.564093090913957E+000	-1.1921878E+000	4.3817274E-003	2.6983194E+000	4.2595431E-002	1.000000000000000E+000	10	1.0709479E-002	1.4678978E-003	1.3597913E-001	1.7221157E-002	1.3706529E-001	7.2178316E+000
4.3476547E+004	7.3863287E+000	1.3511564E+000	7.5088930E+000	-1.0366313E+001	5.973090310377302E+000	-1.1921893E+000	4.9597928E-003	2.7093148E+000	8.7724090E-002	1.000000000000000E+000	10	1.0617671E-002	1.4140127E-003	1.3100165E-001	2.3963694E-002	1.3317542E-001	1.0366313E+001
2.9384758E+004	7.5760827E+000	1.8832304E+000	7.8066373E+000	-1.3959414E+001	6.382088676473359E+000	-1.1921813E+000	5.9163999E-003	2.8760376E+000	1.6736841E-001	1.000000000000000E+000	10	1.0364379E-002	1.3276368E-003	1.2431305E-001	3.0901210E-002	1.2809613E-001	1.3959414E+001
1.9853508E+004	7.7837601E+000	2.5683746E+000	8.1965523E+000	-1.8261124E+001	6.791087149234954E+000	-1.1921848E+000	6.3564745E-003	3.1212208E+000	3.0646357E-001	1.000000000000000E+000	10	1.0341018E-002	1.2616302E-003	1.1585826E-001	3.8229268E-002	1.2200252E-001	1.8261124E+001
1.3417967E+004	8.0487156E+000	3.5113492E+000	8.7813091E+000	-2.3569818E+001	7.200087115314091E+000	-1.1921818E+000	5.5080219E-003	3.3779981E+000	5.4011834E-001	1.000000000000000E+000	10	1.0146277E-002	1.1554401E-003	1.0437777E-001	4.5536064E-002	1.1387824E-001	2.3569818E+001
9.0820293E+003	8.3704967E+000	4.8301492E+000	9.6641378E+000	-2.9986860E+001	7.497345236100955E+000	-1.1921676E+000	7.2198436E-003	3.6280785E+000	9.0629905E-001	1.000000000000000E+000	10	1.0473236E-002	1.0837216E-003	8.9624144E-002	5.1717121E-002	1.0347535E-001	2.9986860E+001
6.1409590E+003	8.7618036E+000	6.7071905E+000	1.1034292E+001	-3.7434181E+001	7.900650748619228E+000	-1.1921738E+000	6.8935137E-003	3.8640549E+000	1.4276955E+000	1.000000000000000E+000	10	1.0418615E-002	9.4420329E-004	7.1962222E-002	5.5087328E-002	9.0626568E-002	3.7434181E+001
4.1413242E+003	9.3098679E+000	9.4100952E+000	1.3237203E+001	-4.5306763E+001	8.366705410750001E+000	-1.1921312E+000	1.1275626E-002	4.0840111E+000	2.0638707E+000	1.000000000000000E+000	10	1.0258314E-002	7.7496091E-004	5.3131375E-002	5.3703379E-002	7.5544663E-002	4.5306763E+001
2.7973140E+003	1.0047876E+001	1.3239015E+001	1.6620209E+001	-5.2802975E+001	8.832955486199353E+000	-1.1921251E+000	1.0606184E-002	4.2975726E+000	2.7268522E+000	1.000000000000000E+000	10	1.0087924E-002	6.0696737E-004	3.6374860E-002	4.7927275E-002	6.0167715E-002	5.2802975E+001
1.8906046E+003	1.1090835E+001	1.8609644E+001	2.1663921E+001	-5.9206223E+001	9.297708734971820E+000	-1.1921290E+000	1.1046258E-002	4.5235701E+000	3.3379769E+000	1.000000000000000E+000	10	9.9621667E-003	4.5985059E-004	2.3631437E-002	3.9651893E-002	4.6159696E-002	5.9206223E+001
1.2871166E+003	1.2657124E+001	2.6134352E+001	2.9038029E+001	-6.4158638E+001	9.764215930394130E+000	-1.1921347E+000	1.1055577E-002	4.7314095E+000	3.8324785E+000	1.000000000000000E+000	10	9.9040410E-003	3.4107140E-004	1.5010693E-002	3.0993991E-002	3.4437601E-002	6.4158638E+001
8.6306641E+002	1.5080627E+001	3.7255524E+001	4.0192032E+001	-6.7962440E+001	1.048317593793035E+001	-1.1921592E+000	1.1620056E-003	4.9497728E+000	4.2529144E+000	1.000000000000000E+000	11	1.0177282E-002	2.5321639E-004	9.3355393E-003	2.3062732E-002	2.4880553E-002	6.7962440E+001
5.8369244E+002	1.8707548E+001	5.2469658E+001	5.5704914E+001	-7.0376801E+001	1.095018281342345E+001	-1.1921549E+000	1.0911598E-003	5.1967020E+000	4.6105981E+000	1.000000000000000E+000	11	1.0000274E-002	1.7952229E-004	6.0287858E-003	1.6909128E-002	1.7951738E-002	7.0376801E+001
3.9411707E+002	2.4105108E+001	7.3652733E+001	7.7496979E+001	-7.1877731E+001	1.141721918227267E+001	-1.1921574E+000	1.2143905E-003	5.4828458E+000	4.9523830E+000	1.000000000000000E+000	11	9.9077532E-003	1.2784696E-004	4.0136511E-003	1.2263638E-002	1.2903729E-002	7.1877731E+001
2.6644943E+002	3.2191505E+001	1.0280405E+002	1.0772634E+002	-7.2612854E+001	1.188066245766095E+001	-1.1921492E+000	1.0691580E-003	5.8102541E+000	5.2914138E+000	1.000000000000000E+000	11	9.8732570E-003	9.1651280E-005	2.7739429E-003	8.8586267E-003	9.2827808E-003	7.2612854E+001
1.8005759E+002	4.4315681E+001	1.4265314E+002	1.4937804E+002	-7.2742416E+001	1.234568183974625E+001	-1.1921539E+000	1.1653567E-003	6.1962276E+000	5.6508856E+000	1.000000000000000E+000	11	9.8428093E-003	6.5891945E-005	1.9860214E-003	6.3930461E-003	6.6944244E-003	7.2742416E+001
1.2159529E+002	6.2333458E+001	1.9753929E+002	2.0714061E+002	-7.2486923E+001	1.280610322157736E+001	-1.1921554E+000	1.0866815E-003	6.6259766E+000	6.0259619E+000	1.000000000000000E+000	11	9.8335724E-003	4.7472935E-005	1.4527497E-003	4.6038693E-003	4.8276386E-003	7.2486923E+001
8.2236801E+001	8.9790558E+001	2.7262497E+002	2.8703085E+002	-7.1770409E+001	1.350729624155792E+001	-1.1921487E+000	7.8729028E-004	7.0988550E+000	6.4041634E+000	1.000000000000000E+000	12	9.8675527E-003	3.4378019E-005	1.0898672E-003	3.3090888E-003	3.4839460E-003	7.1770409E+001
5.5515171E+001	1.2895160E+002	3.7334491E+002	3.9498727E+002	-7.0945328E+001	1.396987018352957E+001	-1.1921459E+000	7.4611075E-004	7.6788859E+000	6.8604479E+000	1.000000000000000E+000	12	9.8478766E-003	2.4932137E-005	8.2653353E-004	2.3930073E-003	2.5317271E-003	7.0945328E+001
3.7560089E+001	1.9006215E+002	5.0990424E+002	5.4417456E+002	-6.9557518E+001	1.446174740690913E+001	-1.1921432E+000	8.0540834E-004	8.3100739E+000	7.2963505E+000	1.000000000000000E+000	12	9.8343231E-003	1.8072000E-005	6.4182881E-004	1.7219167E-003	1.8376457E-003	6.9557518E+001
2.5365252E+001	2.8525653E+002	6.8748053E+002	7.4431226E+002	-6.7464958E+001	1.492085217538988E+001	-1.1921506E+000	7.1201817E-004	9.1268425E+000	7.7862983E+000	1.000000000000000E+000	12	9.8281493E-003	1.3204336E-005	5.1490270E-004	1.2409379E-003	1.3435221E-003	6.7464958E+001
1.7132671E+001	4.1956439E+002	9.1496759E+002	1.0065784E+003	-6.5365868E+001	1.533383024833165E+001	-1.1921548E+000	6.1020773E-004	1.0152882E+001	8.3889103E+000	1.000000000000000E+000	12	9.8250760E-003	9.7608654E-006	4.1409826E-004	9.0304739E-004	9.9346461E-004	6.5365868E+001
1.1591243E+001	6.3896503E+002	1.1867405E+003	1.3478239E+003	-6.1701080E+001	1.596927043845062E+001	-1.1921532E+000	7.7344442E-004	1.1570027E+001	8.9697351E+000	1.000000000000000E+000	13	9.8319286E-003	7.2946686E-006	3.5173114E-004	6.5326510E-004	7.4193673E-004	6.1701080E+001
7.8281527E+000	9.5010626E+002	1.5000320E+003	1.7756119E+003	-5.7650211E+001	1.655127614611411E+001	-1.1921569E+000	7.4726407E-004	1.3553777E+001	9.6730909E+000	1.000000000000000E+000	13	9.8284995E-003	5.5352743E-006	3.0135337E-004	4.7577804E-004	5.6318613E-004	5.7650211E+001
5.2930207E+000	1.3853636E+003	1.8245839E+003	2.2909253E+003	-5.2791451E+001	1.738770373255829E+001	-1.1921511E+000	8.1432675E-004	1.6479830E+001	1.0453423E+001	1.000000000000000E+000	13	9.8268753E-003	4.2894785E-006	2.6396231E-004	3.4764977E-004	4.3650484E-004	5.2791451E+001
3.5755143E+000	1.9646261E+003	2.0358604E+003	2.8292195E+003	-4.6020123E+001	1.860334291026811E+001	-1.1921480E+000	1.8469759E-004	2.1864202E+001	1.1321301E+001	1.000000000000000E+000	13	9.8268446E-003	3.4733412E-006	2.4544072E-004	2.5434000E-004	3.5345438E-004	4.6020123E+001
2.4172332E+000	2.6409731E+003	2.2884321E+003	3.4945186E+003	-4.0909286E+001	2.038056030133157E+001	-1.1921399E+000	7.2272919E-004	2.8771568E+001	1.2338573E+001	1.000000000000000E+000	13	9.8272590E-003	2.8121926E-006	2.1626652E-004	1.8739729E-004	2.8616245E-004	4.0909286E+001
1.6327059E+000	3.2834231E+003	2.3814443E+003	4.0561243E+003	-3.5953121E+001	2.426446440580185E+001	-1.1921420E+000	9.6053892E-004	4.0932827E+001	1.4110101E+001	1.000000000000000E+000	14	9.8271742E-003	2.4227991E-006	1.9957416E-004	1.4474978E-004	2.4654076E-004	3.5953121E+001
1.1020596E+000	3.9851006E+003	2.3256309E+003	4.6140640E+003	-3.0267044E+001	2.811342240197700E+001	-1.1921386E+000	1.0219237E-003	6.2097523E+001	1.5775699E+001	1.000000000000000E+000	14	9.8249633E-003	2.1293513E-006	1.8718545E-004	1.0923796E-004	2.1672869E-004	3.0267044E+001
7.4560940E-001	4.5769712E+003	2.2900901E+003	5.1179272E+003	-2.6581116E+001	3.378516584468889E+001	-1.1921425E+000	1.1360304E-003	9.3208641E+001	1.8662642E+001	1.000000000000000E+000	14	9.8251468E-003	1.9197512E-006	1.7473906E-004	8.7430781E-005	1.9539161E-004	2.6581116E+001
5.0390220E-001	5.1436001E+003	2.2351262E+003	5.6082451E+003	-2.3487118E+001	4.216095250920625E+001	-1.1921395E+000	1.2799983E-003	1.4130965E+002	2.2445120E+001	1.000000000000000E+000	14	9.8256152E-003	1.7519947E-006	1.6353595E-004	7.1063740E-005	1.7830890E-004	2.3487118E+001
3.4010270E-001	5.6692217E+003	2.1019756E+003	6.0463525E+003	-2.0343254E+001	5.455439869783004E+001	-1.1921369E+000	1.3959168E-003	2.2262933E+002	2.6906101E+001	1.000000000000000E+000	14	9.8257242E-003	1.6250664E-006	1.5507311E-004	5.7496414E-005	1.6538896E-004	2.0343254E+001
2.3021273E-001	5.9866528E+003	2.0942815E+003	6.3423989E+003	-1.9281118E+001	7.284767087343789E+001	-1.1921375E+000	1.5237146E-003	3.3010776E+002	3.5993057E+001	1.000000000000000E+000	14	9.8223640E-003	1.5486828E-006	1.4882536E-004	5.2062845E-005	1.5766904E-004	1.9281118E+001
1.5547264E-001	6.4493633E+003	2.1638552E+003	6.8026875E+003	-1.8547354E+001	9.991894122588565E+001	-1.1921402E+000	1.6682306E-003	4.7308368E+002	4.7866684E+001	1.000000000000000E+000	14	9.8220827E-003	1.4438533E-006	1.3936567E-004	4.6759214E-005	1.4700073E-004	1.8547354E+001
1.0504906E-001	6.8565723E+003	2.0914937E+003	7.1684678E+003	-1.6963535E+001	1.399683702214679E+002	-1.1921391E+000	1.7788314E-003	7.2438831E+002	6.1664021E+001	1.000000000000000E+000	14	9.8203123E-003	1.3699319E-006	1.3343028E-004	4.0700892E-005	1.3949983E-004	1.6963535E+001
7.1022727E-002	7.2500981E+003	2.4125254E+003	7.6409556E+003	-1.8405256E+001	1.991890832476493E+002	-1.1921349E+000	1.7972830E-003	9.2886139E+002	9.2597519E+001	1.000000000000000E+000	14	9.8212250E-003	1.2853399E-006	1.2417910E-004	4.1321546E-005	1.3087368E-004	1.8405256E+001
4.7988325E-002	7.7292222E+003	2.4196912E+003	8.0991221E+003	-1.7383121E+001	2.868198939432332E+002	-1.1921415E+000	1.5024319E-003	1.3706437E+003	1.2234003E+002	1.000000000000000E+000	14	9.8219905E-003	1.2127229E-006	1.1783109E-004	3.6887908E-005	1.2347018E-004	1.7383121E+001
3.2443926E-002	8.6127178E+003	3.0867256E+003	9.1491406E+003	-1.9717253E+001	4.164200561522157E+002	-1.1921405E+000	1.4014305E-003	1.5892373E+003	1.8089400E+002	1.000000000000000E+000	14	9.8207314E-003	1.0734047E-006	1.0289152E-004	3.6875459E-005	1.0929989E-004	1.9717253E+001
2.1920588E-002	9.1843652E+003	3.7557390E+003	9.9226074E+003	-2.2240999E+001	6.082209493956179E+002	-1.1921418E+000	1.2737367E-003	1.9331809E+003	2.7695660E+002	1.000000000000000E+000	14	9.8199621E-003	9.8965540E-007	9.3281931E-005	3.8145543E-005	1.0077997E-004	2.2240999E+001
1.4807615E-002	9.9464111E+003	4.7734214E+003	1.1032526E+004	-2.5636999E+001	8.921392134943453E+002	-1.1921418E+000	1.0834703E-003	2.2516726E+003	4.2151675E+002	1.000000000000000E+000	14	9.8218638E-003	8.9026429E-007	8.1717757E-005	3.9217492E-005	9.0641071E-005	2.5636999E+001
1.0000636E-002	1.0944602E+004	6.2395078E+003	1.2598244E+004	-2.9687428E+001	1.312511694047651E+003	-1.1921415E+000	1.0113241E-003	2.5505989E+003	6.2563751E+002	1.000000000000000E+000	14	9.8223612E-003	7.7966115E-007	6.8957248E-005	3.9312468E-005	7.9376143E-005	2.9687428E+001