EC-Lab ASCII FILE
Nb header lines : 62                          

Potentio Electrochemical Impedance Spectroscopy

Run on channel : 1 (SN 35512)
User : 
CE vs. WE compliance from -10 V to 10 V
Electrode connection : standard
Ewe ctrl range : min = -5.00 V, max = 5.00 V
Safety Limits :
	Do not start on E overload
Acquisition started on : 07/20/2023 19:23:25
Technique started on : 07/20/2023 19:23:27
Saved on :
	File : 0720_05_EIS_0.5MTFSI_Blocking_InsideGB_0hr_60C_0x_Thin_Sample_t2_C01.mpr
	Directory : C:\Users\CESL\Documents\EC-Lab\Data\PhD\Leifer\Results\Zn Ion GPE\2023\0720\
	Host : 10.110.196.171
Device : VSP (SN 17241724)
Address : USB
EC-Lab for windows v11.16 (software)
Internet server v11.16 (firmware)
Command interpretor v11.16 (firmware)
Electrode material : Au/Pd
Initial state : 
Electrolyte : NaCl (0.2M)
Comments : Fe(CN)63-/Fe(CN)64- 5.10-3 M
Reference electrode : SCE Saturated Calomel Electrode (0.241 V)
Electrode surface area : 0.001 cm²
Characteristic mass : 0.001 g
Equivalent Weight : 0.000 g/eq.
Density : 0.000 g/cm3
Cycle Definition : Charge/Discharge alternance
Mode                Single sine         
E (V)               0.0000              
vs.                 Eoc                 
tE (h:m:s)          0:00:0.0000         
record              0                   
dI                  0.000               
unit dI             mA                  
dt (s)              0.000               
fi                  1.000               
unit fi             MHz                 
ff                  10.000              
unit ff             mHz                 
Nd                  6                   
Points              per decade          
spacing             Logarithmic         
Va (mV)             10.0                
pw                  0.10                
Na                  2                   
corr                1                   
E range min (V)     -5.000              
E range max (V)     5.000               
I Range             Auto                
Bandwidth           5                   
nc cycles           0                   
goto Ns'            0                   
nr cycles           0                   
inc. cycle          0                   

freq/Hz	Re(Z)/Ohm	-Im(Z)/Ohm	|Z|/Ohm	Phase(Z)/deg	time/s	<Ewe>/V	<I>/mA	Cs/µF	Cp/µF	cycle number	I Range	|Ewe|/V	|I|/A	Re(Y)/Ohm-1	Im(Y)/Ohm-1	|Y|/Ohm-1	Phase(Y)/deg	
1.0000193E+006	-7.6761414E+001	1.8776356E+001	7.9024467E+001	-1.6625496E+002	2.639094445359660E+000	-4.1375235E-002	7.0598314E-004	8.4761856E-003	4.7851980E-004	1.000000000000000E+000	11	3.2128286E-004	4.0656123E-006	-1.2291922E-002	3.0066867E-003	1.2654308E-002	1.6625496E+002
6.7575181E+005	5.0337906E+001	-1.1980101E+001	5.1743866E+001	1.3386988E+001	3.048083451431012E+000	-4.1971929E-002	2.2908750E-004	-1.9659499E-002	-1.0538423E-003	1.000000000000000E+000	11	1.6065619E-003	3.1048356E-005	1.8800847E-002	-4.4744816E-003	1.9325962E-002	-1.3386988E+001
4.5664050E+005	2.7759087E+001	-3.8089421E+000	2.8019188E+001	7.8130074E+000	3.751079111505533E+000	-4.1850775E-002	1.0919455E-002	-9.1504261E-002	-1.6909819E-003	1.000000000000000E+000	10	8.8091604E-003	3.1439742E-004	3.5358518E-002	-4.8516924E-003	3.5689827E-002	-7.8130074E+000
3.0857416E+005	2.2993166E+001	-1.6717907E+000	2.3053862E+001	4.1585531E+000	4.292089697177289E+000	-4.2092819E-002	1.1253245E-002	-3.0851671E-001	-1.6223895E-003	1.000000000000000E+000	10	1.0142941E-002	4.3996712E-004	4.3262478E-002	-3.1455352E-003	4.3376680E-002	-4.1585531E+000
2.0852534E+005	2.1315960E+001	-6.6417038E-001	2.1326305E+001	1.7846651E+000	4.833081456221407E+000	-4.2073797E-002	1.0725524E-002	-1.1491634E+000	-1.1145757E-003	1.000000000000000E+000	10	1.0145374E-002	4.7572111E-004	4.6867702E-002	-1.4603208E-003	4.6890449E-002	-1.7846651E+000
1.4090817E+005	2.0666826E+001	7.6154664E-002	2.0666967E+001	-2.1112680E-001	5.373084761871723E+000	-4.2076055E-002	1.1685860E-002	1.4831581E+001	2.0138493E-004	1.000000000000000E+000	10	1.0106431E-002	4.8901374E-004	4.8386063E-002	1.7829657E-004	4.8386391E-002	2.1112680E-001
9.5214820E+004	2.0465317E+001	7.5753254E-001	2.0479332E+001	-2.1198602E+000	5.782091287925141E+000	-4.2073295E-002	1.0445816E-002	2.2065525E+000	3.0191541E-003	1.000000000000000E+000	10	1.0709619E-002	5.2294770E-004	4.8796304E-002	1.8062162E-003	4.8829719E-002	2.1198602E+000
6.4345688E+004	2.0429277E+001	1.4694551E+000	2.0482058E+001	-4.1141357E+000	6.190076213999419E+000	-4.2066600E-002	1.0990315E-002	1.6832335E+000	8.6638285E-003	1.000000000000000E+000	10	1.0534738E-002	5.1433983E-004	4.8697408E-002	3.5027498E-003	4.8823219E-002	4.1141357E+000
4.3476547E+004	2.0517649E+001	2.3063948E+000	2.0646873E+001	-6.4137106E+000	6.599076873448212E+000	-4.2064570E-002	1.1025744E-002	1.5871993E+000	1.9805700E-002	1.000000000000000E+000	10	1.0343932E-002	5.0099264E-004	4.8130348E-002	5.4103462E-003	4.8433483E-002	6.4137106E+000
2.9384758E+004	2.0700169E+001	3.3838196E+000	2.0974918E+001	-9.2839251E+000	7.008089906157693E+000	-4.2074546E-002	1.0667718E-002	1.6006296E+000	4.1658599E-002	1.000000000000000E+000	10	1.0193441E-002	4.8598240E-004	4.7051482E-002	7.6914215E-003	4.7675990E-002	9.2839251E+000
1.9853508E+004	2.0953901E+001	4.8452015E+000	2.1506788E+001	-1.3019760E+001	7.416092725557974E+000	-4.2077959E-002	1.0738577E-002	1.6545163E+000	8.3973765E-002	1.000000000000000E+000	10	1.0103538E-002	4.6978367E-004	4.5301624E-002	1.0475161E-002	4.6496946E-002	1.3019760E+001
1.3417967E+004	2.1298975E+001	6.9301214E+000	2.2398056E+001	-1.8023514E+001	7.693100685399259E+000	-4.2046126E-002	1.1415475E-002	1.7115618E+000	1.6385271E-001	1.000000000000000E+000	10	1.0565956E-002	4.7173540E-004	4.2455900E-002	1.3814024E-002	4.4646733E-002	1.8023514E+001
9.0820293E+003	2.1748442E+001	9.8131084E+000	2.3859837E+001	-2.4285358E+001	7.990334779518889E+000	-4.2075124E-002	1.0098973E-002	1.7857910E+000	3.0207092E-001	1.000000000000000E+000	10	1.0748524E-002	4.5048608E-004	3.8202625E-002	1.7237395E-002	4.1911434E-002	2.4285358E+001
6.1409590E+003	2.2383989E+001	1.3965797E+001	2.6383451E+001	-3.1960825E+001	8.393639812034962E+000	-4.2087186E-002	8.2752649E-003	1.8557445E+000	5.1997977E-001	1.000000000000000E+000	10	1.0785018E-002	4.0877966E-004	3.2156907E-002	2.0063307E-002	3.7902545E-002	3.1960825E+001
4.1413242E+003	2.3345881E+001	1.9863682E+001	3.0652830E+001	-4.0392567E+001	8.859700100838381E+000	-4.2056996E-002	9.7595882E-003	1.9347335E+000	8.1245536E-001	1.000000000000000E+000	10	1.0750110E-002	3.5070532E-004	2.4846721E-002	2.1140661E-002	3.2623414E-002	4.0392567E+001
2.7973140E+003	2.4708118E+001	2.8318855E+001	3.7582558E+001	-4.8895397E+001	9.799954305490246E+000	-4.2070404E-002	1.1746838E-003	2.0091076E+000	1.1407275E+000	1.000000000000000E+000	11	1.0247391E-002	2.7266348E-004	1.7493108E-002	2.0049475E-002	2.6608087E-002	4.8895397E+001
1.8906046E+003	2.6561695E+001	4.0293270E+001	4.8260452E+001	-5.6606762E+001	1.026470939423598E+001	-4.2072307E-002	1.2830008E-003	2.0892329E+000	1.4563613E+000	1.000000000000000E+000	11	9.8714540E-003	2.0454540E-004	1.1404415E-002	1.7300144E-002	2.0720899E-002	5.6606762E+001
1.2871166E+003	2.9128517E+001	5.6949276E+001	6.3966324E+001	-6.2911083E+001	1.073117453636951E+001	-4.2067461E-002	1.2874731E-003	2.1712711E+000	1.7210270E+000	1.000000000000000E+000	11	9.6197678E-003	1.5038800E-004	7.1189441E-003	1.3918275E-002	1.5633225E-002	6.2911083E+001
8.6306641E+002	3.2751724E+001	8.1705688E+001	8.8025536E+001	-6.8156624E+001	1.119820906521636E+001	-4.2077307E-002	1.0991741E-003	2.2569587E+000	1.9445131E+000	1.000000000000000E+000	11	9.4752526E-003	1.0764209E-004	4.2268489E-003	1.0544717E-002	1.1360340E-002	6.8156624E+001
5.8369244E+002	3.7919029E+001	1.1607921E+002	1.2211566E+002	-7.1909592E+001	1.166517890073010E+001	-4.2068727E-002	1.1938815E-003	2.3489926E+000	2.1225004E+000	1.000000000000000E+000	11	9.3930680E-003	7.6919438E-005	2.5428128E-003	7.7841585E-003	8.1889573E-003	7.1909592E+001
3.9411707E+002	4.4840382E+001	1.6555556E+002	1.7152055E+002	-7.4845154E+001	1.213221969621372E+001	-4.2069994E-002	1.1194941E-003	2.4392209E+000	2.2725127E+000	1.000000000000000E+000	11	9.3564447E-003	5.4549993E-005	1.5241823E-003	5.6274468E-003	5.8302050E-003	7.4845154E+001
2.6644943E+002	5.6550045E+001	2.3608337E+002	2.4276175E+002	-7.6529503E+001	1.259566782494949E+001	-4.2078499E-002	1.2279979E-003	2.5301132E+000	2.3928211E+000	1.000000000000000E+000	11	9.3364799E-003	3.8459435E-005	9.5956068E-004	4.0059439E-003	4.1192649E-003	7.6529503E+001
1.8005759E+002	7.2271812E+001	3.3678824E+002	3.4445541E+002	-7.7888504E+001	1.331368679238949E+001	-4.2077865E-002	-8.0401820E-005	2.6245315E+000	2.5089939E+000	1.000000000000000E+000	12	9.4051845E-003	2.7304504E-005	6.0912018E-004	2.8385131E-003	2.9031334E-003	7.7888504E+001
1.2159529E+002	9.1195580E+001	4.8331915E+002	4.9184756E+002	-7.9314713E+001	1.377413494754001E+001	-4.2074267E-002	1.4893722E-004	2.7081292E+000	2.6150279E+000	1.000000000000000E+000	12	9.3544805E-003	1.9019064E-005	3.7697513E-004	1.9978965E-003	2.0331503E-003	7.9314713E+001
8.2236801E+001	1.2535822E+002	6.8702545E+002	6.9836859E+002	-7.9659271E+001	1.422932320917607E+001	-4.2073499E-002	5.0708168E-006	2.8169627E+000	2.7261977E+000	1.000000000000000E+000	12	9.3396399E-003	1.3373511E-005	2.5702984E-004	1.4086511E-003	1.4319086E-003	7.9659271E+001
5.5515171E+001	1.5062891E+002	9.9608386E+002	1.0074086E+003	-8.1400818E+001	1.469187891116599E+001	-4.2074770E-002	1.3817579E-005	2.8781443E+000	2.8137987E+000	1.000000000000000E+000	12	9.3389200E-003	9.2702403E-006	1.4842163E-004	9.8148710E-004	9.9264586E-004	8.1400818E+001
3.7560089E+001	2.1569278E+002	1.3910530E+003	1.4076760E+003	-8.1186066E+001	1.518275781448756E+001	-4.2074069E-002	-1.2460374E-005	3.0461400E+000	2.9746220E+000	1.000000000000000E+000	12	9.3220528E-003	6.6222997E-006	1.0885045E-004	7.0200185E-004	7.1039074E-004	8.1186066E+001
2.5365252E+001	3.2689911E+002	2.0055872E+003	2.0320538E+003	-8.0742531E+001	1.589185294150957E+001	-4.2075533E-002	-2.1267908E-005	3.1285236E+000	3.0475588E+000	1.000000000000000E+000	13	9.3388520E-003	4.5957700E-006	7.9166814E-005	4.8570338E-004	4.9211294E-004	8.0742531E+001
1.7132671E+001	4.6578900E+002	2.8717222E+003	2.9092520E+003	-8.0786942E+001	1.630483266778174E+001	-4.2083234E-002	7.6435417E-006	3.2348387E+000	3.1519172E+000	1.000000000000000E+000	13	9.3281157E-003	3.2063622E-006	5.5033448E-005	3.3929676E-004	3.4373096E-004	8.0786942E+001
1.1591243E+001	6.7964978E+002	4.0618948E+003	4.1183628E+003	-8.0501076E+001	1.671429407384130E+001	-4.2087749E-002	2.0252071E-005	3.3803482E+000	3.2882862E+000	1.000000000000000E+000	13	9.3246121E-003	2.2641552E-006	4.0071525E-005	2.3948563E-004	2.4281493E-004	8.0501076E+001
7.8281527E+000	1.0129974E+003	5.8008970E+003	5.8886816E+003	-8.0094452E+001	1.729625596819096E+001	-4.2078450E-002	3.7840907E-006	3.5048196E+000	3.4011035E+000	1.000000000000000E+000	13	9.3231639E-003	1.5832345E-006	2.9212735E-005	1.6728578E-004	1.6981730E-004	8.0094452E+001
5.2930207E+000	1.4607991E+003	8.1626084E+003	8.2922920E+003	-7.9853630E+001	1.813267710127548E+001	-4.2071864E-002	1.7896035E-006	3.6837282E+000	3.5694091E+000	1.000000000000000E+000	13	9.3218312E-003	1.1241561E-006	2.1244239E-005	1.1870794E-004	1.2059392E-004	7.9853630E+001
3.5755143E+000	2.2978196E+003	1.1590857E+004	1.1816427E+004	-7.8786835E+001	1.995534348112415E+001	-4.2070981E-002	-7.7452876E-007	3.8403082E+000	3.6950886E+000	1.000000000000000E+000	14	9.3227010E-003	7.8896107E-007	1.6456730E-005	8.3012448E-005	8.4627951E-005	7.8786835E+001
2.4172332E+000	3.5065278E+003	1.6309711E+004	1.6682398E+004	-7.7866325E+001	2.173255703222821E+001	-4.2071372E-002	-1.7331062E-006	4.0369678E+000	3.8586097E+000	1.000000000000000E+000	14	9.3221562E-003	5.5880190E-007	1.2599699E-005	5.8604277E-005	5.9943421E-005	7.7866325E+001
1.6327059E+000	5.3431748E+003	2.2832500E+004	2.3449361E+004	-7.6828880E+001	2.434344099622103E+001	-4.2071089E-002	-2.2444697E-006	4.2693200E+000	4.0476561E+000	1.000000000000000E+000	14	9.3228547E-003	3.9757393E-007	9.7171132E-006	4.1523261E-005	4.2645086E-005	7.6828880E+001
1.1020596E+000	8.1590073E+003	3.1855807E+004	3.2884066E+004	-7.5634048E+001	2.819245131235220E+001	-4.2069141E-002	-1.9217514E-006	4.5334253E+000	4.2543440E+000	1.000000000000000E+000	14	9.3224067E-003	2.8349314E-007	7.5451208E-006	2.9458972E-005	3.0409865E-005	7.5634048E+001
7.4560940E-001	1.2704113E+004	4.3990469E+004	4.5788164E+004	-7.3891685E+001	3.386318424841738E+001	-4.2071212E-002	-2.0555149E-006	4.8523283E+000	4.4787917E+000	1.000000000000000E+000	14	9.3204146E-003	2.0355510E-007	6.0595153E-006	2.0982254E-005	2.1839705E-005	7.3891685E+001
5.0390220E-001	1.9717830E+004	6.0430711E+004	6.3566215E+004	-7.1929108E+001	4.223892955289921E+001	-4.2065632E-002	-2.3943674E-006	5.2265625E+000	4.7236624E+000	1.000000000000000E+000	14	9.3200142E-003	1.4661899E-007	4.8798488E-006	1.4955641E-005	1.5731628E-005	7.1929108E+001
3.4010270E-001	2.9775217E+004	8.1342789E+004	8.6621086E+004	-6.9895042E+001	5.463229086154024E+001	-4.2065505E-002	-1.8404533E-006	5.7529550E+000	5.0731983E+000	1.000000000000000E+000	14	9.3204947E-003	1.0760076E-007	3.9683287E-006	1.0841061E-005	1.1544533E-005	6.9895042E+001
2.3021273E-001	4.4403293E+004	1.0919218E+005	1.1787529E+005	-6.7870750E+001	7.292551586372429E+001	-4.2070828E-002	-1.1028221E-006	6.3313928E+000	5.4329634E+000	1.000000000000000E+000	14	9.3211913E-003	7.9076720E-008	3.1957265E-006	7.8586145E-006	8.4835419E-006	6.7870750E+001
1.5547264E-001	6.2167977E+004	1.4231934E+005	1.5530503E+005	-6.6403320E+001	9.999670186961157E+001	-4.2070929E-002	-1.5934256E-005	7.1928706E+000	6.0403075E+000	1.000000000000000E+000	14	9.3203504E-003	6.0013193E-008	2.5774821E-006	5.9005552E-006	6.4389415E-006	6.6403320E+001
1.0504906E-001	9.7890867E+004	1.8802997E+005	2.1198559E+005	-6.2497925E+001	1.400461175851233E+002	-4.2070989E-002	-1.6203825E-005	8.0575104E+000	6.3393149E+000	1.000000000000000E+000	14	9.3206195E-003	4.3968175E-008	2.1783590E-006	4.1842186E-006	4.7173016E-006	6.2497925E+001
7.1022727E-002	1.3874611E+005	2.4526217E+005	2.8178719E+005	-6.0502930E+001	1.992669170380104E+002	-4.2072017E-002	-1.0102336E-005	9.1367598E+000	6.9216700E+000	1.000000000000000E+000	14	9.3214596E-003	3.3079786E-008	1.7473436E-006	3.0887879E-006	3.5487774E-006	6.0502930E+001
4.7988325E-002	2.0458069E+005	3.1296475E+005	3.7389863E+005	-5.6827915E+001	2.868976773069298E+002	-4.2076051E-002	-4.6825558E-006	1.0597151E+001	7.4245858E+000	1.000000000000000E+000	14	9.3210451E-003	2.4929339E-008	1.4633792E-006	2.2386575E-006	2.6745217E-006	5.6827915E+001
3.2443926E-002	3.0657134E+005	3.8800350E+005	4.9450247E+005	-5.1686848E+001	4.164978475159296E+002	-4.2079080E-002	1.3576721E-006	1.2643028E+001	7.7836885E+000	1.000000000000000E+000	14	9.3215033E-003	1.8850267E-008	1.2537029E-006	1.5867142E-006	2.0222346E-006	5.1686848E+001
2.1920588E-002	4.5450834E+005	5.0781025E+005	6.8150500E+005	-4.8170319E+001	6.082987552393170E+002	-4.2072587E-002	1.0334447E-005	1.4297709E+001	7.9383693E+000	1.000000000000000E+000	14	9.3195383E-003	1.3674938E-008	9.7859674E-007	1.0933604E-006	1.4673407E-006	4.8170319E+001
1.4807615E-002	6.4304825E+005	7.5774088E+005	9.9382206E+005	-4.9680775E+001	8.922170282180305E+002	-4.2067770E-002	2.5751551E-005	1.4184507E+001	8.2459078E+000	1.000000000000000E+000	14	9.3222708E-003	9.3802210E-009	6.5106792E-007	7.6719095E-007	1.0062164E-006	4.9680775E+001
1.0000636E-002	8.6342494E+005	7.5165569E+005	1.1447659E+006	-4.1041241E+001	1.312589542184636E+003	-4.2064626E-002	2.5735433E-005	2.1172569E+001	9.1280518E+000	1.000000000000000E+000	14	9.3206000E-003	8.1419271E-009	6.5885712E-007	5.7356891E-007	8.7354107E-007	4.1041241E+001