EC-Lab ASCII FILE
Nb header lines : 62                          

Potentio Electrochemical Impedance Spectroscopy

Run on channel : 1 (SN 35512)
User : 
CE vs. WE compliance from -10 V to 10 V
Electrode connection : standard
Ewe ctrl range : min = -5.00 V, max = 5.00 V
Safety Limits :
	Do not start on E overload
Acquisition started on : 07/20/2023 18:46:40
Technique started on : 07/20/2023 18:46:42
Saved on :
	File : 0720_05_EIS_0.5MTFSI_Blocking_InsideGB_0hr_40C_0x_Thin_Sample_t2_C01.mpr
	Directory : C:\Users\CESL\Documents\EC-Lab\Data\PhD\Leifer\Results\Zn Ion GPE\2023\0720\
	Host : 10.110.196.171
Device : VSP (SN 17241724)
Address : USB
EC-Lab for windows v11.16 (software)
Internet server v11.16 (firmware)
Command interpretor v11.16 (firmware)
Electrode material : Au/Pd
Initial state : 
Electrolyte : NaCl (0.2M)
Comments : Fe(CN)63-/Fe(CN)64- 5.10-3 M
Reference electrode : SCE Saturated Calomel Electrode (0.241 V)
Electrode surface area : 0.001 cm²
Characteristic mass : 0.001 g
Equivalent Weight : 0.000 g/eq.
Density : 0.000 g/cm3
Cycle Definition : Charge/Discharge alternance
Mode                Single sine         
E (V)               0.0000              
vs.                 Eoc                 
tE (h:m:s)          0:00:0.0000         
record              0                   
dI                  0.000               
unit dI             mA                  
dt (s)              0.000               
fi                  1.000               
unit fi             MHz                 
ff                  10.000              
unit ff             mHz                 
Nd                  6                   
Points              per decade          
spacing             Logarithmic         
Va (mV)             10.0                
pw                  0.10                
Na                  2                   
corr                1                   
E range min (V)     -5.000              
E range max (V)     5.000               
I Range             Auto                
Bandwidth           5                   
nc cycles           0                   
goto Ns'            0                   
nr cycles           0                   
inc. cycle          0                   

freq/Hz	Re(Z)/Ohm	-Im(Z)/Ohm	|Z|/Ohm	Phase(Z)/deg	time/s	<Ewe>/V	<I>/mA	Cs/µF	Cp/µF	cycle number	I Range	|Ewe|/V	|I|/A	Re(Y)/Ohm-1	Im(Y)/Ohm-1	|Y|/Ohm-1	Phase(Y)/deg	
1.0000193E+006	-2.5801761E+002	-3.9772221E+001	2.6106497E+002	1.7123709E+002	2.487081664789002E+000	-2.7673611E-002	2.0706789E-003	-4.0015839E-003	-9.2874048E-005	1.000000000000000E+000	11	1.0017456E-003	3.8371504E-006	-3.7857520E-003	-5.8355613E-004	3.8304641E-003	-1.7123709E+002
6.7575181E+005	1.8643016E+002	-1.6416811E+001	1.8715158E+002	5.0324154E+000	2.896077870886074E+000	-2.8379226E-002	8.7787706E-004	-1.4346438E-002	-1.1039126E-004	1.000000000000000E+000	11	4.7958954E-003	2.5625728E-005	5.3226654E-003	-4.6870741E-004	5.3432626E-003	-5.0324154E+000
4.5664050E+005	9.9922981E+001	-6.0105906E+000	1.0010359E+002	3.4423215E+000	3.305086903652409E+000	-2.8366359E-002	8.5998146E-004	-5.7986718E-002	-2.0905642E-004	1.000000000000000E+000	11	1.0222452E-002	1.0211873E-004	9.9716280E-003	-5.9981574E-004	9.9896519E-003	-3.4423215E+000
3.0857416E+005	8.2275345E+001	-3.2845004E+000	8.2340881E+001	2.2860813E+000	3.846079782670131E+000	-2.8490532E-002	1.0775487E-003	-1.5703312E-001	-2.4986122E-004	1.000000000000000E+000	11	1.0097574E-002	1.2263135E-004	1.2134969E-002	-4.8443809E-004	1.2144635E-002	-2.2860813E+000
2.0852534E+005	7.5902061E+001	-1.5590733E+000	7.5918076E+001	1.1767237E+000	4.255082815448986E+000	-2.8505953E-002	1.1286316E-003	-4.8954740E-001	-2.0646073E-004	1.000000000000000E+000	11	1.0868262E-002	1.4315777E-004	1.3169316E-002	-2.7050552E-004	1.3172094E-002	-1.1767237E+000
1.4090817E+005	7.3235367E+001	-4.1652882E-001	7.3236549E+001	3.2586834E-001	4.664078274858184E+000	-2.8513171E-002	1.0784810E-003	-2.7116828E+000	-8.7714878E-005	1.000000000000000E+000	11	1.0796165E-002	1.4741499E-004	1.3654164E-002	-7.7658558E-005	1.3654385E-002	-3.2586834E-001
9.5214820E+004	7.2186592E+001	6.3500237E-001	7.2189384E+001	-5.0399965E-001	5.073095760919387E+000	-2.8502243E-002	9.8116230E-004	2.6323292E+000	2.0367805E-004	1.000000000000000E+000	11	1.0621513E-002	1.4713401E-004	1.3851916E-002	1.2185088E-004	1.3852452E-002	5.0399965E-001
6.4345688E+004	7.1681786E+001	1.6268349E+000	7.1700241E+001	-1.3001180E+000	5.482092340389499E+000	-2.8498141E-002	1.1019713E-003	1.5203977E+000	7.8271370E-004	1.000000000000000E+000	11	1.0533400E-002	1.4690885E-004	1.3943364E-002	3.1644790E-004	1.3946954E-002	1.3001180E+000
4.3476547E+004	7.1770309E+001	2.7511272E+000	7.1823021E+001	-2.1952090E+000	5.891083239810541E+000	-2.8479923E-002	1.1032764E-003	1.3306212E+000	1.9523086E-003	1.000000000000000E+000	11	1.0458932E-002	1.4562088E-004	1.3912895E-002	5.3331442E-004	1.3923112E-002	2.1952090E+000
2.9384758E+004	7.1874390E+001	4.3039589E+000	7.2003136E+001	-3.4268754E+000	6.300090965902200E+000	-2.8517626E-002	9.8824664E-004	1.2584324E+000	4.4963830E-003	1.000000000000000E+000	11	1.0404759E-002	1.4450424E-004	1.3863450E-002	8.3016668E-004	1.3888284E-002	3.4268754E+000
1.9853508E+004	7.2251961E+001	6.1310401E+000	7.2511620E+001	-4.8502936E+000	6.709096638631308E+000	-2.8498793E-002	1.1172589E-003	1.3075212E+000	9.3476372E-003	1.000000000000000E+000	11	1.0297895E-002	1.4201718E-004	1.3741508E-002	1.1660549E-003	1.3790893E-002	4.8502936E+000
1.3417967E+004	7.2705383E+001	8.7812366E+000	7.3233757E+001	-6.8867331E+000	7.118076951417606E+000	-2.8492359E-002	1.0441765E-003	1.3507586E+000	1.9420771E-002	1.000000000000000E+000	11	1.0080139E-002	1.3764335E-004	1.3556387E-002	1.6373182E-003	1.3654905E-002	6.8867331E+000
9.0820293E+003	7.3312607E+001	1.2479824E+001	7.4367226E+001	-9.6607151E+000	7.415347712201765E+000	-2.8512070E-002	9.2765584E-004	1.4041994E+000	3.9544176E-002	1.000000000000000E+000	11	1.0775160E-002	1.4489125E-004	1.3256092E-002	2.2565518E-003	1.3446784E-002	9.6607151E+000
6.1409590E+003	7.4140343E+001	1.7685123E+001	7.6220428E+001	-1.3416383E+001	8.008623073750641E+000	-2.8505301E-002	8.3182869E-004	1.4654663E+000	7.8894958E-002	1.000000000000000E+000	11	1.0127150E-002	1.3286661E-004	1.2761796E-002	3.0441449E-003	1.3119842E-002	1.3416383E+001
4.1413242E+003	7.5417473E+001	2.5143635E+001	7.9498413E+001	-1.8438011E+001	8.474685815883277E+000	-2.8485553E-002	1.2999636E-003	1.5284557E+000	1.5289457E-001	1.000000000000000E+000	11	1.0255472E-002	1.2900222E-004	1.1933149E-002	3.9784247E-003	1.2578867E-002	1.8438011E+001
2.7973140E+003	7.7218025E+001	3.5549255E+001	8.5008080E+001	-2.4720165E+001	8.940935704682488E+000	-2.8473284E-002	1.1524943E-003	1.6004732E+000	2.7989104E-001	1.000000000000000E+000	11	1.0278782E-002	1.2091535E-004	1.0685585E-002	4.9193772E-003	1.1763588E-002	2.4720165E+001
1.8906046E+003	7.9494553E+001	5.0313385E+001	9.4078804E+001	-3.2330379E+001	9.405689273437019E+000	-2.8479250E-002	1.1793408E-003	1.6731539E+000	4.7854123E-001	1.000000000000000E+000	11	1.0257362E-002	1.0902948E-004	8.9816023E-003	5.6846007E-003	1.0629387E-002	3.2330379E+001
1.2871166E+003	8.2899780E+001	7.0959167E+001	1.0912185E+002	-4.0562313E+001	9.872206495580031E+000	-2.8482886E-002	1.1008519E-003	1.7425841E+000	7.3686397E-001	1.000000000000000E+000	11	1.0218319E-002	9.3641371E-005	6.9619352E-003	5.9591611E-003	9.1640679E-003	4.0562313E+001
8.6306641E+002	8.7131882E+001	1.0168371E+002	1.3390871E+002	-4.9407017E+001	1.033919571773731E+001	-2.8480668E-002	1.1071897E-003	1.8135291E+000	1.0457062E+000	1.000000000000000E+000	11	1.0164182E-002	7.5903816E-005	4.8591406E-003	5.6706620E-003	7.4677742E-003	4.9407017E+001
5.8369244E+002	9.3396400E+001	1.4479356E+002	1.7230225E+002	-5.7176712E+001	1.080618659322499E+001	-2.8473452E-002	1.2115925E-003	1.8831581E+000	1.3298525E+000	1.000000000000000E+000	11	1.0136929E-002	5.8832251E-005	3.1459243E-003	4.8771645E-003	5.8037550E-003	5.7176712E+001
3.9411707E+002	1.0218826E+002	2.0682506E+002	2.3069254E+002	-6.3706917E+001	1.127322125542560E+001	-2.8478170E-002	1.1407471E-003	1.9525032E+000	1.5693903E+000	1.000000000000000E+000	11	1.0110504E-002	4.3826749E-005	1.9201443E-003	3.8862978E-003	4.3347739E-003	6.3706917E+001
2.6644943E+002	1.1514704E+002	2.9460751E+002	3.1631064E+002	-6.8652008E+001	1.198867982278898E+001	-2.8497245E-002	7.3404968E-005	2.0275030E+000	1.7588207E+000	1.000000000000000E+000	12	1.0219589E-002	3.2308712E-005	1.1508671E-003	2.9445316E-003	3.1614492E-003	6.8652008E+001
1.8005759E+002	1.3356778E+002	4.2484210E+002	4.4534387E+002	-7.2547165E+001	1.245370272487344E+001	-2.8495846E-002	2.5638004E-004	2.0805643E+000	1.8934127E+000	1.000000000000000E+000	12	1.0160920E-002	2.2815897E-005	6.7345845E-004	2.1420843E-003	2.2454557E-003	7.2547165E+001
1.2159529E+002	1.5899973E+002	6.0213190E+002	6.2277100E+002	-7.5208038E+001	1.291413317338447E+001	-2.8499538E-002	3.7840548E-006	2.1737607E+000	2.0320680E+000	1.000000000000000E+000	12	1.0119667E-002	1.6249420E-005	4.0995824E-004	1.5525116E-003	1.6057267E-003	7.5208038E+001
8.2236801E+001	1.8941934E+002	8.5936243E+002	8.7999060E+002	-7.7569717E+001	1.336929252833943E+001	-2.8494915E-002	9.4161885E-005	2.2520478E+000	2.1477029E+000	1.000000000000000E+000	12	1.0096048E-002	1.1472905E-005	2.4460661E-004	1.1097377E-003	1.1363758E-003	7.7569717E+001
5.5515171E+001	2.6602066E+002	1.2115391E+003	1.2404008E+003	-7.7615944E+001	1.383087945694570E+001	-2.8500378E-002	8.0099693E-005	2.3663068E+000	2.2574692E+000	1.000000000000000E+000	12	1.0083594E-002	8.1293038E-006	1.7289858E-004	7.8743260E-004	8.0619106E-004	7.7615944E+001
3.7560089E+001	3.3284909E+002	1.7568068E+003	1.7880599E+003	-7.9271759E+001	1.458673634618754E+001	-2.8493684E-002	-3.1494938E-006	2.4119568E+000	2.3283775E+000	1.000000000000000E+000	13	1.0120813E-002	5.6602203E-006	1.0410776E-004	5.4949004E-004	5.5926538E-004	7.9271759E+001
2.5365252E+001	4.5004639E+002	2.5036028E+003	2.5437312E+003	-7.9809372E+001	1.504588626130135E+001	-2.8500490E-002	1.1576629E-005	2.5061989E+000	2.4277499E+000	1.000000000000000E+000	13	1.0093333E-002	3.9679244E-006	6.9552851E-005	3.8692160E-004	3.9312331E-004	7.9809372E+001
1.7132671E+001	6.4138177E+002	3.6042915E+003	3.6609136E+003	-7.9909866E+001	1.546085132102598E+001	-2.8505338E-002	1.8555031E-005	2.5773604E+000	2.4982505E+000	1.000000000000000E+000	13	1.0089119E-002	2.7559020E-006	4.7856141E-005	2.6893106E-004	2.7315586E-004	7.9909866E+001
1.1591243E+001	8.9214795E+002	5.1375366E+003	5.2144233E+003	-8.0148666E+001	1.587028515376733E+001	-2.8510820E-002	-1.3154533E-006	2.6726077E+000	2.5943735E+000	1.000000000000000E+000	13	1.0085991E-002	1.9342485E-006	3.2811357E-005	1.8894803E-004	1.9177576E-004	8.0148666E+001
7.8281527E+000	1.3133057E+003	7.2160591E+003	7.3345947E+003	-7.9685204E+001	1.645225200810819E+001	-2.8493218E-002	-1.1411068E-006	2.8174796E+000	2.7271478E+000	1.000000000000000E+000	13	1.0083517E-002	1.3747886E-006	2.4412568E-005	1.3413676E-004	1.3634018E-004	7.9685204E+001
5.2930207E+000	1.9507448E+003	1.0305007E+004	1.0488021E+004	-7.9280708E+001	1.771572894814017E+001	-2.8494902E-002	2.1721376E-006	2.9178855E+000	2.8169410E+000	1.000000000000000E+000	14	1.0089196E-002	9.6197334E-007	1.7734277E-005	9.3683098E-005	9.5346877E-005	7.9280708E+001
3.5755143E+000	2.9452996E+003	1.4510792E+004	1.4806684E+004	-7.8526367E+001	1.893039260580554E+001	-2.8486984E-002	5.5909183E-008	3.0675418E+000	2.9461656E+000	1.000000000000000E+000	14	1.0086557E-002	6.8121648E-007	1.3434268E-005	6.6187429E-005	6.7537068E-005	7.8526367E+001
2.4172332E+000	4.4570171E+003	2.0378994E+004	2.0860689E+004	-7.7663292E+001	2.070751383688184E+001	-2.8482715E-002	2.7732428E-006	3.2308652E+000	3.0833797E+000	1.000000000000000E+000	14	1.0085193E-002	4.8345441E-007	1.0242054E-005	4.6830133E-005	4.7937054E-005	7.7663292E+001
1.6327059E+000	6.6555269E+003	2.8522707E+004	2.9288920E+004	-7.6865540E+001	2.331839940088685E+001	-2.8483678E-002	1.9148235E-006	3.4176016E+000	3.2411282E+000	1.000000000000000E+000	14	1.0084917E-002	3.4432531E-007	7.7584655E-006	3.3249416E-005	3.4142606E-005	7.6865540E+001
1.1020596E+000	1.0414479E+004	3.9609520E+004	4.0955773E+004	-7.5268723E+001	2.716741313037346E+001	-2.8487599E-002	2.5122915E-006	3.6459899E+000	3.4102354E+000	1.000000000000000E+000	14	1.0080610E-002	2.4613405E-007	6.2087934E-006	2.3613986E-005	2.4416582E-005	7.5268723E+001
7.4560940E-001	1.5159994E+004	5.4741777E+004	5.6802180E+004	-7.4520653E+001	3.283916059977491E+001	-2.8486144E-002	2.0765901E-006	3.8993289E+000	3.6215763E+000	1.000000000000000E+000	14	1.0080360E-002	1.7746432E-007	4.6986052E-006	1.6966369E-005	1.7604958E-005	7.4520653E+001
5.0390220E-001	2.3099549E+004	7.5178508E+004	7.8647297E+004	-7.2919762E+001	4.121499649094767E+001	-2.8491672E-002	2.1451456E-006	4.2012658E+000	3.8388395E+000	1.000000000000000E+000	14	1.0079982E-002	1.2816692E-007	3.7345294E-006	1.2154193E-005	1.2714995E-005	7.2919762E+001
3.4010270E-001	3.3307125E+004	1.0218491E+005	1.0747613E+005	-7.1946648E+001	5.360845358626102E+001	-2.8489672E-002	1.8978318E-006	4.5795550E+000	4.1397367E+000	1.000000000000000E+000	14	1.0081228E-002	9.3799692E-008	2.8834536E-006	8.8463203E-006	9.3043909E-006	7.1946648E+001
2.3021273E-001	4.7763379E+004	1.3751069E+005	1.4556967E+005	-7.0845688E+001	7.190173949516611E+001	-2.8490303E-002	2.0016009E-006	5.0275259E+000	4.4862700E+000	1.000000000000000E+000	14	1.0082887E-002	6.9265027E-008	2.2539962E-006	6.4892520E-006	6.8695626E-006	7.0845688E+001
1.5547264E-001	6.7787055E+004	1.8623669E+005	1.9818978E+005	-6.9999336E+001	9.897300622097100E+001	-2.8489694E-002	1.9067969E-006	5.4966860E+000	4.8536549E+000	1.000000000000000E+000	14	1.0081810E-002	5.0869474E-008	1.7257753E-006	4.7413578E-006	5.0456688E-006	6.9999336E+001
1.0504906E-001	9.6084938E+004	2.5175809E+005	2.6947069E+005	-6.9110352E+001	1.390224329231714E+002	-2.8491395E-002	2.0803404E-006	6.0178938E+000	5.2527695E+000	1.000000000000000E+000	14	1.0079795E-002	3.7405908E-008	1.3232208E-006	3.4670520E-006	3.7109787E-006	6.9110352E+001
7.1022727E-002	1.3883134E+005	3.3752688E+005	3.6496375E+005	-6.7641685E+001	1.982432315493643E+002	-2.8494380E-002	2.3592152E-006	6.6391797E+000	5.6784744E+000	1.000000000000000E+000	14	1.0081101E-002	2.7622198E-008	1.0422888E-006	2.5340134E-006	2.7399981E-006	6.7641685E+001
4.7988325E-002	1.9795638E+005	4.5225219E+005	4.9367881E+005	-6.6360413E+001	2.858740902449645E+002	-2.8490748E-002	2.1538372E-006	7.3333750E+000	6.1542654E+000	1.000000000000000E+000	14	1.0081038E-002	2.0420236E-008	8.1223266E-007	1.8556314E-006	2.0256084E-006	6.6360413E+001
3.2443926E-002	2.8738244E+005	6.0046919E+005	6.6569656E+005	-6.4424385E+001	4.154741693872784E+002	-2.8490666E-002	1.8081724E-006	8.1695099E+000	6.6469870E+000	1.000000000000000E+000	14	1.0082467E-002	1.5145739E-008	6.4849650E-007	1.3549962E-006	1.5021859E-006	6.4424385E+001
2.1920588E-002	4.1323622E+005	7.8912413E+005	8.9077556E+005	-6.2360550E+001	6.072750670840032E+002	-2.8489519E-002	1.9446088E-006	9.2007370E+000	7.2206559E+000	1.000000000000000E+000	14	1.0082604E-002	1.1318906E-008	5.2078900E-007	9.9450915E-007	1.1226173E-006	6.2360550E+001
1.4807615E-002	5.8491463E+005	1.0238068E+006	1.1791121E+006	-6.0260090E+001	8.911933275293850E+002	-2.8485294E-002	1.9638092E-006	1.0498253E+001	7.9148517E+000	1.000000000000000E+000	14	1.0080890E-002	8.5495602E-009	4.2070943E-007	7.3638984E-007	8.4809574E-007	6.0260090E+001
1.0000636E-002	8.3882150E+005	1.2995224E+006	1.5467320E+006	-5.7158386E+001	1.311565828669380E+003	-2.8481280E-002	2.5060510E-006	1.2246409E+001	8.6446247E+000	1.000000000000000E+000	14	1.0080286E-002	6.5171513E-009	3.5062220E-007	5.4319236E-007	6.4652443E-007	5.7158386E+001