EC-Lab ASCII FILE
Nb header lines : 62                          

Potentio Electrochemical Impedance Spectroscopy

Run on channel : 1 (SN 35512)
User : 
CE vs. WE compliance from -10 V to 10 V
Electrode connection : standard
Ewe ctrl range : min = -5.00 V, max = 5.00 V
Safety Limits :
	Do not start on E overload
Acquisition started on : 07/20/2023 18:05:59
Technique started on : 07/20/2023 18:06:01
Saved on :
	File : 0720_05_EIS_0.5MTFSI_Blocking_InsideGB_0hr_25C_0x_Thin_Sample_C01.mpr
	Directory : C:\Users\CESL\Documents\EC-Lab\Data\PhD\Leifer\Results\Zn Ion GPE\2023\0720\
	Host : 10.110.196.171
Device : VSP (SN 17241724)
Address : USB
EC-Lab for windows v11.16 (software)
Internet server v11.16 (firmware)
Command interpretor v11.16 (firmware)
Electrode material : Au/Pd
Initial state : 
Electrolyte : NaCl (0.2M)
Comments : Fe(CN)63-/Fe(CN)64- 5.10-3 M
Reference electrode : SCE Saturated Calomel Electrode (0.241 V)
Electrode surface area : 0.001 cm²
Characteristic mass : 0.001 g
Equivalent Weight : 0.000 g/eq.
Density : 0.000 g/cm3
Cycle Definition : Charge/Discharge alternance
Mode                Single sine         
E (V)               0.0000              
vs.                 Eoc                 
tE (h:m:s)          0:00:0.0000         
record              0                   
dI                  0.000               
unit dI             mA                  
dt (s)              0.000               
fi                  1.000               
unit fi             MHz                 
ff                  10.000              
unit ff             mHz                 
Nd                  6                   
Points              per decade          
spacing             Logarithmic         
Va (mV)             10.0                
pw                  0.10                
Na                  2                   
corr                1                   
E range min (V)     -5.000              
E range max (V)     5.000               
I Range             Auto                
Bandwidth           5                   
nc cycles           0                   
goto Ns'            0                   
nr cycles           0                   
inc. cycle          0                   

freq/Hz	Re(Z)/Ohm	-Im(Z)/Ohm	|Z|/Ohm	Phase(Z)/deg	time/s	<Ewe>/V	<I>/mA	Cs/µF	Cp/µF	cycle number	I Range	|Ewe|/V	|I|/A	Re(Y)/Ohm-1	Im(Y)/Ohm-1	|Y|/Ohm-1	Phase(Y)/deg	
1.0000193E+006	2.7439111E+002	-2.2163950E+003	2.2333154E+003	8.2942657E+001	2.819086773903109E+000	-8.9241983E-003	4.4636731E-004	-7.1806637E-005	-7.0722694E-005	1.000000000000000E+000	12	2.4680370E-003	1.1051001E-006	5.5013563E-005	-4.4437239E-004	4.4776479E-004	-8.2942657E+001
6.7575181E+005	1.3710272E+003	-1.4893430E+001	1.3711082E+003	6.2237793E-001	3.096099987014895E+000	-9.7857229E-003	1.3336449E-004	-1.5813870E-002	-1.8658820E-006	1.000000000000000E+000	12	9.1984523E-003	6.7087722E-006	7.2929403E-004	-7.9223000E-006	7.2933704E-004	-6.2237793E-001
4.5664050E+005	8.6950903E+002	6.0067905E+001	8.7158136E+002	-3.9518604E+000	3.504081339779077E+000	-9.8077832E-003	1.5266723E-004	5.8023403E-003	2.7559561E-005	1.000000000000000E+000	12	1.0940026E-002	1.2551928E-005	1.1446117E-003	7.9072714E-005	1.1473398E-003	3.9518604E+000
3.0857416E+005	7.3168915E+002	4.0431583E+001	7.3280536E+002	-3.1628263E+000	3.913079065852799E+000	-9.9107539E-003	1.0751550E-004	1.2756744E-002	3.8833277E-005	1.000000000000000E+000	12	1.0890323E-002	1.4861140E-005	1.3625403E-003	7.5291078E-005	1.3646189E-003	3.1628263E+000
2.0852534E+005	6.8798639E+002	2.6649883E+001	6.8850238E+002	-2.2183037E+000	4.322086338623194E+000	-9.9124694E-003	3.3922519E-005	2.8639536E-002	4.2908734E-005	1.000000000000000E+000	12	1.0765048E-002	1.5635454E-005	1.4513393E-003	5.6219167E-005	1.4524278E-003	2.2183037E+000
1.4090817E+005	6.5702814E+002	2.2089025E+001	6.5739935E+002	-1.9255362E+000	4.731082838057773E+000	-9.8928520E-003	7.1707436E-005	5.1133722E-002	5.7730056E-005	1.000000000000000E+000	12	1.0612668E-002	1.6143411E-005	1.5202864E-003	5.1111427E-005	1.5211453E-003	1.9255362E+000
9.5214820E+004	6.4991089E+002	1.5184922E+001	6.5008826E+002	-1.3384507E+000	5.140078244148754E+000	-9.9013364E-003	1.0967882E-004	1.1007863E-001	6.0059749E-005	1.000000000000000E+000	12	1.0541855E-002	1.6216038E-005	1.5378330E-003	3.5930887E-005	1.5382527E-003	1.3384507E+000
6.4345688E+004	6.5014587E+002	1.3442618E+001	6.5028485E+002	-1.1844965E+000	5.548084343521623E+000	-9.9136252E-003	1.7029137E-004	1.8399957E-001	7.8628007E-005	1.000000000000000E+000	12	1.0603044E-002	1.6305230E-005	1.5374590E-003	3.1788979E-005	1.5377876E-003	1.1844965E+000
4.3476547E+004	6.4271021E+002	1.0591769E+001	6.4279749E+002	-9.4414043E-001	5.956083856231999E+000	-9.9052154E-003	2.3537991E-004	3.4561822E-001	9.3839415E-005	1.000000000000000E+000	12	1.0441164E-002	1.6243317E-005	1.5554888E-003	2.5634223E-005	1.5557000E-003	9.4414043E-001
2.9384758E+004	6.3886584E+002	7.8716903E+000	6.3891437E+002	-7.0592564E-001	6.365096915658796E+000	-9.8882467E-003	7.1446288E-005	6.8806589E-001	1.0444333E-004	1.000000000000000E+000	12	1.0353567E-002	1.6204936E-005	1.5650362E-003	1.9283360E-005	1.5651550E-003	7.0592564E-001
1.9853508E+004	6.2824841E+002	1.0567976E+001	6.2833728E+002	-9.6370053E-001	6.774084881762974E+000	-9.8889545E-003	7.7414290E-005	7.5856203E-001	2.1457991E-004	1.000000000000000E+000	12	1.0312528E-002	1.6412409E-005	1.5912768E-003	2.6767399E-005	1.5915020E-003	9.6370053E-001
1.3417967E+004	6.3375427E+002	1.5093693E+001	6.3393396E+002	-1.3643166E+000	7.182087701134151E+000	-9.9010197E-003	1.2389012E-004	7.8584689E-001	4.4549300E-004	1.000000000000000E+000	12	1.0155088E-002	1.6019158E-005	1.5770042E-003	3.7558431E-005	1.5774514E-003	1.3643166E+000
9.0820293E+003	6.3225830E+002	1.5893347E+001	6.3245801E+002	-1.4399652E+000	7.479343741870252E+000	-9.9195177E-003	7.3758951E-005	1.1026098E+000	6.9628848E-004	1.000000000000000E+000	12	1.0989167E-002	1.7375331E-005	1.5806333E-003	3.9733055E-005	1.5811326E-003	1.4399652E+000
6.1409590E+003	6.3052325E+002	1.6275278E+001	6.3073328E+002	-1.4786096E+000	8.072650383455766E+000	-9.9075278E-003	4.2091164E-005	1.5924122E+000	1.0602807E-003	1.000000000000000E+000	12	1.0126118E-002	1.6054517E-005	1.5849282E-003	4.0910702E-005	1.5854562E-003	1.4786096E+000
4.1413242E+003	6.2855743E+002	3.5803787E+001	6.2957635E+002	-3.2601500E+000	8.538706858918886E+000	-9.8726945E-003	1.4035811E-004	1.0733762E+000	3.4714672E-003	1.000000000000000E+000	12	1.0339738E-002	1.6423326E-005	1.5857992E-003	9.0330032E-005	1.5883697E-003	3.2601500E+000
2.7973140E+003	6.3343011E+002	4.0637093E+001	6.3473230E+002	-3.6707246E+000	9.004930801049341E+000	-9.8757902E-003	1.7010487E-004	1.4000909E+000	5.7387897E-003	1.000000000000000E+000	12	1.0447188E-002	1.6459204E-005	1.5722351E-003	1.0086522E-004	1.5754673E-003	3.6707246E+000
1.8906046E+003	6.2913226E+002	5.6820042E+001	6.3169287E+002	-5.1606636E+000	9.468672716429865E+000	-9.8750256E-003	1.0757138E-004	1.4815552E+000	1.1986959E-002	1.000000000000000E+000	12	1.0477335E-002	1.6586122E-005	1.5766307E-003	1.4239330E-004	1.5830478E-003	5.1606636E+000
1.2871166E+003	6.2736975E+002	8.7834106E+001	6.3348846E+002	-7.9698200E+000	9.935185778565938E+000	-9.8657394E-003	2.4672081E-005	1.4077939E+000	2.7063753E-002	1.000000000000000E+000	12	1.0490061E-002	1.6559197E-005	1.5633138E-003	2.1886975E-004	1.5785607E-003	7.9698200E+000
8.6306641E+002	6.3612976E+002	1.2266370E+002	6.4784833E+002	-1.0914279E+001	1.040221166741685E+001	-9.8732356E-003	4.5392237E-005	1.5033492E+000	5.3894605E-002	1.000000000000000E+000	12	1.0510992E-002	1.6224465E-005	1.5156503E-003	2.9226000E-004	1.5435711E-003	1.0914279E+001
5.8369244E+002	6.4193689E+002	1.6836681E+002	6.6364929E+002	-1.4696477E+001	1.086920022292179E+001	-9.8822787E-003	1.2124179E-004	1.6194949E+000	1.0423541E-001	1.000000000000000E+000	12	1.0503283E-002	1.5826556E-005	1.4575219E-003	3.8227791E-004	1.5068200E-003	1.4696477E+001
3.9411707E+002	6.4963660E+002	2.4153152E+002	6.9308380E+002	-2.0394875E+001	1.133617643176694E+001	-9.8816641E-003	6.5851251E-005	1.6719415E+000	2.0304731E-001	1.000000000000000E+000	12	1.0487729E-002	1.5131978E-005	1.3523807E-003	5.0280814E-004	1.4428269E-003	2.0394875E+001
2.6644943E+002	6.6885022E+002	3.5026459E+002	7.5501385E+002	-2.7640224E+001	1.179966709380824E+001	-9.8944372E-003	1.4427450E-004	1.7053326E+000	3.6702168E-001	1.000000000000000E+000	12	1.0495299E-002	1.3900803E-005	1.1733270E-003	6.1444973E-004	1.3244790E-003	2.7640224E+001
1.8005759E+002	6.7901538E+002	4.9297467E+002	8.3909827E+002	-3.5980175E+001	1.226468572922749E+001	-9.8791094E-003	1.2010407E-004	1.7930157E+000	6.1888170E-001	1.000000000000000E+000	12	1.0484210E-002	1.2494615E-005	9.6439279E-004	7.0016267E-004	1.1917555E-003	3.5980175E+001
1.2159529E+002	7.1071716E+002	7.1045258E+002	1.0049188E+003	-4.4989334E+001	1.272510884437361E+001	-9.8741492E-003	1.4839611E-004	1.8423338E+000	9.2082387E-001	1.000000000000000E+000	12	1.0480814E-002	1.0429513E-005	7.0377672E-004	7.0351473E-004	9.9510537E-004	4.4989334E+001
8.2236801E+001	7.6893536E+002	1.0043456E+003	1.2648999E+003	-5.2562031E+001	1.318029657265288E+001	-9.8695429E-003	5.9547372E-005	1.9269514E+000	1.2148560E+000	1.000000000000000E+000	12	1.0468285E-002	8.2759789E-006	4.8059309E-004	6.2772707E-004	7.9057639E-004	5.2562031E+001
5.5515171E+001	8.1352002E+002	1.4338492E+003	1.6485565E+003	-6.0430817E+001	1.364188334130449E+001	-9.8766293E-003	2.1598363E-004	1.9994243E+000	1.5125309E+000	1.000000000000000E+000	12	1.0477758E-002	6.3557168E-006	2.9933712E-004	5.2758912E-004	6.0659129E-004	6.0430817E+001
3.7560089E+001	9.3987823E+002	2.0497368E+003	2.2549482E+003	-6.5366837E+001	1.439772657721187E+001	-9.8942509E-003	9.3005347E-006	2.0672617E+000	1.7081203E+000	1.000000000000000E+000	13	1.0494298E-002	4.6538976E-006	1.8484105E-004	4.0311125E-004	4.4346915E-004	6.5366837E+001
2.5365252E+001	1.0923179E+003	2.9157527E+003	3.1136428E+003	-6.9462723E+001	1.485684915899765E+001	-9.8988935E-003	1.7747552E-005	2.1519406E+000	1.8870963E+000	1.000000000000000E+000	13	1.0485990E-002	3.3677563E-006	1.1267083E-004	3.0075517E-004	3.2116723E-004	6.9462723E+001
1.7132671E+001	1.3523345E+003	4.1445522E+003	4.3596011E+003	-7.1928909E+001	1.526983053862932E+001	-9.8977005E-003	8.6300461E-006	2.2413900E+000	2.0257187E+000	1.000000000000000E+000	13	1.0472708E-002	2.4022172E-006	7.1152564E-005	2.1806407E-004	2.2937878E-004	7.1928909E+001
1.1591243E+001	1.7078762E+003	5.8573677E+003	6.1012783E+003	-7.3744507E+001	1.567926583802910E+001	-9.8952763E-003	3.7600037E-007	2.3441620E+000	2.1604834E+000	1.000000000000000E+000	13	1.0462836E-002	1.7148598E-006	4.5879086E-005	1.5734785E-004	1.6390008E-004	7.3744507E+001
7.8281527E+000	2.2791614E+003	8.2741748E+003	8.5823389E+003	-7.4599525E+001	1.626127698566415E+001	-9.8902229E-003	4.4116173E-006	2.4571753E+000	2.2838850E+000	1.000000000000000E+000	13	1.0464635E-002	1.2193220E-006	3.0943094E-005	1.1233456E-004	1.1651836E-004	7.4599525E+001
5.2930207E+000	3.1139934E+003	1.1663209E+004	1.2071761E+004	-7.5051140E+001	1.752474960572727E+001	-9.8883454E-003	2.3835487E-006	2.5780923E+000	2.4065416E+000	1.000000000000000E+000	14	1.0466370E-002	8.6701266E-007	2.1368614E-005	8.0034428E-005	8.2837956E-005	7.5051140E+001
3.5755143E+000	4.3217915E+003	1.6301251E+004	1.6864420E+004	-7.5151337E+001	1.873927937002736E+001	-9.8839719E-003	1.8869583E-006	2.7306163E+000	2.5512896E+000	1.000000000000000E+000	14	1.0463720E-002	6.2046132E-007	1.5195709E-005	5.7316294E-005	5.9296435E-005	7.5151337E+001
2.4172332E+000	6.2242275E+003	2.2723805E+004	2.3560822E+004	-7.4681946E+001	2.051649388109217E+001	-9.8797549E-003	2.1939852E-006	2.8974805E+000	2.6952667E+000	1.000000000000000E+000	14	1.0472210E-002	4.4447557E-007	1.1212554E-005	4.0935509E-005	4.2443342E-005	7.4681946E+001
1.6327059E+000	9.1020732E+003	3.1520566E+004	3.2808441E+004	-7.3893074E+001	2.312737523179385E+001	-9.8803546E-003	1.2099327E-006	3.0925601E+000	2.8545325E+000	1.000000000000000E+000	14	1.0462693E-002	3.1890247E-007	8.4560797E-006	2.9283490E-005	3.0479961E-005	7.3893074E+001
1.1020596E+000	1.3295900E+004	4.3509586E+004	4.5495770E+004	-7.3007607E+001	2.697638741464471E+001	-9.8893102E-003	1.9968115E-006	3.3191745E+000	3.0356939E+000	1.000000000000000E+000	14	1.0470181E-002	2.3013526E-007	6.4235587E-006	2.1020494E-005	2.1980066E-005	7.3007607E+001
7.4560940E-001	1.9448816E+004	5.9563117E+004	6.2657973E+004	-7.1916870E+001	3.264815533734509E+001	-9.8884935E-003	1.8187534E-006	3.5836976E+000	3.2384224E+000	1.000000000000000E+000	14	1.0463093E-002	1.6698742E-007	4.9538235E-006	1.5171368E-005	1.5959660E-005	7.1916870E+001
5.0390220E-001	2.8442221E+004	8.0616977E+004	8.5487172E+004	-7.0566811E+001	4.102399080188479E+001	-9.8808371E-003	1.5150032E-006	3.9178462E+000	3.4841630E+000	1.000000000000000E+000	14	1.0462854E-002	1.2239093E-007	3.8918993E-006	1.1031247E-005	1.1697662E-005	7.0566811E+001
3.4010270E-001	4.1243395E+004	1.0843544E+005	1.1601405E+005	-6.9175697E+001	5.341734429713688E+001	-9.8873461E-003	2.3054247E-006	4.3155761E+000	3.7701626E+000	1.000000000000000E+000	14	1.0461578E-002	9.0175092E-008	3.0643134E-006	8.0565669E-006	8.6196451E-006	6.9175697E+001
2.3021273E-001	5.8705063E+004	1.4485872E+005	1.5630206E+005	-6.7939384E+001	7.170961831271870E+001	-9.8787555E-003	2.4314854E-006	4.7725024E+000	4.0992651E+000	1.000000000000000E+000	14	1.0463666E-002	6.6945155E-008	2.4029580E-006	5.9294612E-006	6.3978682E-006	6.7939384E+001
1.5547264E-001	8.1757969E+004	1.9383214E+005	2.1036936E+005	-6.7130089E+001	9.878189967854996E+001	-9.8850792E-003	2.3132707E-006	5.2812943E+000	4.4836016E+000	1.000000000000000E+000	14	1.0463702E-002	4.9739665E-008	1.8474180E-006	4.3798664E-006	4.7535441E-006	6.7130089E+001
1.0504906E-001	1.1653118E+005	2.5632002E+005	2.8156609E+005	-6.5551956E+001	1.388313352341356E+002	-9.8839859E-003	2.7437079E-006	5.9107890E+000	4.8983498E+000	1.000000000000000E+000	14	1.0460948E-002	3.7152724E-008	1.4698784E-006	3.2331200E-006	3.5515641E-006	6.5551956E+001
7.1022727E-002	1.6232988E+005	3.4176609E+005	3.7835838E+005	-6.4593513E+001	1.980521505002689E+002	-9.8814508E-003	2.6287792E-006	6.5568285E+000	5.3498926E+000	1.000000000000000E+000	14	1.0463328E-002	2.7654544E-008	1.1339445E-006	2.3873840E-006	2.6429968E-006	6.4593513E+001
4.7988325E-002	2.2978356E+005	4.5249434E+005	5.0749544E+005	-6.3077843E+001	2.856829731158796E+002	-9.8864064E-003	2.5367769E-006	7.3294501E+000	5.8268442E+000	1.000000000000000E+000	14	1.0462927E-002	2.0616790E-008	8.9218440E-007	1.7569073E-006	1.9704610E-006	6.3077843E+001
3.2443926E-002	3.2230397E+005	5.9771688E+005	6.7907681E+005	-6.1665337E+001	4.152830390582094E+002	-9.8848632E-003	1.8284863E-006	8.2071285E+000	6.3583503E+000	1.000000000000000E+000	14	1.0463534E-002	1.5408469E-008	6.9892064E-007	1.2961573E-006	1.4725874E-006	6.1665337E+001
2.1920588E-002	4.5582722E+005	7.8538813E+005	9.0808200E+005	-5.9869778E+001	6.070839506749471E+002	-9.8887766E-003	1.6337189E-006	9.2445030E+000	6.9151583E+000	1.000000000000000E+000	14	1.0462186E-002	1.1521191E-008	5.5277718E-007	9.5243240E-007	1.1012221E-006	5.9869778E+001
1.4807615E-002	6.4639838E+005	1.0365154E+006	1.2215544E+006	-5.8051247E+001	8.910022225869761E+002	-9.8970411E-003	2.0445536E-006	1.0369534E+001	7.4659519E+000	1.000000000000000E+000	14	1.0462276E-002	8.5647240E-009	4.3318624E-007	6.9462459E-007	8.1862913E-007	5.8051247E+001