EC-Lab ASCII FILE
Nb header lines : 62                          

Potentio Electrochemical Impedance Spectroscopy

Run on channel : 5 (SN 35518)
User : 
CE vs. WE compliance from -10 V to 10 V
Electrode connection : standard
Ewe ctrl range : min = -5.00 V, max = 5.00 V
Safety Limits :
	Do not start on E overload
Acquisition started on : 09/28/2023 19:04:55
Technique started on : 09/28/2023 19:04:56
Saved on :
	File : 0920_02_0.5MTFSI_ZnEMD_InsideGB_0hr_RT_BCD_Messing_Around_01_PEIS_C05.mpr
	Directory : C:\Users\CESL\Documents\EC-Lab\Data\PhD\Leifer\Results\Zn Ion GPE\2023\0920\
	Host : 10.110.196.171
Device : VSP (SN 1724172417241724)
Address : USB
EC-Lab for windows v11.16 (software)
Internet server v11.16 (firmware)
Command interpretor v11.16 (firmware)
Electrode material : Au/Pd
Initial state : 
Electrolyte : NaCl (0.2M)
Comments : Fe(CN)63-/Fe(CN)64- 5.10-3 M
Reference electrode : SCE Saturated Calomel Electrode (0.241 V)
Electrode surface area : 0.001 cm²
Characteristic mass : 0.001 g
Equivalent Weight : 0.000 g/eq.
Density : 0.000 g/cm3
Cycle Definition : Charge/Discharge alternance
Mode                Single sine         
E (V)               0.0000              
vs.                 Eoc                 
tE (h:m:s)          0:00:0.0000         
record              0                   
dI                  0.000               
unit dI             mA                  
dt (s)              0.000               
fi                  1.000               
unit fi             MHz                 
ff                  10.000              
unit ff             mHz                 
Nd                  6                   
Points              per decade          
spacing             Logarithmic         
Va (mV)             10.0                
pw                  0.10                
Na                  2                   
corr                1                   
E range min (V)     -5.000              
E range max (V)     5.000               
I Range             Auto                
Bandwidth           5                   
nc cycles           0                   
goto Ns'            0                   
nr cycles           0                   
inc. cycle          0                   

freq/Hz	Re(Z)/Ohm	-Im(Z)/Ohm	|Z|/Ohm	Phase(Z)/deg	time/s	<Ewe>/V	<I>/mA	Cs/µF	Cp/µF	cycle number	I Range	|Ewe|/V	|I|/A	Re(Y)/Ohm-1	Im(Y)/Ohm-1	|Y|/Ohm-1	Phase(Y)/deg	
1.0000193E+006	4.0095556E-001	3.1369879E+000	3.1625082E+000	-8.2716209E+001	1.974094493751181E+000	1.1814462E+000	8.8866621E-002	5.0733976E-002	4.9918469E-002	1.000000000000000E+000	9	1.5431733E-004	4.8795864E-005	4.0089693E-002	3.1365302E-001	3.1620470E-001	8.2716209E+001
6.7575181E+005	-3.8348932E+002	1.2761353E+002	4.0416492E+002	-1.6159413E+002	2.971086274454137E+000	1.1812240E+000	-5.4965605E-004	1.8455941E-003	1.8399769E-004	1.000000000000000E+000	11	8.3497330E-004	2.0659222E-006	-2.3476647E-003	7.8123115E-004	2.4742375E-003	1.6159413E+002
4.5664050E+005	2.5894974E+001	-4.5370111E+000	2.6289431E+001	9.9378176E+000	4.262095615762519E+000	1.1813465E+000	4.7951122E-003	-7.6820277E-002	-2.2879851E-003	1.000000000000000E+000	10	5.6183268E-003	2.1371047E-004	3.7467364E-002	-6.5645878E-003	3.8038101E-002	-9.9378176E+000
3.0857416E+005	1.7605028E+001	-1.5667672E+000	1.7674608E+001	5.0856647E+000	4.671094328543404E+000	1.1812203E+000	5.5880039E-003	-3.2919720E-001	-2.5868155E-003	1.000000000000000E+000	10	1.0409588E-002	5.8895722E-004	5.6355607E-002	-5.0153919E-003	5.6578342E-002	-5.0856647E+000
2.0852534E+005	1.5393730E+001	-3.8041502E-001	1.5398430E+001	1.4156244E+000	5.212093207548605E+000	1.1812751E+000	6.6420697E-003	-2.0063357E+000	-1.2245205E-003	1.000000000000000E+000	10	1.0182597E-002	6.6127500E-004	6.4921871E-002	-1.6043710E-003	6.4941689E-002	-1.4156244E+000
1.4090817E+005	1.4677378E+001	4.4726071E-001	1.4684191E+001	-1.7454224E+000	5.753097099921433E+000	1.1813042E+000	6.4387135E-003	2.5253596E+000	2.3428511E-003	1.000000000000000E+000	10	1.0117070E-002	6.8897702E-004	6.8068855E-002	2.0742482E-003	6.8100452E-002	1.7454224E+000
9.5214820E+004	1.4471022E+001	1.2183881E+000	1.4522223E+001	-4.8126693E+000	6.162100132642081E+000	1.1813120E+000	7.2297370E-003	1.3719236E+000	9.6568400E-003	1.000000000000000E+000	10	1.0875491E-002	7.4888614E-004	6.8617210E-002	5.7772282E-003	6.8859987E-002	4.8126693E+000
6.4345688E+004	1.4544045E+001	2.0317891E+000	1.4685279E+001	-7.9526973E+000	6.571098738786532E+000	1.1813096E+000	7.4293539E-003	1.2173686E+000	2.3303164E-002	1.000000000000000E+000	10	1.0643577E-002	7.2477869E-004	6.7440502E-002	9.4213728E-003	6.8095401E-002	7.9526973E+000
4.3476547E+004	1.4784849E+001	2.9984872E+000	1.5085844E+001	-1.1464553E+001	6.979086704814108E+000	1.1813232E+000	7.3621930E-003	1.2208517E+000	4.8231203E-002	1.000000000000000E+000	10	1.0451796E-002	6.9282146E-004	6.4964734E-002	1.3175375E-002	6.6287309E-002	1.1464553E+001
2.9384758E+004	1.5198421E+001	4.2019997E+000	1.5768601E+001	-1.5454848E+001	7.388077684241580E+000	1.1813271E+000	7.4890554E-003	1.2889676E+000	9.1530889E-002	1.000000000000000E+000	10	1.0192952E-002	6.4640812E-004	6.1124049E-002	1.6899338E-002	6.3417166E-002	1.5454848E+001
1.9853508E+004	1.5781822E+001	5.7716880E+000	1.6804115E+001	-2.0088350E+001	7.797100210300414E+000	1.1813201E+000	6.8957880E-003	1.3889290E+000	1.6385302E-001	1.000000000000000E+000	10	1.0238740E-002	6.0929952E-004	5.5888936E-002	2.0439561E-002	5.9509233E-002	2.0088350E+001
1.3417967E+004	1.6578583E+001	7.8365331E+000	1.8337412E+001	-2.5299641E+001	8.074088250170462E+000	1.1813202E+000	6.4946832E-003	1.5135943E+000	2.7642754E-001	1.000000000000000E+000	10	1.0676268E-002	5.8221241E-004	4.9302772E-002	2.3304934E-002	5.4533321E-002	2.5299641E+001
9.0820293E+003	1.7697863E+001	1.0607998E+001	2.0633564E+001	-3.0938232E+001	8.371332984272158E+000	1.1813226E+000	7.3230150E-003	1.6519762E+000	4.3663862E-001	1.000000000000000E+000	10	1.0773933E-002	5.2215566E-004	4.1569263E-002	2.4916379E-002	4.8464723E-002	3.0938232E+001
6.1409590E+003	1.9156218E+001	1.4255630E+001	2.3878519E+001	-3.6655800E+001	8.774635643465444E+000	1.1813428E+000	6.1458107E-003	1.8180153E+000	6.4797097E-001	1.000000000000000E+000	10	1.0724897E-002	4.4914417E-004	3.3596575E-002	2.5001820E-002	4.1878644E-002	3.6655800E+001
4.1413242E+003	2.1155874E+001	1.9372540E+001	2.8685646E+001	-4.2480492E+001	9.240695825596049E+000	1.1813655E+000	7.6644137E-003	1.9837840E+000	9.0477002E-001	1.000000000000000E+000	10	1.0643428E-002	3.7103673E-004	2.5709977E-002	2.3542754E-002	3.4860641E-002	4.2480492E+001
2.7973140E+003	2.3992031E+001	2.6097040E+001	3.5449585E+001	-4.7406456E+001	9.706947421072982E+000	1.1813627E+000	6.7409356E-003	2.1801565E+000	1.1815383E+000	1.000000000000000E+000	10	1.0575243E-002	2.9831784E-004	1.9091705E-002	2.0766769E-002	2.8209075E-002	4.7406456E+001
1.8906046E+003	2.7841604E+001	3.5199028E+001	4.4879021E+001	-5.1656830E+001	1.064667623904825E+001	1.1813409E+000	7.1366411E-004	2.3916011E+000	1.4711716E+000	1.000000000000000E+000	11	1.0025879E-002	2.2339792E-004	1.3823166E-002	1.7476074E-002	2.2282125E-002	5.1656830E+001
1.2871166E+003	3.3142284E+001	4.7022995E+001	5.7528889E+001	-5.4823429E+001	1.111319322118652E+001	1.1813413E+000	6.8252272E-004	2.6296139E+000	1.7568738E+000	1.000000000000000E+000	11	9.7823320E-003	1.7004208E-004	1.0014066E-002	1.4208175E-002	1.7382571E-002	5.4823429E+001
8.6306641E+002	4.0638287E+001	6.3038860E+001	7.5002457E+001	-5.7191963E+001	1.158017935001408E+001	1.1813406E+000	7.2428957E-004	2.9252810E+000	2.0664899E+000	1.000000000000000E+000	11	9.6292337E-003	1.2838558E-004	7.2241118E-003	1.1206174E-002	1.3332897E-002	5.7191963E+001
5.8369244E+002	5.0583279E+001	8.3710747E+001	9.7806732E+001	-5.8856998E+001	1.204722134550684E+001	1.1813370E+000	7.6605828E-004	3.2572782E+000	2.3860514E+000	1.000000000000000E+000	11	9.5514748E-003	9.7656623E-005	5.2877325E-003	8.7507190E-003	1.0224245E-002	5.8856998E+001
3.9411707E+002	6.3987766E+001	1.1103934E+002	1.2815681E+002	-6.0046783E+001	1.251421115439734E+001	1.1813397E+000	6.1669684E-004	3.6367884E+000	2.7301614E+000	1.000000000000000E+000	11	9.5136641E-003	7.4234551E-005	3.8959512E-003	6.7607281E-003	7.8029404E-003	6.0046783E+001
2.6644943E+002	8.2378174E+001	1.4722534E+002	1.6870526E+002	-6.0771328E+001	1.297764573643144E+001	1.1813390E+000	6.9370744E-004	4.0571661E+000	3.0898020E+000	1.000000000000000E+000	11	9.4874864E-003	5.6237051E-005	2.8943759E-003	5.1727956E-003	5.9274975E-003	6.0771328E+001
1.8005759E+002	1.0775073E+002	1.9508145E+002	2.2286093E+002	-6.1086502E+001	1.344266250518558E+001	1.1813402E+000	6.7300914E-004	4.5309858E+000	3.4718168E+000	1.000000000000000E+000	11	9.4771301E-003	4.2524862E-005	2.1694633E-003	3.9277887E-003	4.4871033E-003	6.1086502E+001
1.2159529E+002	1.4466415E+002	2.5621356E+002	2.9423309E+002	-6.0549915E+001	1.415211072549573E+001	1.1813452E+000	-4.2801159E-005	5.1085925E+000	3.8736687E+000	1.000000000000000E+000	12	9.5223561E-003	3.2363307E-005	1.6710055E-003	2.9595052E-003	3.3986659E-003	6.0549915E+001
8.2236801E+001	1.9393130E+002	3.3144110E+002	3.8400854E+002	-5.9667439E+001	1.460729618711048E+001	1.1813415E+000	-5.1025610E-005	5.8391223E+000	4.3498926E+000	1.000000000000000E+000	12	9.4948318E-003	2.4725574E-005	1.3151224E-003	2.2476290E-003	2.6041088E-003	5.9667439E+001
5.5515171E+001	2.5652304E+002	4.2463467E+002	4.9610349E+002	-5.8863705E+001	1.506888663573773E+001	1.1813469E+000	5.9472968E-006	6.7513866E+000	4.9462876E+000	1.000000000000000E+000	12	9.4807427E-003	1.9110414E-005	1.0422737E-003	1.7253249E-003	2.0157085E-003	5.8863705E+001
3.7560089E+001	3.3383487E+002	5.4057159E+002	6.3534509E+002	-5.8302223E+001	1.555977217906911E+001	1.1813504E+000	-1.5312864E-005	7.8386331E+000	5.6744971E+000	1.000000000000000E+000	12	9.4762137E-003	1.4915066E-005	8.2701299E-004	1.3391644E-003	1.5739478E-003	5.8302223E+001
2.5365252E+001	4.2720361E+002	6.8768475E+002	8.0957599E+002	-5.8150620E+001	1.601887558752787E+001	1.1813458E+000	4.7031041E-005	9.1241322E+000	6.5834742E+000	1.000000000000000E+000	12	9.4713010E-003	1.1699089E-005	6.5180799E-004	1.0492384E-003	1.2352145E-003	5.8150620E+001
1.7132671E+001	5.5399072E+002	8.7846112E+002	1.0385565E+003	-5.7762924E+001	1.643282342053135E+001	1.1813354E+000	1.0049798E-005	1.0574808E+001	7.5658426E+000	1.000000000000000E+000	12	9.4668418E-003	9.1153843E-006	5.1362033E-004	8.1444596E-004	9.6287491E-004	5.7762924E+001
1.1591243E+001	6.8623163E+002	1.1324515E+003	1.3241451E+003	-5.8785397E+001	1.706826433064998E+001	1.1813402E+000	-1.7382634E-005	1.2124686E+001	8.8682632E+000	1.000000000000000E+000	13	9.4769737E-003	7.1570503E-006	3.9138083E-004	6.4587500E-004	7.5520424E-004	5.8785397E+001
7.8281527E+000	8.5455676E+002	1.4700160E+003	1.7003571E+003	-5.9829498E+001	1.765027814501082E+001	1.1813421E+000	8.7964982E-006	1.3830528E+001	1.0337193E+001	1.000000000000000E+000	13	9.4734756E-003	5.5714627E-006	2.9557021E-004	5.0844240E-004	5.8811175E-004	5.9829498E+001
5.2930207E+000	1.0536155E+003	1.9291365E+003	2.1981067E+003	-6.1358437E+001	1.848670117142319E+001	1.1813463E+000	2.2044003E-006	1.5586679E+001	1.2005547E+001	1.000000000000000E+000	13	9.4703985E-003	4.3084347E-006	2.1806432E-004	3.9926881E-004	4.5493696E-004	6.1358437E+001
3.5755143E+000	1.2823344E+003	2.5486375E+003	2.8530571E+003	-6.3290970E+001	1.970227384244208E+001	1.1813482E+000	5.7211273E-006	1.7465200E+001	1.3936982E+001	1.000000000000000E+000	13	9.4713373E-003	3.3197152E-006	1.5753620E-004	3.1310294E-004	3.5050121E-004	6.3290970E+001
2.4172332E+000	1.5665413E+003	3.4224578E+003	3.7639431E+003	-6.5405289E+001	2.147948923354852E+001	1.1813484E+000	3.5461767E-006	1.9238157E+001	1.5905728E+001	1.000000000000000E+000	13	9.4696665E-003	2.5158899E-006	1.1057469E-004	2.4157499E-004	2.6567883E-004	6.5405289E+001
1.6327059E+000	1.9182689E+003	4.6524277E+003	5.0323789E+003	-6.7592880E+001	2.536336184464744E+001	1.1813509E+000	8.7807912E-009	2.0952341E+001	1.7907921E+001	1.000000000000000E+000	14	9.4734095E-003	1.8824913E-006	7.5746539E-005	1.8371007E-004	1.9871318E-004	6.7592880E+001
1.1020596E+000	2.3742739E+003	6.3824517E+003	6.8097627E+003	-6.9594788E+001	2.921239509413135E+001	1.1813525E+000	4.3427983E-007	2.2627028E+001	1.9876442E+001	1.000000000000000E+000	14	9.4715869E-003	1.3908835E-006	5.1199626E-005	1.3763332E-004	1.4684799E-004	6.9594788E+001
7.4560940E-001	2.9112664E+003	8.7812275E+003	9.2512393E+003	-7.1657936E+001	3.488416213690653E+001	1.1813524E+000	3.8843591E-008	2.4308239E+001	2.1901011E+001	1.000000000000000E+000	14	9.4685182E-003	1.0234864E-006	3.4015917E-005	1.0260190E-004	1.0809363E-004	7.1657936E+001
5.0390220E-001	3.6048962E+003	1.2226611E+004	1.2746973E+004	-7.3572365E+001	4.326002394806710E+001	1.1813534E+000	3.5725265E-007	2.5832577E+001	2.3766535E+001	1.000000000000000E+000	14	9.4692865E-003	7.4286555E-007	2.2185985E-005	7.5247488E-005	7.8450001E-005	7.3572365E+001
3.4010270E-001	4.4786167E+003	1.7226303E+004	1.7798975E+004	-7.5426476E+001	5.565351549672778E+001	1.1813521E+000	6.2027550E-007	2.7165516E+001	2.5445568E+001	1.000000000000000E+000	14	9.4673047E-003	5.3190166E-007	1.4136892E-005	5.4375356E-005	5.6183013E-005	7.5426476E+001
2.3021273E-001	5.7525083E+003	2.4336467E+004	2.5007098E+004	-7.6700867E+001	7.394687284564134E+001	1.1813563E+000	8.4037941E-009	2.8407516E+001	2.6904303E+001	1.000000000000000E+000	14	9.4683301E-003	3.7862571E-007	9.1987895E-006	3.8916249E-005	3.9988648E-005	7.6700867E+001
1.5547264E-001	7.6809341E+003	3.4631563E+004	3.5473113E+004	-7.7494797E+001	1.010182245047472E+002	1.1813592E+000	6.7606017E-008	2.9559298E+001	2.8173426E+001	1.000000000000000E+000	14	9.4685927E-003	2.6692308E-007	6.1040109E-006	2.7521586E-005	2.8190365E-005	7.7494797E+001
1.0504906E-001	1.0653592E+004	4.9227906E+004	5.0367508E+004	-7.7788727E+001	1.410676985403770E+002	1.1813632E+000	3.8111402E-008	3.0776312E+001	2.9399395E+001	1.000000000000000E+000	14	9.4682695E-003	1.8798369E-007	4.1994754E-006	1.9404857E-005	1.9854069E-005	7.7788727E+001
7.1022727E-002	1.5453424E+004	6.9968922E+004	7.1655133E+004	-7.7545525E+001	2.002887072998928E+002	1.1813625E+000	-2.9733525E-007	3.2027100E+001	3.0537493E+001	1.000000000000000E+000	14	9.4675869E-003	1.3212713E-007	3.0097469E-006	1.3627323E-005	1.3955734E-005	7.7545525E+001
4.7988325E-002	2.3397180E+004	9.9128656E+004	1.0185244E+005	-7.6719620E+001	2.879197711154702E+002	1.1813594E+000	-4.9213804E-007	3.3456871E+001	3.1691362E+001	1.000000000000000E+000	14	9.4681997E-003	9.2959972E-008	2.2553852E-006	9.5555652E-006	9.8181254E-006	7.6719620E+001
3.2443926E-002	3.6783809E+004	1.3939444E+005	1.4416608E+005	-7.5217598E+001	4.175204263111518E+002	1.1813673E+000	-4.7768350E-007	3.5191784E+001	3.2900768E+001	1.000000000000000E+000	14	9.4683031E-003	6.5676360E-008	1.7698254E-006	6.7068609E-006	6.9364446E-006	7.5217598E+001
2.1920588E-002	5.9691836E+004	1.9490913E+005	2.0384475E+005	-7.2972549E+001	6.093219875812356E+002	1.1813715E+000	-1.5101307E-006	3.7250813E+001	3.4056580E+001	1.000000000000000E+000	14	9.4670095E-003	4.6442253E-008	1.4365337E-006	4.6906512E-006	4.9056944E-006	7.2972549E+001
1.4807615E-002	9.7898063E+004	2.6843134E+005	2.8572613E+005	-6.9962868E+001	8.932412354399858E+002	1.1813570E+000	-8.7213500E-008	4.0040710E+001	3.5340145E+001	1.000000000000000E+000	14	9.4686188E-003	3.3138793E-008	1.1991521E-006	3.2880114E-006	3.4998550E-006	6.9962868E+001
1.0000636E-002	1.6337652E+005	3.6274969E+005	3.9784322E+005	-6.5753975E+001	1.313615203246678E+003	1.1813620E+000	-1.5469322E-008	4.3871803E+001	3.6473347E+001	1.000000000000000E+000	14	9.4673028E-003	2.3796566E-008	1.0322046E-006	2.2918339E-006	2.5135530E-006	6.5753975E+001