EC-Lab ASCII FILE
Nb header lines : 62                          

Potentio Electrochemical Impedance Spectroscopy

Run on channel : 1 (SN 35512)
User : 
CE vs. WE compliance from -10 V to 10 V
Electrode connection : standard
Ewe ctrl range : min = -5.00 V, max = 5.00 V
Safety Limits :
	Do not start on E overload
Acquisition started on : 09/28/2023 18:49:01
Technique started on : 09/28/2023 18:49:03
Saved on :
	File : 0928_01_0.5MTFSI_ZnEMD_InsideGB_0hr_RT_EIS-Remade_from_091923-01_C01.mpr
	Directory : C:\Users\CESL\Documents\EC-Lab\Data\PhD\Leifer\Results\Zn Ion GPE\2023\0928\
	Host : 10.110.196.171
Device : VSP (SN 1724172417241724)
Address : USB
EC-Lab for windows v11.16 (software)
Internet server v11.16 (firmware)
Command interpretor v11.16 (firmware)
Electrode material : Au/Pd
Initial state : 
Electrolyte : NaCl (0.2M)
Comments : Fe(CN)63-/Fe(CN)64- 5.10-3 M
Reference electrode : SCE Saturated Calomel Electrode (0.241 V)
Electrode surface area : 0.001 cm²
Characteristic mass : 0.001 g
Equivalent Weight : 0.000 g/eq.
Density : 0.000 g/cm3
Cycle Definition : Charge/Discharge alternance
Mode                Single sine         
E (V)               0.0000              
vs.                 Eoc                 
tE (h:m:s)          0:00:0.0000         
record              0                   
dI                  0.000               
unit dI             mA                  
dt (s)              0.000               
fi                  1.000               
unit fi             MHz                 
ff                  10.000              
unit ff             mHz                 
Nd                  6                   
Points              per decade          
spacing             Logarithmic         
Va (mV)             10.0                
pw                  0.10                
Na                  2                   
corr                1                   
E range min (V)     -5.000              
E range max (V)     5.000               
I Range             Auto                
Bandwidth           5                   
nc cycles           0                   
goto Ns'            0                   
nr cycles           0                   
inc. cycle          0                   

freq/Hz	Re(Z)/Ohm	-Im(Z)/Ohm	|Z|/Ohm	Phase(Z)/deg	time/s	<Ewe>/V	<I>/mA	Cs/µF	Cp/µF	cycle number	I Range	|Ewe|/V	|I|/A	Re(Y)/Ohm-1	Im(Y)/Ohm-1	|Y|/Ohm-1	Phase(Y)/deg	
1.0000193E+006	-6.5283089E+001	1.3395430E+001	6.6643227E+001	-1.6840443E+002	2.487096758122789E+000	-5.6548172E-001	-1.2077604E-003	1.1881058E-002	4.8001672E-004	1.000000000000000E+000	11	3.2265738E-004	4.8415627E-006	-1.4699030E-002	3.0160921E-003	1.5005276E-002	1.6840443E+002
6.7575181E+005	5.1060642E+001	-1.2090477E+001	5.2472553E+001	1.3321521E+001	2.896092457551276E+000	-5.6603819E-001	2.2330804E-004	-1.9480024E-002	-1.0342177E-003	1.000000000000000E+000	11	1.6097126E-003	3.0677231E-005	1.8544789E-002	-4.3911580E-003	1.9057583E-002	-1.3321521E+001
4.5664050E+005	2.8056219E+001	-3.9338152E+000	2.8330660E+001	7.9815164E+000	3.599082810949767E+000	-5.6591368E-001	1.1010828E-002	-8.8599592E-002	-1.7082297E-003	1.000000000000000E+000	10	8.8833300E-003	3.1355888E-004	3.4955520E-002	-4.9011791E-003	3.5297450E-002	-7.9815164E+000
3.0857416E+005	2.3116634E+001	-1.9559962E+000	2.3199240E+001	4.8365173E+000	4.140098943287740E+000	-5.6614399E-001	1.0481246E-002	-2.6368934E-001	-1.8744811E-003	1.000000000000000E+000	10	1.0066386E-002	4.3391017E-004	4.2951379E-002	-3.6342975E-003	4.3104861E-002	-4.8365173E+000
2.0852534E+005	2.1495222E+001	-1.0473500E+000	2.1520723E+001	2.7895184E+000	4.681098115659552E+000	-5.6613994E-001	1.1202894E-002	-7.2873461E-001	-1.7259945E-003	1.000000000000000E+000	10	1.0117841E-002	4.7014409E-004	4.6411779E-002	-2.2614039E-003	4.6466839E-002	-2.7895184E+000
1.4090817E+005	2.0847260E+001	-4.1911617E-001	2.0851473E+001	1.1517270E+000	5.222099448001245E+000	-5.6614894E-001	1.0835543E-002	-2.6949430E+000	-1.0887920E-003	1.000000000000000E+000	10	1.0116034E-002	4.8514723E-004	4.7948554E-002	-9.6396427E-004	4.7958244E-002	-1.1517270E+000
9.5214820E+004	2.0586340E+001	2.1125982E-002	2.0586351E+001	-5.8797684E-002	5.631085947446991E+000	-5.6613606E-001	1.1814527E-002	7.9122261E+001	8.3324689E-005	1.000000000000000E+000	10	1.0738345E-002	5.2162446E-004	4.8575848E-002	4.9849194E-005	4.8575874E-002	5.8797684E-002
6.4345688E+004	2.0475073E+001	4.1607407E-001	2.0479300E+001	-1.1641477E+000	6.040084286883939E+000	-5.6614524E-001	1.1695184E-002	5.9447012E+000	2.4538112E-003	1.000000000000000E+000	10	1.0489183E-002	5.1218463E-004	4.8819713E-002	9.9206576E-004	4.8829794E-002	1.1641477E+000
4.3476547E+004	2.0477768E+001	8.0430871E-001	2.0493557E+001	-2.2492599E+000	6.449078759644181E+000	-5.6615400E-001	1.0613640E-002	4.5513721E+000	7.0105679E-003	1.000000000000000E+000	10	1.0303772E-002	5.0278107E-004	4.8758227E-002	1.9150852E-003	4.8795823E-002	2.2492599E+000
2.9384758E+004	2.0579121E+001	1.2752225E+000	2.0618593E+001	-3.5459030E+000	6.858081739075715E+000	-5.6615973E-001	1.1363261E-002	4.2472916E+000	1.6246729E-002	1.000000000000000E+000	10	1.0243277E-002	4.9679808E-004	4.8407067E-002	2.9996317E-003	4.8499916E-002	3.5459030E+000
1.9853508E+004	2.0768555E+001	1.8867049E+000	2.0854076E+001	-5.1907473E+000	7.267096771829529E+000	-5.6615418E-001	1.0850462E-002	4.2489233E+000	3.4778029E-002	1.000000000000000E+000	10	1.0066926E-002	4.8273185E-004	4.7755606E-002	4.3383245E-003	4.7952257E-002	5.1907473E+000
1.3417967E+004	2.1038433E+001	2.6393354E+000	2.1203342E+001	-7.1505728E+000	7.544088678288972E+000	-5.6614459E-001	1.0266799E-002	4.4940596E+000	6.9633678E-002	1.000000000000000E+000	10	1.0542586E-002	4.9721339E-004	4.6795569E-002	5.8706463E-003	4.7162376E-002	7.1505728E+000
9.0820293E+003	2.1421486E+001	3.6012008E+000	2.1722078E+001	-9.5428562E+000	7.841331305768108E+000	-5.6615621E-001	1.0167969E-002	4.8661995E+000	1.3374631E-001	1.000000000000000E+000	10	1.0771725E-002	4.9588835E-004	4.5399055E-002	7.6321093E-003	4.6036109E-002	9.5428562E+000
6.1409590E+003	2.1944904E+001	4.9423761E+000	2.2494576E+001	-1.2692244E+001	8.244634551625495E+000	-5.6616670E-001	8.0123395E-003	5.2438245E+000	2.5314194E-001	1.000000000000000E+000	10	1.0879281E-002	4.8364021E-004	4.3368869E-002	9.7674280E-003	4.4455163E-002	1.2692244E+001
4.1413242E+003	2.2726076E+001	6.7010684E+000	2.3693436E+001	-1.6428812E+001	8.710665640421212E+000	-5.6612968E-001	8.8067148E-003	5.7350454E+000	4.5874238E-001	1.000000000000000E+000	10	1.0909435E-002	4.6044125E-004	4.0482603E-002	1.1936801E-002	4.2205784E-002	1.6428812E+001
2.7973140E+003	2.3841413E+001	9.0153637E+000	2.5489014E+001	-2.0713549E+001	9.176957689225674E+000	-5.6614047E-001	9.2710322E-003	6.3109632E+000	7.8950721E-001	1.000000000000000E+000	10	1.0910143E-002	4.2803315E-004	3.6696613E-002	1.3876411E-002	3.9232589E-002	2.0713549E+001
1.8906046E+003	2.5433268E+001	1.1957686E+001	2.8104046E+001	-2.5180998E+001	9.641662964641000E+000	-5.6613600E-001	9.4388546E-003	7.0399933E+000	1.2744678E+000	1.000000000000000E+000	10	1.0886937E-002	3.8737972E-004	3.2200638E-002	1.5139428E-002	3.5582066E-002	2.5180998E+001
1.2871166E+003	2.7572950E+001	1.5525923E+001	3.1643671E+001	-2.9383221E+001	1.010817874674103E+001	-5.6613958E-001	9.1498196E-003	7.9642491E+000	1.9172819E+000	1.000000000000000E+000	10	1.0864819E-002	3.4334889E-004	2.7536549E-002	1.5505425E-002	3.1601895E-002	2.9383221E+001
8.6306641E+002	3.0476038E+001	2.0276854E+001	3.6605186E+001	-3.3637314E+001	1.104919191144290E+001	-5.6615961E-001	1.3050005E-003	9.0944271E+000	2.7905593E+000	1.000000000000000E+000	11	1.0174350E-002	2.7794830E-004	2.2744337E-002	1.5132661E-002	2.7318534E-002	3.3637314E+001
5.8369244E+002	3.3769855E+001	2.6016636E+001	4.2629433E+001	-3.7611019E+001	1.151618150694412E+001	-5.6614971E-001	1.5337550E-003	1.0480571E+001	3.9036250E+000	1.000000000000000E+000	11	1.0094071E-002	2.3678642E-004	1.8582754E-002	1.4316341E-002	2.3457970E-002	3.7611019E+001
3.9411707E+002	3.7541286E+001	3.3688019E+001	5.0440369E+001	-4.1903507E+001	1.198321384916198E+001	-5.6615341E-001	1.3368798E-003	1.1987246E+001	5.3470454E+000	1.000000000000000E+000	11	1.0036925E-002	1.9898596E-004	1.4755456E-002	1.3240944E-002	1.9825390E-002	4.1903507E+001
2.6644943E+002	4.1977619E+001	4.4391098E+001	6.1095745E+001	-4.6600651E+001	1.244667112454044E+001	-5.6615245E-001	1.5975137E-003	1.3455798E+001	7.1036129E+000	1.000000000000000E+000	11	1.0006970E-002	1.6379160E-004	1.1245943E-002	1.1892522E-002	1.6367752E-002	4.6600651E+001
1.8005759E+002	4.7435303E+001	5.9215084E+001	7.5871826E+001	-5.1302902E+001	1.291168959996139E+001	-5.6615269E-001	1.7615741E-003	1.4927131E+001	9.0924301E+000	1.000000000000000E+000	11	9.9822627E-003	1.3156745E-004	8.2402537E-003	1.0286586E-002	1.3180123E-002	5.1302902E+001
1.2159529E+002	5.4479240E+001	8.0226791E+001	9.6975906E+001	-5.5820930E+001	1.337211450180621E+001	-5.6615341E-001	1.5859529E-003	1.6314882E+001	1.1165936E+001	1.000000000000000E+000	11	9.9629629E-003	1.0273648E-004	5.7929978E-003	8.5308393E-003	1.0311840E-002	5.5820930E+001
8.2236801E+001	6.4411034E+001	1.0940980E+002	1.2696175E+002	-5.9514103E+001	1.382732868343010E+001	-5.6616521E-001	1.7022868E-003	1.7688774E+001	1.3136038E+001	1.000000000000000E+000	11	9.9549787E-003	7.8409277E-005	3.9958982E-003	6.7875092E-003	7.8763878E-003	5.9514103E+001
5.5515171E+001	8.0122742E+001	1.5052406E+002	1.7052022E+002	-6.1973988E+001	1.428891558534815E+001	-5.6616193E-001	1.7375223E-003	1.9045946E+001	1.4840981E+001	1.000000000000000E+000	11	9.9505270E-003	5.8353940E-005	2.7555230E-003	5.1767137E-003	5.8644074E-003	6.1973988E+001
3.7560089E+001	1.0445558E+002	2.0690167E+002	2.3177419E+002	-6.3212791E+001	1.504573042131960E+001	-5.6616378E-001	4.8620472E-004	2.0479980E+001	1.6320272E+001	1.000000000000000E+000	12	9.9725667E-003	4.3027081E-005	1.9444713E-003	3.8515350E-003	4.3145441E-003	6.3212791E+001
2.5365252E+001	1.4332172E+002	2.8215045E+002	3.1646484E+002	-6.3071163E+001	1.550488177646184E+001	-5.6616658E-001	4.4030664E-004	2.2238230E+001	1.7677090E+001	1.000000000000000E+000	12	9.9546574E-003	3.1455809E-005	1.4310704E-003	2.8172787E-003	3.1599086E-003	6.3071163E+001
1.7132671E+001	2.0517406E+002	3.7918420E+002	4.3113461E+002	-6.1582474E+001	1.591882824945787E+001	-5.6617546E-001	6.9530809E-004	2.4498800E+001	1.8950449E+001	1.000000000000000E+000	12	9.9612102E-003	2.3104640E-005	1.1038160E-003	2.0399732E-003	2.3194612E-003	6.1582474E+001
1.1591243E+001	2.9826700E+002	4.8195142E+002	5.6678070E+002	-5.8247730E+001	1.632826602886780E+001	-5.6616944E-001	6.7990302E-004	2.8489634E+001	2.0599813E+001	1.000000000000000E+000	12	9.9543948E-003	1.7563045E-005	9.2848542E-004	1.5002829E-003	1.7643508E-003	5.8247730E+001
7.8281527E+000	4.4629596E+002	5.9219586E+002	7.4153625E+002	-5.2997261E+001	1.691029338983935E+001	-5.6616175E-001	9.9168438E-004	3.4331711E+001	2.1895832E+001	1.000000000000000E+000	12	9.9486429E-003	1.3416260E-005	8.1163016E-004	1.0769624E-003	1.3485517E-003	5.2997261E+001
5.2930207E+000	6.2848541E+002	6.9418689E+002	9.3642371E+002	-4.7843735E+001	1.817369838322338E+001	-5.6615674E-001	8.2060124E-004	4.3315182E+001	2.3803902E+001	1.000000000000000E+000	13	9.9560088E-003	1.0631948E-005	7.1672141E-004	7.9164712E-004	1.0678926E-003	4.7843735E+001
3.5755143E+000	8.4295483E+002	7.7056207E+002	1.1420765E+003	-4.2431065E+001	1.938933046758757E+001	-5.6614995E-001	8.3389459E-004	5.7766224E+001	2.6296555E+001	1.000000000000000E+000	13	9.9517107E-003	8.7136987E-006	6.4626982E-004	5.9076835E-004	8.7559805E-004	4.2431065E+001
2.4172332E+000	1.0768319E+003	8.1735065E+002	1.3518983E+003	-3.7199688E+001	2.116654463196755E+001	-5.6614816E-001	1.0187068E-003	8.0555122E+001	2.9445704E+001	1.000000000000000E+000	13	9.9514266E-003	7.3610763E-006	5.8919610E-004	4.4721912E-004	7.3970063E-004	3.7199688E+001
1.6327059E+000	1.3172595E+003	8.5111047E+002	1.5682990E+003	-3.2867397E+001	2.377743030266720E+001	-5.6615138E-001	1.2199817E-003	1.1453184E+002	3.3731869E+001	1.000000000000000E+000	13	9.9490797E-003	6.3438670E-006	5.3556677E-004	3.4604155E-004	6.3763355E-004	3.2867397E+001
1.1020596E+000	1.5611094E+003	8.7248999E+002	1.7883795E+003	-2.9200432E+001	2.762643749880954E+001	-5.6615371E-001	1.2018861E-003	1.6552158E+002	3.9396362E+001	1.000000000000000E+000	13	9.9513493E-003	5.5644505E-006	4.8810578E-004	2.7279794E-004	5.5916543E-004	2.9200432E+001
7.4560940E-001	1.8277008E+003	8.7224237E+002	2.0251659E+003	-2.5512098E+001	3.329805240823771E+001	-5.6615031E-001	1.5888063E-003	2.4472118E+002	4.5396748E+001	1.000000000000000E+000	13	9.9490704E-003	4.9127189E-006	4.4563971E-004	2.1267476E-004	4.9378671E-004	2.5512098E+001
5.0390220E-001	2.1254424E+003	8.7047614E+002	2.2967878E+003	-2.2271580E+001	4.167385176607058E+001	-5.6614953E-001	1.6609867E-003	3.6284155E+002	5.2118149E+001	1.000000000000000E+000	13	9.9499011E-003	4.3320942E-006	4.0290959E-004	1.6501185E-004	4.3539068E-004	2.2271580E+001
3.4010270E-001	2.4821492E+003	8.0253772E+002	2.6086646E+003	-1.7917252E+001	5.406729491471197E+001	-5.6615412E-001	2.9354610E-003	5.8310211E+002	5.5187286E+001	1.000000000000000E+000	13	9.9488236E-003	3.8137612E-006	3.6474672E-004	1.1793127E-004	3.8333790E-004	1.7917252E+001
2.3021273E-001	2.8630537E+003	9.0491541E+002	3.0026570E+003	-1.7540001E+001	7.236056869025924E+001	-5.6614894E-001	4.0149204E-003	7.6398145E+002	6.9388474E+001	1.000000000000000E+000	13	9.9491803E-003	3.3134588E-006	3.1755434E-004	1.0036829E-004	3.3303836E-004	1.7540001E+001
1.5547264E-001	3.2382468E+003	1.0641132E+003	3.4086038E+003	-1.8190926E+001	9.943185861609527E+001	-5.6614792E-001	5.4589771E-003	9.6200732E+002	9.3756401E+001	1.000000000000000E+000	13	9.9470178E-003	2.9182088E-006	2.7871280E-004	9.1587193E-005	2.9337525E-004	1.8190926E+001
1.0504906E-001	3.6540425E+003	7.4491748E+002	3.7291995E+003	-1.1522495E+001	1.394813008916390E+002	-5.6615043E-001	7.3350985E-003	2.0338540E+003	8.1153061E+001	1.000000000000000E+000	13	9.9468026E-003	2.6672756E-006	2.6274979E-004	5.3564490E-005	2.6815408E-004	1.1522495E+001
7.1022727E-002	3.9674102E+003	3.5748260E+002	3.9834832E+003	-5.1487193E+000	1.987019640511717E+002	-5.6615138E-001	9.6609173E-003	6.2685610E+003	5.0483765E+001	1.000000000000000E+000	13	9.9470969E-003	2.4970852E-006	2.5002367E-004	2.2528326E-005	2.5103657E-004	5.1487193E+000
4.7988325E-002	4.6393701E+003	2.3734111E+002	4.6454370E+003	-2.9285870E+000	2.863327823734289E+002	-5.6615120E-001	1.2786064E-002	1.3973704E+004	3.6475761E+001	1.000000000000000E+000	13	9.9478252E-003	2.1414187E-006	2.1498385E-004	1.0998154E-005	2.1526500E-004	2.9285870E+000
3.2443926E-002	4.4339707E+003	6.6703931E+002	4.4838643E+003	-8.5553274E+000	4.159328624224290E+002	-5.6615847E-001	1.6716367E-002	7.3541978E+003	1.6275459E+002	1.000000000000000E+000	13	9.9470615E-003	2.2184126E-006	2.2054027E-004	3.3177716E-005	2.2302191E-004	8.5553274E+000
2.1920588E-002	3.8228743E+003	1.6725359E+003	4.1727383E+003	-2.3629734E+001	6.077337739591603E+002	-5.6614852E-001	2.0148093E-002	4.3410269E+003	6.9743073E+002	1.000000000000000E+000	13	9.9465204E-003	2.3836915E-006	2.1955722E-004	9.6057913E-005	2.3965078E-004	2.3629734E+001
1.4807615E-002	4.1108877E+003	7.4020050E+002	4.1769961E+003	-1.0207223E+001	8.916520475778671E+002	-5.6615144E-001	2.1588869E-002	1.4520636E+004	4.5599097E+002	1.000000000000000E+000	13	9.9463100E-003	2.3812113E-006	2.3561747E-004	4.2424941E-005	2.3940649E-004	1.0207223E+001
1.0000636E-002	4.5149043E+003	1.3211639E+003	4.7042358E+003	-1.6310680E+001	1.312024570024485E+003	-5.6617153E-001	2.2673773E-002	1.2045805E+004	9.5010376E+002	1.000000000000000E+000	13	9.9470271E-003	2.1144831E-006	2.0401888E-004	5.9700582E-005	2.1257438E-004	1.6310680E+001