EC-Lab ASCII FILE
Nb header lines : 62                          

Potentio Electrochemical Impedance Spectroscopy

Run on channel : 1 (SN 35512)
User : 
CE vs. WE compliance from -10 V to 10 V
Electrode connection : standard
Ewe ctrl range : min = -5.00 V, max = 5.00 V
Safety Limits :
	Do not start on E overload
Acquisition started on : 05/22/2023 17:56:12
Technique started on : 05/22/2023 17:56:13
Saved on :
	File : FullCell_EMD_ZnAnode_Calendar_60C_EIS_RT_C01.mpr
	Directory : C:\Users\CESL\Documents\EC-Lab\Data\PhD\Leifer\Results\Zn Ion GPE\2023\0523\
	Host : 10.110.196.171
Device : VSP (SN 1724)
Address : USB
EC-Lab for windows v11.16 (software)
Internet server v11.16 (firmware)
Command interpretor v11.16 (firmware)
Electrode material : Au/Pd
Initial state : 
Electrolyte : NaCl (0.2M)
Comments : Fe(CN)63-/Fe(CN)64- 5.10-3 M
Reference electrode : SCE Saturated Calomel Electrode (0.241 V)
Electrode surface area : 0.001 cm²
Characteristic mass : 0.001 g
Equivalent Weight : 0.000 g/eq.
Density : 0.000 g/cm3
Cycle Definition : Charge/Discharge alternance
Mode                Single sine         
E (V)               0.0000              
vs.                 Eoc                 
tE (h:m:s)          0:00:0.0000         
record              0                   
dI                  0.000               
unit dI             mA                  
dt (s)              0.000               
fi                  1.000               
unit fi             MHz                 
ff                  10.000              
unit ff             mHz                 
Nd                  6                   
Points              per decade          
spacing             Logarithmic         
Va (mV)             10.0                
pw                  0.10                
Na                  2                   
corr                1                   
E range min (V)     -5.000              
E range max (V)     5.000               
I Range             Auto                
Bandwidth           5                   
nc cycles           0                   
goto Ns'            0                   
nr cycles           0                   
inc. cycle          0                   

freq/Hz	Re(Z)/Ohm	-Im(Z)/Ohm	|Z|/Ohm	Phase(Z)/deg	time/s	<Ewe>/V	<I>/mA	Cs/µF	Cp/µF	cycle number	I Range	|Ewe|/V	|I|/A	Re(Y)/Ohm-1	Im(Y)/Ohm-1	|Y|/Ohm-1	Phase(Y)/deg	
1.0000193E+006	6.6831040E-001	4.0657868E+000	4.1203470E+000	-8.0665527E+001	1.975098440452712E+000	7.2398371E-001	4.9389262E-002	3.9144173E-002	3.8114373E-002	1.000000000000000E+000	9	1.1475669E-004	2.7851218E-005	3.9365020E-002	2.3948427E-001	2.4269800E-001	8.0665527E+001
6.7575181E+005	9.5313625E+000	-5.5426292E+000	1.1025770E+001	3.0178638E+001	2.678098207194125E+000	7.2354448E-001	-2.6017232E-003	-4.2492967E-002	-1.0738185E-002	1.000000000000000E+000	10	5.7749386E-004	5.2376738E-005	7.8403801E-002	-4.5592975E-002	9.0696611E-002	-3.0178638E+001
4.5664050E+005	5.6437802E+000	-2.1111820E+000	6.0257235E+000	2.0509432E+001	3.087084973289166E+000	7.2364920E-001	-1.5705164E-003	-1.6508971E-001	-2.0265296E-002	1.000000000000000E+000	10	2.1007503E-003	3.4863039E-004	1.5543602E-001	-5.8144312E-002	1.6595517E-001	-2.0509432E+001
3.0857416E+005	4.8191128E+000	-1.0311131E+000	4.9281883E+000	1.2077093E+001	3.496086139377439E+000	7.2346509E-001	-3.2299396E-004	-5.0021219E-001	-2.1897389E-002	1.000000000000000E+000	10	5.5637066E-003	1.1289557E-003	1.9842322E-001	-4.2455282E-002	2.0291433E-001	-1.2077093E+001
2.0852534E+005	4.5136738E+000	-4.4605234E-001	4.5356603E+000	5.6437855E+000	3.905098958784947E+000	7.2340530E-001	-2.8007239E-004	-1.7111002E+000	-1.6548784E-002	1.000000000000000E+000	10	1.0301974E-002	2.2713284E-003	2.1940632E-001	-2.1682274E-002	2.2047506E-001	-5.6437855E+000
1.4090817E+005	4.4102588E+000	-2.1062771E-002	4.4103088E+000	2.7363446E-001	4.446100291184848E+000	7.2343081E-001	3.4810922E-003	-5.3625145E+001	-1.2230986E-003	1.000000000000000E+000	10	1.0099874E-002	2.2900605E-003	2.2673890E-001	-1.0828730E-003	2.2674149E-001	-2.7363446E-001
9.5214820E+004	4.4112554E+000	3.6087310E-001	4.4259920E+000	-4.6768007E+000	4.987076956866076E+000	7.2342992E-001	4.1747750E-003	4.6319199E+000	3.0792775E-002	1.000000000000000E+000	10	1.0132958E-002	2.2894209E-003	2.2518578E-001	1.8421849E-002	2.2593805E-001	4.6768007E+000
6.4345688E+004	4.4780073E+000	7.5873983E-001	4.5418320E+000	-9.6166868E+000	5.396098336292198E+000	7.2343904E-001	3.9118431E-003	3.2599263E+000	9.0976968E-002	1.000000000000000E+000	10	1.0802248E-002	2.3783902E-003	2.1708144E-001	3.6781613E-002	2.2017547E-001	9.6166868E+000
4.3476547E+004	4.6216192E+000	1.2028830E+000	4.7755933E+000	-1.4588871E+001	5.805091795715271E+000	7.2343421E-001	3.9304961E-003	3.0432787E+000	1.9307846E-001	1.000000000000000E+000	10	1.0762407E-002	2.2536272E-003	2.0264667E-001	5.2743476E-002	2.0939806E-001	1.4588871E+001
2.9384758E+004	4.8550787E+000	1.7195761E+000	5.1506047E+000	-1.9503174E+001	6.214076135162031E+000	7.2344208E-001	3.3878502E-003	3.1497538E+000	3.5107750E-001	1.000000000000000E+000	10	1.0722570E-002	2.0818079E-003	1.8301210E-001	6.4819388E-002	1.9415195E-001	1.9503174E+001
1.9853508E+004	5.1676488E+000	2.3249867E+000	5.6665826E+000	-2.4223545E+001	6.623091647896217E+000	7.2343898E-001	2.6083868E-003	3.4479616E+000	5.8044481E-001	1.000000000000000E+000	10	1.0445477E-002	1.8433469E-003	1.6093501E-001	7.2406568E-002	1.7647320E-001	2.4223545E+001
1.3417967E+004	5.5391960E+000	3.0756946E+000	6.3358178E+000	-2.9041668E+001	7.032087533996673E+000	7.2343862E-001	4.2605288E-003	3.8564723E+000	9.0880620E-001	1.000000000000000E+000	10	1.0271885E-002	1.6212405E-003	1.3798800E-001	7.6619238E-002	1.5783282E-001	2.9041668E+001
9.0820293E+003	5.9982209E+000	4.0351963E+000	7.2292089E+000	-3.3929993E+001	7.329333014757140E+000	7.2344953E-001	6.2949420E-003	4.3428273E+000	1.3530703E+000	1.000000000000000E+000	10	1.0604309E-002	1.4668698E-003	1.1477330E-001	7.7211700E-002	1.3832772E-001	3.3929993E+001
6.1409590E+003	6.5011463E+000	5.3413906E+000	8.4139977E+000	-3.9406784E+001	7.732643060640839E+000	7.2345287E-001	7.2739236E-003	4.8520980E+000	1.9553905E+000	1.000000000000000E+000	10	1.0402147E-002	1.2362907E-003	9.1830119E-002	7.5448319E-002	1.1884957E-001	3.9406784E+001
4.1413242E+003	7.1047192E+000	7.1424460E+000	1.0074303E+001	-4.5151722E+001	8.199691322821309E+000	7.2348070E-001	1.2319883E-002	5.3806400E+000	2.7045679E+000	1.000000000000000E+000	10	1.0130483E-002	1.0055766E-003	7.0003048E-002	7.0374772E-002	9.9262454E-002	4.5151722E+001
2.7973140E+003	7.7781124E+000	9.6560059E+000	1.2399092E+001	-5.1147839E+001	8.665935638273368E+000	7.2348386E-001	1.2088651E-002	5.8922529E+000	3.5735238E+000	1.000000000000000E+000	10	9.9102631E-003	7.9927332E-004	5.0593466E-002	6.2808402E-002	8.0651067E-002	5.1147839E+001
1.8906046E+003	8.6012621E+000	1.3271213E+001	1.5814765E+001	-5.7052151E+001	9.129679526995460E+000	7.2348380E-001	1.2036434E-002	6.3432055E+000	4.4668822E+000	1.000000000000000E+000	10	9.7708199E-003	6.1782898E-004	3.4390360E-002	5.3062182E-002	6.3232049E-002	5.7052151E+001
1.2871166E+003	9.5942841E+000	1.8322584E+001	2.0682537E+001	-6.2362026E+001	9.596186855778797E+000	7.2347993E-001	1.2107290E-002	6.7486286E+000	5.2964072E+000	1.000000000000000E+000	10	9.6808858E-003	4.6807053E-004	2.2428742E-002	4.2833060E-002	4.8349969E-002	6.2362026E+001
8.6306641E+002	1.1003735E+001	2.5911592E+001	2.8151249E+001	-6.6990791E+001	1.006321813128307E+001	7.2348678E-001	1.1950648E-002	7.1167521E+000	6.0294085E+000	1.000000000000000E+000	10	9.6228393E-003	3.4182638E-004	1.3884963E-002	3.2696310E-002	3.5522401E-002	6.6990791E+001
5.8369244E+002	1.3093759E+001	3.6742222E+001	3.9005608E+001	-7.0385551E+001	1.078219416542561E+001	7.2346359E-001	-2.8695824E-004	7.4211407E+000	6.5848727E+000	1.000000000000000E+000	11	9.8152617E-003	2.5163719E-004	8.6061759E-003	2.4149677E-002	2.5637340E-002	7.0385551E+001
3.9411707E+002	1.6220379E+001	5.2059219E+001	5.4527634E+001	-7.2694244E+001	1.124918000094476E+001	7.2346997E-001	-3.6078721E-004	7.7570620E+000	7.0706482E+000	1.000000000000000E+000	11	9.6912365E-003	1.7773073E-004	5.4554134E-003	1.7509120E-002	1.8339325E-002	7.2694244E+001
2.6644943E+002	2.0998249E+001	7.3495598E+001	7.6436440E+001	-7.4054962E+001	1.171267178301059E+001	7.2346532E-001	-3.9639813E-004	8.1272573E+000	7.5139060E+000	1.000000000000000E+000	11	9.6204812E-003	1.2586250E-004	3.5940334E-003	1.2579414E-002	1.3082765E-002	7.4054962E+001
1.8005759E+002	2.8513029E+001	1.0350748E+002	1.0736290E+002	-7.4598808E+001	1.217769257842883E+001	7.2346747E-001	-5.1049620E-004	8.5395889E+000	7.9372854E+000	1.000000000000000E+000	11	9.5962286E-003	8.9381232E-005	2.4736307E-003	8.9797303E-003	9.3142046E-003	7.4598808E+001
1.2159529E+002	3.9903152E+001	1.4530882E+002	1.5068814E+002	-7.4644562E+001	1.263810140025453E+001	7.2346115E-001	-5.3697079E-004	9.0076475E+000	8.3760109E+000	1.000000000000000E+000	11	9.5804222E-003	6.3577812E-005	1.7573129E-003	6.3993200E-003	6.6362224E-003	7.4644562E+001
8.2236801E+001	5.7935272E+001	2.0256364E+002	2.1068585E+002	-7.4038933E+001	1.309332990189432E+001	7.2347313E-001	-6.7194918E-004	9.5541582E+000	8.8317080E+000	1.000000000000000E+000	11	9.5721530E-003	4.5433299E-005	1.3051854E-003	4.5634233E-003	4.7464031E-003	7.4038933E+001
5.5515171E+001	8.6424553E+001	2.8198636E+002	2.9493307E+002	-7.2960487E+001	1.380590897574439E+001	7.2347617E-001	-1.1034670E-003	1.0166708E+001	9.2937202E+000	1.000000000000000E+000	12	9.5997406E-003	3.2548876E-005	9.9355122E-004	3.2417623E-003	3.3905997E-003	7.2960487E+001
3.7560089E+001	1.3019167E+002	3.8814532E+002	4.0939792E+002	-7.1457520E+001	1.429774809246010E+001	7.2348112E-001	-1.1244391E-003	1.0916896E+001	9.8128834E+000	1.000000000000000E+000	12	9.5847324E-003	2.3411776E-005	7.7676919E-004	2.3158109E-003	2.4426114E-003	7.1457520E+001
2.5365252E+001	2.0059621E+002	5.2912811E+002	5.6587579E+002	-6.9237930E+001	1.475685152757796E+001	7.2346938E-001	-1.1041573E-003	1.1858237E+001	1.0368110E+001	1.000000000000000E+000	12	9.5757348E-003	1.6921973E-005	6.2644138E-004	1.6524130E-003	1.7671722E-003	6.9237930E+001
1.7132671E+001	3.1270099E+002	7.0607916E+002	7.7222388E+002	-6.6112907E+001	1.516984930718900E+001	7.2346550E-001	-1.3562870E-003	1.3156538E+001	1.0999223E+001	1.000000000000000E+000	12	9.5739486E-003	1.2397893E-005	5.2437594E-004	1.1840416E-003	1.2949612E-003	6.6112907E+001
1.1591243E+001	4.7309836E+002	9.3475763E+002	1.0476611E+003	-6.3155174E+001	1.557928580659791E+001	7.2346115E-001	-1.2950777E-003	1.4688962E+001	1.1693580E+001	1.000000000000000E+000	12	9.5634544E-003	9.1283855E-006	4.3103224E-004	8.5164252E-004	9.5450709E-004	6.3155174E+001
7.8281527E+000	7.2710162E+002	1.1799171E+003	1.3859586E+003	-5.8357334E+001	1.646829600885394E+001	7.2347099E-001	-1.2495853E-003	1.7230955E+001	1.2488544E+001	1.000000000000000E+000	13	9.5763430E-003	6.9095445E-006	3.7852500E-004	6.1425823E-004	7.2152226E-004	5.8357334E+001
5.2930207E+000	1.0862349E+003	1.4395909E+003	1.8034213E+003	-5.2963833E+001	1.730471575528645E+001	7.2347236E-001	-1.2608293E-003	2.0887066E+001	1.3309485E+001	1.000000000000000E+000	13	9.5717143E-003	5.3075310E-006	3.3398686E-004	4.4263393E-004	5.5450160E-004	5.2963833E+001
3.5755143E+000	1.5541987E+003	1.6505232E+003	2.2671040E+003	-4.6721622E+001	1.852034909298527E+001	7.2347772E-001	-1.2845312E-003	2.6968699E+001	1.4294217E+001	1.000000000000000E+000	13	9.5705483E-003	4.2214861E-006	3.0238740E-004	3.2112841E-004	4.4109137E-004	4.6721622E+001
2.4172332E+000	2.1174868E+003	1.7709550E+003	2.7604404E+003	-3.9907345E+001	2.029748368405853E+001	7.2347963E-001	-1.3209942E-003	3.7178688E+001	1.5302146E+001	1.000000000000000E+000	13	9.5721958E-003	3.4676336E-006	2.7788425E-004	2.3240782E-004	3.6226102E-004	3.9907345E+001
1.6327059E+000	2.7089487E+003	1.7592762E+003	3.2300862E+003	-3.3000957E+001	2.290827655475005E+001	7.2348034E-001	-1.3524501E-003	5.5408722E+001	1.6436827E+001	1.000000000000000E+000	13	9.5707662E-003	2.9630064E-006	2.5964060E-004	1.6861873E-004	3.0958926E-004	3.3000957E+001
1.1020596E+000	3.2485063E+003	1.6424072E+003	3.6400955E+003	-2.6820633E+001	2.862169157281460E+001	7.2347778E-001	-1.4043223E-003	8.7929420E+001	1.7900713E+001	1.000000000000000E+000	14	9.5712394E-003	2.6293924E-006	2.4516482E-004	1.2395250E-004	2.7471807E-004	2.6820633E+001
7.4560940E-001	3.6953174E+003	1.4512394E+003	3.9700713E+003	-2.1441122E+001	3.429342264213483E+001	7.2347379E-001	-1.4413991E-003	1.4708545E+002	1.9654011E+001	1.000000000000000E+000	14	9.5700519E-003	2.4105491E-006	2.3445266E-004	9.2075155E-005	2.5188466E-004	2.1441122E+001
5.0390220E-001	4.0501338E+003	1.2667332E+003	4.2436064E+003	-1.7367767E+001	4.266920746667893E+001	7.2347724E-001	-1.4792451E-003	2.4933815E+002	2.2217173E+001	1.000000000000000E+000	14	9.5711984E-003	2.2554398E-006	2.2490503E-004	7.0342037E-005	2.3564862E-004	1.7367767E+001
3.4010270E-001	4.3484487E+003	1.1423998E+003	4.4960073E+003	-1.4719792E+001	5.506266394869454E+001	7.2347653E-001	-1.5010847E-003	4.0963016E+002	2.6446861E+001	1.000000000000000E+000	14	9.5698209E-003	2.1285155E-006	2.1511976E-004	5.6515048E-005	2.2241956E-004	1.4719792E+001
2.3021273E-001	4.6120527E+003	1.1048634E+003	4.7425474E+003	-1.3471894E+001	7.335595863088383E+001	7.2346896E-001	-1.5137283E-003	6.2572308E+002	3.3960651E+001	1.000000000000000E+000	14	9.5691085E-003	2.0177149E-006	2.0505527E-004	4.9123042E-005	2.1085715E-004	1.3471894E+001
1.5547264E-001	4.8927886E+003	1.1541936E+003	5.0270811E+003	-1.3273240E+001	1.004271285566792E+002	7.2347218E-001	-1.5233057E-003	8.8692621E+002	4.6753384E+001	1.000000000000000E+000	14	9.5692724E-003	1.9035446E-006	1.9360862E-004	4.5671673E-005	1.9892260E-004	1.3273240E+001
1.0504906E-001	5.2117632E+003	1.3356874E+003	5.3801987E+003	-1.4374563E+001	1.404765537389030E+002	7.2347277E-001	-1.5337431E-003	1.1342875E+003	6.9909492E+001	1.000000000000000E+000	14	9.5685786E-003	1.7784805E-006	1.8004789E-004	4.6143250E-005	1.8586674E-004	1.4374563E+001
7.1022727E-002	5.5894565E+003	1.6659105E+003	5.8324336E+003	-1.6596434E+001	1.996973750317411E+002	7.2347367E-001	-1.5161688E-003	1.3451512E+003	1.0974250E+002	1.000000000000000E+000	14	9.5689809E-003	1.6406498E-006	1.6431227E-004	4.8972477E-005	1.7145502E-004	1.6596434E+001
4.7988325E-002	6.0768940E+003	2.1911096E+003	6.4598452E+003	-1.9827482E+001	2.873281773006602E+002	7.2347355E-001	-1.4940038E-003	1.5136324E+003	1.7414235E+002	1.000000000000000E+000	14	9.5694661E-003	1.4813770E-006	1.4562550E-004	5.2507323E-005	1.5480247E-004	1.9827482E+001
3.2443926E-002	6.6539346E+003	2.9891636E+003	7.2945146E+003	-2.4191164E+001	4.169283300696698E+002	7.2346848E-001	-1.4459365E-003	1.6411075E+003	2.7557742E+002	1.000000000000000E+000	14	9.5676994E-003	1.3116294E-006	1.2505059E-004	5.6176785E-005	1.3708932E-004	2.4191164E+001
2.1920588E-002	7.3771538E+003	4.1904614E+003	8.4842422E+003	-2.9597973E+001	6.087292209930893E+002	7.2347212E-001	-1.3949190E-003	1.7326310E+003	4.2267218E+002	1.000000000000000E+000	14	9.5662288E-003	1.1275290E-006	1.0248557E-004	5.8215111E-005	1.1786557E-004	2.9597973E+001
1.4807615E-002	8.2214551E+003	5.9412578E+003	1.0143514E+004	-3.5853863E+001	8.926474717051315E+002	7.2347045E-001	-1.3356830E-003	1.8090751E+003	6.2063544E+002	1.000000000000000E+000	14	9.5671490E-003	9.4317897E-007	7.9904610E-005	5.7743291E-005	9.8585166E-005	3.5853863E+001
1.0000636E-002	9.4686953E+003	8.2769443E+003	1.2576327E+004	-4.1157936E+001	1.313019954898424E+003	7.2347009E-001	-1.2705685E-003	1.9227485E+003	8.3282715E+002	1.000000000000000E+000	14	9.5664198E-003	7.6066880E-007	5.9866310E-005	5.2331408E-005	7.9514473E-005	4.1157936E+001