EC-Lab ASCII FILE
Nb header lines : 62                          

Potentio Electrochemical Impedance Spectroscopy

Run on channel : 1 (SN 35512)
User : 
CE vs. WE compliance from -10 V to 10 V
Electrode connection : standard
Ewe ctrl range : min = -5.00 V, max = 5.00 V
Safety Limits :
	Do not start on E overload
Acquisition started on : 07/20/2023 18:22:43
Technique started on : 07/20/2023 18:22:45
Saved on :
	File : 0720_05_EIS_0.5MTFSI_Blocking_InsideGB_0hr_25C_0x_Thin_Sample_t2_C01.mpr
	Directory : C:\Users\CESL\Documents\EC-Lab\Data\PhD\Leifer\Results\Zn Ion GPE\2023\0720\
	Host : 10.110.196.171
Device : VSP (SN 17241724)
Address : USB
EC-Lab for windows v11.16 (software)
Internet server v11.16 (firmware)
Command interpretor v11.16 (firmware)
Electrode material : Au/Pd
Initial state : 
Electrolyte : NaCl (0.2M)
Comments : Fe(CN)63-/Fe(CN)64- 5.10-3 M
Reference electrode : SCE Saturated Calomel Electrode (0.241 V)
Electrode surface area : 0.001 cm²
Characteristic mass : 0.001 g
Equivalent Weight : 0.000 g/eq.
Density : 0.000 g/cm3
Cycle Definition : Charge/Discharge alternance
Mode                Single sine         
E (V)               0.0000              
vs.                 Eoc                 
tE (h:m:s)          0:00:0.0000         
record              0                   
dI                  0.000               
unit dI             mA                  
dt (s)              0.000               
fi                  1.000               
unit fi             MHz                 
ff                  10.000              
unit ff             mHz                 
Nd                  6                   
Points              per decade          
spacing             Logarithmic         
Va (mV)             10.0                
pw                  0.10                
Na                  2                   
corr                1                   
E range min (V)     -5.000              
E range max (V)     5.000               
I Range             Auto                
Bandwidth           5                   
nc cycles           0                   
goto Ns'            0                   
nr cycles           0                   
inc. cycle          0                   

freq/Hz	Re(Z)/Ohm	-Im(Z)/Ohm	|Z|/Ohm	Phase(Z)/deg	time/s	<Ewe>/V	<I>/mA	Cs/µF	Cp/µF	cycle number	I Range	|Ewe|/V	|I|/A	Re(Y)/Ohm-1	Im(Y)/Ohm-1	|Y|/Ohm-1	Phase(Y)/deg	
1.0000193E+006	-5.6588953E+002	-7.0140747E+001	5.7021985E+002	1.7293436E+002	2.819082853908185E+000	-7.4590226E-003	7.1782219E-005	-2.2690359E-003	-3.4331872E-005	1.000000000000000E+000	12	1.1041351E-003	1.9363322E-006	-1.7403916E-003	-2.1571752E-004	1.7537095E-003	-1.7293436E+002
6.7575181E+005	3.4744418E+002	-6.3596854E+000	3.4750238E+002	1.0486360E+000	3.228082819987321E+000	-7.9784254E-003	-1.1576183E-004	-3.7033714E-002	-1.2403749E-005	1.000000000000000E+000	12	3.4470381E-003	9.9194658E-006	2.8771961E-003	-5.2664756E-005	2.8776780E-003	-1.0486360E+000
4.5664050E+005	2.0560902E+002	-3.9149966E+000	2.0564629E+002	1.0908358E+000	4.063093739649048E+000	-8.0476627E-003	8.7396114E-004	-8.9025468E-002	-3.2265274E-005	1.000000000000000E+000	11	9.9534420E-003	4.8400787E-005	4.8618368E-003	-9.2574126E-005	4.8627183E-003	-1.0908358E+000
3.0857416E+005	1.6889098E+002	-3.0445304E+000	1.6891841E+002	1.0327363E+000	4.604095098649850E+000	-8.0918567E-003	7.5240608E-004	-1.6941048E-001	-5.5033473E-005	1.000000000000000E+000	11	1.0066205E-002	5.9592108E-005	5.9190560E-003	-1.0670046E-004	5.9200176E-003	-1.0327363E+000
2.0852534E+005	1.5492531E+002	-1.3980968E+000	1.5493161E+002	5.1704192E-001	5.013080264761811E+000	-8.0980100E-003	8.9353649E-004	-5.4591376E-001	-4.4454780E-005	1.000000000000000E+000	11	1.0798342E-002	6.9697475E-005	6.4541982E-003	-5.8244805E-005	6.4544608E-003	-5.1704192E-001
1.4090817E+005	1.4947597E+002	-1.9922461E-001	1.4947610E+002	7.6364927E-002	5.422076524206204E+000	-8.0867289E-003	1.0725131E-003	-5.6694508E+000	-1.0071250E-005	1.000000000000000E+000	11	1.0727383E-002	7.1766539E-005	6.6900263E-003	-8.9166024E-006	6.6900323E-003	-7.6364927E-002
9.5214820E+004	1.4706586E+002	1.0321733E+000	1.4706947E+002	-4.0212056E-001	5.831088570266729E+000	-8.0951946E-003	8.9484151E-004	1.6194329E+000	7.9766971E-005	1.000000000000000E+000	11	1.0584768E-002	7.1971212E-005	6.7993398E-003	4.7720780E-005	6.7995074E-003	4.0212056E-001
6.4345688E+004	1.4639729E+002	2.0636144E+000	1.4641183E+002	-8.0758703E-001	6.240083336393582E+000	-8.0839312E-003	9.8227884E-004	1.1985941E+000	2.3810958E-004	1.000000000000000E+000	11	1.0488352E-002	7.1635957E-005	6.8293703E-003	9.6266711E-005	6.8300487E-003	8.0758703E-001
4.3476547E+004	1.4545059E+002	3.1581609E+000	1.4548488E+002	-1.2438648E+000	6.649093489133520E+000	-8.0871573E-003	9.6270331E-004	1.1591265E+000	5.4621504E-004	1.000000000000000E+000	11	1.0368603E-002	7.1269285E-005	6.8719471E-003	1.4921022E-004	6.8735667E-003	1.2438648E+000
2.9384758E+004	1.4570911E+002	5.1310883E+000	1.4579942E+002	-2.0168147E+000	7.058085721917450E+000	-8.0802394E-003	9.5077144E-004	1.0555737E+000	1.3073621E-003	1.000000000000000E+000	11	1.0283687E-002	7.0533111E-005	6.8544890E-003	2.4137810E-004	6.8587377E-003	2.0168147E+000
1.9853508E+004	1.4612903E+002	7.4856920E+000	1.4632063E+002	-2.9325042E+000	7.467093687999295E+000	-8.0927517E-003	9.9271908E-004	1.0709050E+000	2.8028749E-003	1.000000000000000E+000	11	1.0105208E-002	6.9062087E-005	6.8253567E-003	3.4963977E-004	6.8343063E-003	2.9325042E+000
1.3417967E+004	1.4708725E+002	1.0604305E+001	1.4746901E+002	-4.1236243E+000	7.744094661116833E+000	-8.0871386E-003	8.6892728E-004	1.1185392E+000	5.7838112E-003	1.000000000000000E+000	11	1.0845305E-002	7.3542949E-005	6.7635309E-003	4.8761911E-004	6.7810859E-003	4.1236243E+000
9.0820293E+003	1.4733823E+002	1.4360134E+001	1.4803636E+002	-5.5666795E+000	8.181342788593611E+000	-8.1072785E-003	9.0229872E-004	1.2203341E+000	1.1483094E-002	1.000000000000000E+000	11	1.0099386E-002	6.8222333E-005	6.7232400E-003	6.5527216E-004	6.7550973E-003	5.5666795E+000
6.1409590E+003	1.4869016E+002	2.0662104E+001	1.5011890E+002	-7.9112058E+000	8.584643367776152E+000	-8.1090499E-003	7.7142211E-004	1.2543230E+000	2.3762260E-002	1.000000000000000E+000	11	1.0285567E-002	6.8516143E-005	6.5979874E-003	9.1686170E-004	6.6613867E-003	7.9112058E+000
4.1413242E+003	1.5035257E+002	2.9236208E+001	1.5316870E+002	-1.1003902E+001	9.050701709908026E+000	-8.0774985E-003	9.1497612E-004	1.3144978E+000	4.7891881E-002	1.000000000000000E+000	11	1.0361373E-002	6.7646804E-005	6.4087128E-003	1.2461806E-003	6.5287491E-003	1.1003902E+001
2.7973140E+003	1.5340862E+002	4.1471619E+001	1.5891537E+002	-1.5127430E+001	9.516937972046435E+000	-8.0722393E-003	9.6009317E-004	1.3719172E+000	9.3432516E-002	1.000000000000000E+000	11	1.0393569E-002	6.5403168E-005	6.0746032E-003	1.6421740E-003	6.2926575E-003	1.5127430E+001
1.8906046E+003	1.5647351E+002	5.8764805E+001	1.6714444E+002	-2.0584045E+001	9.981691167464305E+000	-8.0752606E-003	8.7489275E-004	1.4325247E+000	1.7707320E-001	1.000000000000000E+000	11	1.0393839E-002	6.2184772E-005	5.6008892E-003	2.1034561E-003	5.9828493E-003	2.0584045E+001
1.2871166E+003	1.6009557E+002	8.2371910E+001	1.8004367E+002	-2.7226595E+001	1.044820745624020E+001	-8.0752606E-003	8.8775682E-004	1.5011467E+000	3.1421411E-001	1.000000000000000E+000	11	1.0389937E-002	5.7707872E-005	4.9388246E-003	2.5411097E-003	5.5542081E-003	2.7226595E+001
8.6306641E+002	1.6583685E+002	1.1853780E+002	2.0384570E+002	-3.5556641E+001	1.091517947844113E+001	-8.0672046E-003	7.4737211E-004	1.5556757E+000	5.2605319E-001	1.000000000000000E+000	11	1.0384918E-002	5.0944993E-005	3.9909650E-003	2.8526846E-003	4.9056713E-003	3.5556641E+001
5.8369244E+002	1.7305608E+002	1.6717909E+002	2.4061848E+002	-4.4010414E+001	1.138221795394202E+001	-8.0745332E-003	1.0236666E-003	1.6310004E+000	7.8733587E-001	1.000000000000000E+000	11	1.0370540E-002	4.3099517E-005	2.9890202E-003	2.8875135E-003	4.1559567E-003	4.4010414E+001
3.9411707E+002	1.8639368E+002	2.3847902E+002	3.0267944E+002	-5.1989044E+001	1.210120761473081E+001	-8.0975443E-003	5.2181400E-005	1.6933422E+000	1.0511851E+000	1.000000000000000E+000	12	1.0530572E-002	3.4791170E-005	2.0345359E-003	2.6030610E-003	3.3038254E-003	5.1989044E+001
2.6644943E+002	2.0037016E+002	3.4021423E+002	3.9483405E+002	-5.9503918E+001	1.256464897014666E+001	-8.1032878E-003	1.6197373E-004	1.7557102E+000	1.3035529E+000	1.000000000000000E+000	12	1.0448957E-002	2.6464175E-005	1.2852980E-003	2.1823444E-003	2.5327096E-003	5.9503918E+001
1.8005759E+002	2.2412883E+002	4.8119818E+002	5.3083466E+002	-6.5025200E+001	1.302970184556762E+001	-8.1023369E-003	1.4158913E-004	1.8368965E+000	1.5094340E+000	1.000000000000000E+000	12	1.0389106E-002	1.9571266E-005	7.9538819E-004	1.7076760E-003	1.8838258E-003	6.5025200E+001
1.2159529E+002	2.5332620E+002	6.8333643E+002	7.2878174E+002	-6.9659271E+001	1.349012816071627E+001	-8.0892649E-003	-2.8461878E-005	1.9154410E+000	1.6840035E+000	1.000000000000000E+000	12	1.0356652E-002	1.4210910E-005	4.7696347E-004	1.2865884E-003	1.3721529E-003	6.9659271E+001
8.2236801E+001	2.9646756E+002	9.7539734E+002	1.0194572E+003	-7.3093590E+001	1.394531239566277E+001	-8.0940016E-003	1.3759773E-004	1.9841403E+000	1.8163414E+000	1.000000000000000E+000	12	1.0346506E-002	1.0149034E-005	2.8525890E-004	9.3852001E-004	9.8091410E-004	7.3093590E+001
5.5515171E+001	3.7079355E+002	1.4058943E+003	1.4539692E+003	-7.5225136E+001	1.440791492434801E+001	-8.0925282E-003	1.5292795E-004	2.0391810E+000	1.9065609E+000	1.000000000000000E+000	12	1.0346983E-002	7.1163695E-006	1.7539682E-004	6.6503149E-004	6.8777247E-004	7.5225136E+001
3.7560089E+001	4.6053519E+002	2.0026115E+003	2.0548833E+003	-7.7049011E+001	1.516476914696977E+001	-8.0922954E-003	-1.7004792E-006	2.1159081E+000	2.0096290E+000	1.000000000000000E+000	13	1.0367375E-002	5.0452377E-006	1.0906580E-004	4.7426642E-004	4.8664564E-004	7.7049011E+001
2.5365252E+001	5.9110181E+002	2.8618945E+003	2.9223008E+003	-7.8330109E+001	1.562386927544139E+001	-8.0996510E-003	2.7200713E-005	2.1924381E+000	2.1027360E+000	1.000000000000000E+000	13	1.0348700E-002	3.5412850E-006	6.9216927E-005	3.3512266E-004	3.4219612E-004	7.8330109E+001
1.7132671E+001	8.2518622E+002	4.0484956E+003	4.1317368E+003	-7.8479477E+001	1.603782241510635E+001	-8.1052827E-003	1.4912885E-005	2.2945702E+000	2.2030451E+000	1.000000000000000E+000	13	1.0342722E-002	2.5032384E-006	4.8337766E-005	2.3715287E-004	2.4202897E-004	7.8479477E+001
1.1591243E+001	1.1043948E+003	5.7368843E+003	5.8422197E+003	-7.9103416E+001	1.644726051451289E+001	-8.1028212E-003	9.8291575E-006	2.3933933E+000	2.3078651E+000	1.000000000000000E+000	13	1.0336496E-002	1.7692755E-006	3.2357031E-005	1.6808166E-004	1.7116782E-004	7.9103416E+001
7.8281527E+000	1.6473939E+003	8.2262217E+003	8.3895547E+003	-7.8675674E+001	1.702825334211229E+001	-8.0991946E-003	1.3932834E-006	2.4714990E+000	2.3762023E+000	1.000000000000000E+000	13	1.0339894E-002	1.2324723E-006	2.3405588E-005	1.1687526E-004	1.1919584E-004	7.8675674E+001
5.2930207E+000	2.4213708E+003	1.1588789E+004	1.1839049E+004	-7.8198357E+001	1.829173113549768E+001	-8.0969781E-003	2.2553952E-006	2.5946481E+000	2.4861135E+000	1.000000000000000E+000	14	1.0338723E-002	8.7327305E-007	1.7275384E-005	8.2680752E-005	8.4466243E-005	7.8198357E+001
3.5755143E+000	3.5678767E+003	1.6307245E+004	1.6692992E+004	-7.7658676E+001	1.950639860649244E+001	-8.0906628E-003	2.8235820E-006	2.7296126E+000	2.6049168E+000	1.000000000000000E+000	14	1.0338904E-002	6.1935600E-007	1.2803876E-005	5.8521066E-005	5.9905378E-005	7.7658676E+001
2.4172332E+000	5.3553481E+003	2.2874563E+004	2.3493092E+004	-7.6823341E+001	2.128261325089807E+001	-8.0853654E-003	1.6359000E-006	2.8783844E+000	2.7288146E+000	1.000000000000000E+000	14	1.0342618E-002	4.4024085E-007	9.7030324E-006	4.1445030E-005	4.2565705E-005	7.6823341E+001
1.6327059E+000	7.9532563E+003	3.1812645E+004	3.2791746E+004	-7.5963593E+001	2.389339990817825E+001	-8.0869384E-003	2.0281029E-006	3.0641668E+000	2.8839178E+000	1.000000000000000E+000	14	1.0338141E-002	3.1526653E-007	7.3963247E-006	2.9584939E-005	3.0495479E-005	7.5963593E+001
1.1020596E+000	1.1967641E+004	4.4201551E+004	4.5793027E+004	-7.4850296E+001	2.774240889100474E+001	-8.0856327E-003	2.3279551E-006	3.2672138E+000	3.0440645E+000	1.000000000000000E+000	14	1.0338216E-002	2.2575961E-007	5.7070251E-006	2.1078456E-005	2.1837386E-005	7.4850296E+001
7.4560940E-001	1.7766799E+004	6.0774344E+004	6.3318086E+004	-7.3704224E+001	3.341415145373321E+001	-8.0851195E-003	2.4158719E-006	3.5122747E+000	3.2357390E+000	1.000000000000000E+000	14	1.0339447E-002	1.6329375E-007	4.4315293E-006	1.5158796E-005	1.5793275E-005	7.3704224E+001
5.0390220E-001	2.6598816E+004	8.3395547E+004	8.7534648E+004	-7.2310036E+001	4.178998774490901E+001	-8.0851335E-003	1.6567795E-006	3.7873116E+000	3.4376111E+000	1.000000000000000E+000	14	1.0335991E-002	1.1807886E-007	3.4713819E-006	1.0883859E-005	1.1424047E-005	7.2310036E+001
3.4010270E-001	3.9034246E+004	1.1267900E+005	1.1924860E+005	-7.0892899E+001	5.418344030689332E+001	-8.0823554E-003	1.8142807E-006	4.1530490E+000	3.7080574E+000	1.000000000000000E+000	14	1.0336483E-002	8.6680117E-008	2.7449798E-006	7.9238525E-006	8.3858422E-006	7.0892899E+001
2.3021273E-001	5.5635879E+004	1.5135311E+005	1.6125481E+005	-6.9817078E+001	7.247672485581279E+001	-8.0833239E-003	1.7579534E-006	4.5677195E+000	4.0239887E+000	1.000000000000000E+000	14	1.0336790E-002	6.4102210E-008	2.1395856E-006	5.8205765E-006	6.2013655E-006	6.9817078E+001
1.5547264E-001	7.8003672E+004	2.0330002E+005	2.1775094E+005	-6.9008820E+001	9.954799992826884E+001	-8.0840047E-003	1.9773825E-006	5.0353394E+000	4.3891811E+000	1.000000000000000E+000	14	1.0339222E-002	4.7481873E-008	1.6451099E-006	4.2876304E-006	4.5924025E-006	6.9008820E+001
1.0504906E-001	1.1083333E+005	2.7249822E+005	2.9417563E+005	-6.7866928E+001	1.395973760171619E+002	-8.0850152E-003	1.6878956E-006	5.5598660E+000	4.7706580E+000	1.000000000000000E+000	14	1.0338750E-002	3.5144822E-008	1.2807282E-006	3.1488378E-006	3.3993299E-006	6.7866928E+001
7.1022727E-002	1.5332822E+005	3.6339106E+005	3.9441425E+005	-6.7123306E+001	1.988181748300267E+002	-8.0845654E-003	1.6168633E-006	6.1666393E+000	5.2347007E+000	1.000000000000000E+000	14	1.0336691E-002	2.6207701E-008	9.8563680E-007	2.3359796E-006	2.5354054E-006	6.7123306E+001
4.7988325E-002	2.1964298E+005	4.8529594E+005	5.3268675E+005	-6.5648682E+001	2.864489105922694E+002	-8.0857612E-003	9.6366080E-007	6.8340454E+000	5.6721458E+000	1.000000000000000E+000	14	1.0336891E-002	1.9405196E-008	7.7405809E-007	1.7102627E-006	1.8772758E-006	6.5648682E+001
3.2443926E-002	3.1124831E+005	6.4626231E+005	7.1730781E+005	-6.4283928E+001	4.160490865345928E+002	-8.0844043E-003	1.0357696E-006	7.5906315E+000	6.1614714E+000	1.000000000000000E+000	14	1.0336705E-002	1.4410417E-008	6.0491720E-007	1.2560233E-006	1.3941017E-006	6.4283928E+001
2.1920588E-002	4.4950763E+005	8.5246875E+005	9.6372200E+005	-6.2197273E+001	6.078499204179971E+002	-8.0924500E-003	1.7956521E-006	8.5170546E+000	6.6641207E+000	1.000000000000000E+000	14	1.0337391E-002	1.0726528E-008	4.8398681E-007	9.1785677E-007	1.0376436E-006	6.2197273E+001
1.4807615E-002	6.7033238E+005	1.0201263E+006	1.2206569E+006	-5.6690796E+001	8.917680862767156E+002	-8.0879554E-003	7.0911337E-006	1.0536128E+001	7.3587112E+000	1.000000000000000E+000	14	1.0336807E-002	8.4682332E-009	4.4988653E-007	6.8464709E-007	8.1923105E-007	5.6690796E+001
1.0000636E-002	8.8125181E+005	1.1497375E+006	1.4486204E+006	-5.2530525E+001	1.312140544803318E+003	-8.0902260E-003	5.9240056E-006	1.3841840E+001	8.7193079E+000	1.000000000000000E+000	14	1.0336750E-002	7.1355823E-009	4.1994349E-007	5.4788512E-007	6.9031199E-007	5.2530525E+001