EC-Lab ASCII FILE
Nb header lines : 62                          

Potentio Electrochemical Impedance Spectroscopy

Run on channel : 5 (SN 35518)
User : 
CE vs. WE compliance from -10 V to 10 V
Electrode connection : standard
Ewe ctrl range : min = -2.50 V, max = 2.50 V
Safety Limits :
	Do not start on E overload
Acquisition started on : 09/21/2023 11:07:44
Technique started on : 09/21/2023 11:07:45
Saved on :
	File : 0919_01_0.5MTFSI_ZnSym_InsideGB_0hr_RT_Tranference_01_PEIS_C05.mpr
	Directory : C:\Users\CESL\Documents\EC-Lab\Data\PhD\Leifer\Results\Zn Ion GPE\2023\0919\
	Host : 10.110.196.171
Device : VSP (SN 1724172417241724)
Address : USB
EC-Lab for windows v11.16 (software)
Internet server v11.16 (firmware)
Command interpretor v11.16 (firmware)
Electrode material : Au/Pd
Initial state : 
Electrolyte : NaCl (0.2M)
Comments : Fe(CN)63-/Fe(CN)64- 5.10-3 M
Reference electrode : SCE Saturated Calomel Electrode (0.241 V)
Electrode surface area : 0.001 cm²
Characteristic mass : 0.001 g
Equivalent Weight : 0.000 g/eq.
Density : 0.000 g/cm3
Cycle Definition : Charge/Discharge alternance
Mode                Single sine         
E (V)               0.0000              
vs.                 Eoc                 
tE (h:m:s)          0:00:0.0000         
record              0                   
dI                  0.000               
unit dI             mA                  
dt (s)              0.000               
fi                  1.000               
unit fi             MHz                 
ff                  10.000              
unit ff             mHz                 
Nd                  6                   
Points              per decade          
spacing             Logarithmic         
Va (mV)             10.0                
pw                  0.10                
Na                  2                   
corr                1                   
E range min (V)     -2.500              
E range max (V)     2.500               
I Range             Auto                
Bandwidth           5                   
nc cycles           0                   
goto Ns'            0                   
nr cycles           0                   
inc. cycle          0                   

freq/Hz	Re(Z)/Ohm	-Im(Z)/Ohm	|Z|/Ohm	Phase(Z)/deg	time/s	<Ewe>/V	<I>/mA	Cs/µF	Cp/µF	cycle number	I Range	|Ewe|/V	|I|/A	Re(Y)/Ohm-1	Im(Y)/Ohm-1	|Y|/Ohm-1	Phase(Y)/deg	
1.0000193E+006	9.3791790E-002	4.8310337E+000	4.8319440E+000	-8.8887772E+001	1.974097747093765E+000	-1.6392279E-002	5.4986030E-002	3.2943647E-002	3.2931238E-002	1.000000000000000E+000	9	1.8499538E-004	3.8285911E-005	4.0171882E-003	2.0691705E-001	2.0695604E-001	8.8887772E+001
6.7575181E+005	-5.6076355E+002	3.7403049E+002	6.7405829E+002	-1.4629663E+002	3.265087035077158E+000	-1.6598471E-002	-8.4232521E-004	6.2968867E-004	1.9388535E-004	1.000000000000000E+000	12	3.2619887E-004	4.8393275E-007	-1.2341981E-003	8.2321273E-004	1.4835512E-003	1.4629663E+002
4.5664050E+005	2.9668667E+001	-5.2941585E+000	3.0137318E+001	1.0117527E+001	4.130086142831715E+000	-1.6475121E-002	5.5674766E-003	-6.5833777E-002	-2.0315778E-003	1.000000000000000E+000	10	6.5210643E-003	2.1637839E-004	3.2665465E-002	-5.8289161E-003	3.3181455E-002	-1.0117527E+001
3.0857416E+005	2.0222225E+001	-2.3012888E+000	2.0352747E+001	6.4923286E+000	4.539097388886148E+000	-1.6623748E-002	4.6253395E-003	-2.2412455E-001	-2.8654025E-003	1.000000000000000E+000	10	1.0619807E-002	5.2178738E-004	4.8818324E-002	-5.5555245E-003	4.9133416E-002	-6.4923286E+000
2.0852534E+005	1.7667404E+001	-1.2736603E+000	1.7713255E+001	4.1233749E+000	5.080091467971215E+000	-1.6583800E-002	4.4928817E-003	-5.9924948E-001	-3.0982620E-003	1.000000000000000E+000	10	1.0147592E-002	5.7288125E-004	5.6308765E-002	-4.0593534E-003	5.6454897E-002	-4.1233749E+000
1.4090817E+005	1.6684708E+001	-7.0910233E-001	1.6699770E+001	2.4336138E+000	5.621084213664290E+000	-1.6550731E-002	5.9499242E-003	-1.5928507E+000	-2.8719171E-003	1.000000000000000E+000	10	1.0129573E-002	6.0656958E-004	5.9827060E-002	-2.5426580E-003	5.9881065E-002	-2.4336138E+000
9.5214820E+004	1.6303017E+001	-3.5805464E-001	1.6306948E+001	1.2581550E+000	6.030076553084655E+000	-1.6531007E-002	6.1756643E-003	-4.6683807E+000	-2.2507098E-003	1.000000000000000E+000	10	1.0752197E-002	6.5936300E-004	6.1308768E-002	-1.3464924E-003	6.1323553E-002	-1.2581550E+000
6.4345688E+004	1.6159651E+001	-1.1207284E-001	1.6160040E+001	3.9735991E-001	6.439089319173945E+000	-1.6538745E-002	5.6626205E-003	-2.2069897E+001	-1.0614907E-003	1.000000000000000E+000	10	1.0594287E-002	6.5558543E-004	6.1879549E-002	-4.2915632E-004	6.1881036E-002	-3.9735991E-001
4.3476547E+004	1.6130743E+001	1.2473194E-001	1.6131226E+001	-4.4303423E-001	6.848078218608862E+000	-1.6530318E-002	6.1588730E-003	2.9348600E+001	1.7547209E-003	1.000000000000000E+000	10	1.0366038E-002	6.4260699E-004	6.1989717E-002	4.7933921E-004	6.1991569E-002	4.4303423E-001
2.9384758E+004	1.6129751E+001	2.9721028E-001	1.6132488E+001	-1.0556250E+000	7.256088157970225E+000	-1.6545026E-002	5.8846273E-003	1.8223602E+001	6.1852769E-003	1.000000000000000E+000	10	1.0227091E-002	6.3394377E-004	6.1976198E-002	1.1419868E-003	6.1986718E-002	1.0556250E+000
1.9853508E+004	1.6137003E+001	5.0009674E-001	1.6144751E+001	-1.7750671E+000	7.665088044072036E+000	-1.6525006E-002	5.9704445E-003	1.6029829E+001	1.5380634E-002	1.000000000000000E+000	10	1.0129187E-002	6.2739820E-004	6.1909914E-002	1.9186304E-003	6.1939638E-002	1.7750671E+000
1.3417967E+004	1.6240936E+001	7.2069949E-001	1.6256920E+001	-2.5408611E+000	7.942092777200742E+000	-1.6540291E-002	5.7559013E-003	1.6458082E+001	3.2345295E-002	1.000000000000000E+000	10	1.0705314E-002	6.5850810E-004	6.1451793E-002	2.7269532E-003	6.1512269E-002	2.5408611E+000
9.0820293E+003	1.6336460E+001	1.0146928E+000	1.6367943E+001	-3.5541983E+000	8.239325591333909E+000	-1.6528770E-002	5.6458297E-003	1.7270411E+001	6.6371799E-002	1.000000000000000E+000	10	1.0996017E-002	6.7180203E-004	6.0977522E-002	3.7874451E-003	6.1095033E-002	3.5541983E+000
6.1409590E+003	1.6458668E+001	1.4129221E+000	1.6519203E+001	-4.9066234E+000	8.832649166219198E+000	-1.6515294E-002	4.8753303E-003	1.8342802E+001	1.3419117E-001	1.000000000000000E+000	10	1.0164052E-002	6.1528711E-004	6.0313769E-002	5.1777377E-003	6.0535606E-002	4.9066234E+000
4.1413242E+003	1.6632191E+001	1.9219549E+000	1.6742870E+001	-6.5916533E+000	9.298704441687732E+000	-1.6502822E-002	5.9163417E-003	1.9995750E+001	2.6349008E-001	1.000000000000000E+000	10	1.0212807E-002	6.0997944E-004	5.9332091E-002	6.8561984E-003	5.9726916E-002	6.5916533E+000
2.7973140E+003	1.6873245E+001	2.6304674E+000	1.7077053E+001	-8.8608456E+000	9.764951930468669E+000	-1.6514082E-002	6.0730539E-003	2.1629475E+001	5.1319921E-001	1.000000000000000E+000	10	1.0241503E-002	5.9972308E-004	5.7859246E-002	9.0200109E-003	5.8558114E-002	8.8608456E+000
1.8906046E+003	1.7178419E+001	3.6192772E+000	1.7555548E+001	-1.1897498E+001	1.022970741923928E+001	-1.6506905E-002	6.2353630E-003	2.3259350E+001	9.8858154E-001	1.000000000000000E+000	10	1.0240740E-002	5.8333355E-004	5.5738389E-002	1.1743380E-002	5.6962050E-002	1.1897498E+001
1.2871166E+003	1.7574492E+001	4.9556074E+000	1.8259813E+001	-1.5747247E+001	1.069617597470642E+001	-1.6512703E-002	5.8417208E-003	2.4952000E+001	1.8378348E+000	1.000000000000000E+000	10	1.0236207E-002	5.6058663E-004	5.2709643E-002	1.4862923E-002	5.4765072E-002	1.5747247E+001
8.6306641E+002	1.8216965E+001	6.8522654E+000	1.9463076E+001	-2.0613665E+001	1.116321034354041E+001	-1.6511602E-002	5.4275533E-003	2.6911737E+001	3.3357012E+000	1.000000000000000E+000	10	1.0237059E-002	5.2597333E-004	4.8089810E-002	1.8088862E-002	5.1379342E-002	2.0613665E+001
5.8369244E+002	1.9086540E+001	9.3784189E+000	2.1266188E+001	-2.6167791E+001	1.163019455238828E+001	-1.6513225E-002	5.9797717E-003	2.9074112E+001	5.6543984E+000	1.000000000000000E+000	10	1.0227093E-002	4.8090864E-004	4.2203445E-002	2.0737210E-002	4.7023002E-002	2.6167791E+001
3.9411707E+002	2.0353992E+001	1.2899588E+001	2.4097393E+001	-3.2364971E+001	1.209718382792198E+001	-1.6516095E-002	5.6495559E-003	3.1305386E+001	8.9707880E+000	1.000000000000000E+000	10	1.0216520E-002	4.2396787E-004	3.5051733E-002	2.2214457E-002	4.1498266E-002	3.2364971E+001
2.6644943E+002	2.2373005E+001	1.7656584E+001	2.8500988E+001	-3.8280197E+001	1.281264359526176E+001	-1.6519003E-002	-4.0774624E-004	3.3829742E+001	1.2983512E+001	1.000000000000000E+000	11	1.0303666E-002	3.6151960E-004	2.7542571E-002	2.1736359E-002	3.5086501E-002	3.8280197E+001
1.8005759E+002	2.5312031E+001	2.3937927E+001	3.4838531E+001	-4.3401829E+001	1.327770743067958E+001	-1.6521147E-002	-4.4150083E-004	3.6925140E+001	1.7433138E+001	1.000000000000000E+000	11	1.0265996E-002	2.9467361E-004	2.0854861E-002	1.9722722E-002	2.8703850E-002	4.3401829E+001
1.2159529E+002	2.9780796E+001	3.2096100E+001	4.3784191E+001	-4.7142887E+001	1.373813742582570E+001	-1.6522191E-002	-3.6747422E-004	4.0780365E+001	2.1913965E+001	1.000000000000000E+000	11	1.0241369E-002	2.3390562E-004	1.5534655E-002	1.6742395E-002	2.2839293E-002	4.7142887E+001
8.2236801E+001	3.6438782E+001	4.2353065E+001	5.5870987E+001	-4.9292694E+001	1.419332590079284E+001	-1.6526440E-002	-2.8431031E-004	4.5695042E+001	2.6258270E+001	1.000000000000000E+000	11	1.0229100E-002	1.8308430E-004	1.1673233E-002	1.3567885E-002	1.7898377E-002	4.9292694E+001
5.5515171E+001	4.6151928E+001	5.4780899E+001	7.1630630E+001	-4.9886463E+001	1.465591450946522E+001	-1.6523812E-002	-4.8774839E-004	5.2333439E+001	3.0608360E+001	1.000000000000000E+000	11	1.0215534E-002	1.4261405E-004	8.9948159E-003	1.0676567E-002	1.3960508E-002	4.9886463E+001
3.7560089E+001	5.9550503E+001	6.8996811E+001	9.1141769E+001	-4.9202827E+001	1.514775165282481E+001	-1.6523831E-002	-7.7304395E-004	6.1413589E+001	3.5195541E+001	1.000000000000000E+000	11	1.0207968E-002	1.1200098E-004	7.1688672E-003	8.3060414E-003	1.0971918E-002	4.9202827E+001
2.5365252E+001	7.7969604E+001	8.4229538E+001	1.1477750E+002	-4.7210182E+001	1.560685386130353E+001	-1.6521500E-002	-5.5786129E-004	7.4493187E+001	4.0117317E+001	1.000000000000000E+000	11	1.0208079E-002	8.8937981E-005	5.9185028E-003	6.3936803E-003	8.7125096E-003	4.7210182E+001
1.7132671E+001	1.0178802E+002	1.0013920E+002	1.4278886E+002	-4.4532169E+001	1.624783063841460E+001	-1.6523477E-002	-1.1839389E-003	9.2766441E+001	4.5625797E+001	1.000000000000000E+000	12	1.0223598E-002	7.1599410E-005	4.9923840E-003	4.9115149E-003	7.0033474E-003	4.4532169E+001
1.1591243E+001	1.2970035E+002	1.1378748E+002	1.7253918E+002	-4.1260818E+001	1.665727209780016E+001	-1.6524334E-002	-1.3553994E-003	1.2066898E+002	5.2481846E+001	1.000000000000000E+000	12	1.0211146E-002	5.9181606E-005	4.3567801E-003	3.8222491E-003	5.7957848E-003	4.1260818E+001
7.8281527E+000	1.6206650E+002	1.2579082E+002	2.0515575E+002	-3.7817471E+001	1.723929143210989E+001	-1.6522992E-002	-1.2721218E-003	1.6162625E+002	6.0763451E+001	1.000000000000000E+000	12	1.0207924E-002	4.9756949E-005	3.8505774E-003	2.9886949E-003	4.8743454E-003	3.7817471E+001
5.2930207E+000	1.9738110E+002	1.3437032E+002	2.3877748E+002	-3.4245697E+001	1.807568499190529E+001	-1.6520096E-002	-1.4377715E-003	2.2377583E+002	7.0865219E+001	1.000000000000000E+000	12	1.0205245E-002	4.2739561E-005	3.4619346E-003	2.3567670E-003	4.1879998E-003	3.4245697E+001
3.5755143E+000	2.3447043E+002	1.4054128E+002	2.7336465E+002	-3.0938417E+001	1.929134286291082E+001	-1.6519334E-002	-1.5409797E-003	3.1672165E+002	8.3714523E+001	1.000000000000000E+000	12	1.0203821E-002	3.7326772E-005	3.1376418E-003	1.8806985E-003	3.6581175E-003	3.0938417E+001
2.4172332E+000	2.7161148E+002	1.4264540E+002	3.0679065E+002	-2.7707640E+001	2.106855956066283E+001	-1.6519304E-002	-1.7321025E-003	4.6157663E+002	9.9787262E+001	1.000000000000000E+000	12	1.0207064E-002	3.3270451E-005	2.8857843E-003	1.5155615E-003	3.2595517E-003	2.7707640E+001
1.6327059E+000	3.0698059E+002	1.4352956E+002	3.3887729E+002	-2.5058559E+001	2.367945157803479E+001	-1.6521938E-002	-1.8889722E-003	6.7915802E+002	1.2183402E+002	1.000000000000000E+000	12	1.0206320E-002	3.0118041E-005	2.6731663E-003	1.2498457E-003	2.9509207E-003	2.5058559E+001
1.1020596E+000	3.4307181E+002	1.4149820E+002	3.7110648E+002	-2.2413446E+001	2.939245987604954E+001	-1.6518399E-002	-2.2763070E-003	1.0206202E+003	1.4837779E+002	1.000000000000000E+000	13	1.0206626E-002	2.7503227E-005	2.4910818E-003	1.0274338E-003	2.6946445E-003	2.2413446E+001
7.4560940E-001	3.7814661E+002	1.3957153E+002	4.0308197E+002	-2.0258787E+001	3.506321649203892E+001	-1.6516695E-002	-2.6077859E-003	1.5293677E+003	1.8336601E+002	1.000000000000000E+000	13	1.0205637E-002	2.5319010E-005	2.3274131E-003	8.5903355E-004	2.4808850E-003	2.0258787E+001
5.0390220E-001	4.1294357E+002	1.3699811E+002	4.3507571E+002	-1.8353773E+001	4.343907747659250E+001	-1.6519492E-002	-3.0095885E-003	2.3054690E+003	2.2859081E+002	1.000000000000000E+000	13	1.0202906E-002	2.3450875E-005	2.1815293E-003	7.2374387E-004	2.2984506E-003	1.8353773E+001
3.4010270E-001	4.4509940E+002	1.3308495E+002	4.6456976E+002	-1.6646692E+001	5.583252121185069E+001	-1.6511766E-002	-3.5373056E-003	3.5162610E+003	2.8856064E+002	1.000000000000000E+000	13	1.0205098E-002	2.1966773E-005	2.0623156E-003	6.1663345E-004	2.1525293E-003	1.6646692E+001
2.3021273E-001	4.7903079E+002	1.2687810E+002	4.9554874E+002	-1.4834956E+001	7.412586394746904E+001	-1.6512075E-002	-4.2314590E-003	5.4488408E+003	3.5719443E+002	1.000000000000000E+000	13	1.0204834E-002	2.0592997E-005	1.9507010E-003	5.1667081E-004	2.0179651E-003	1.4834956E+001
1.5547264E-001	5.1462317E+002	1.1919908E+002	5.2824750E+002	-1.3041107E+001	1.011972122732841E+002	-1.6510438E-002	-5.1034852E-003	8.5880244E+003	4.3728461E+002	1.000000000000000E+000	13	1.0204716E-002	1.9318059E-005	1.8442272E-003	4.2716731E-004	1.8930520E-003	1.3041107E+001
1.0504906E-001	5.5204437E+002	1.1124681E+002	5.6314197E+002	-1.1393531E+001	1.412467716955434E+002	-1.6509045E-002	-6.1529572E-003	1.3618849E+004	5.3147119E+002	1.000000000000000E+000	13	1.0205482E-002	1.8122397E-005	1.7407573E-003	3.5079371E-004	1.7757511E-003	1.1393531E+001
7.1022727E-002	5.8681354E+002	1.0235017E+002	5.9567249E+002	-9.8938227E+000	2.004677838417265E+002	-1.6498167E-002	-7.3131705E-003	2.1894461E+004	6.4639246E+002	1.000000000000000E+000	13	1.0203200E-002	1.7128876E-005	1.6538078E-003	2.8845193E-004	1.6787748E-003	9.8938227E+000
4.7988325E-002	6.1943640E+002	8.8197281E+001	6.2568378E+002	-8.1034842E+000	2.880988935772912E+002	-1.6506482E-002	-8.5306391E-003	3.7603594E+004	7.4718811E+002	1.000000000000000E+000	13	1.0204902E-002	1.6309999E-005	1.5822930E-003	2.2529181E-004	1.5982514E-003	8.1034842E+000
3.2443926E-002	6.5676349E+002	6.9287361E+001	6.6040820E+002	-6.0223246E+000	4.176994964796177E+002	-1.6501475E-002	-9.6035236E-003	7.0799914E+004	7.7932007E+002	1.000000000000000E+000	13	1.0204226E-002	1.5451391E-005	1.5058583E-003	1.5886532E-004	1.5142150E-003	6.0223246E+000
2.1920588E-002	7.0487701E+002	5.4762993E+001	7.0700110E+002	-4.4424744E+000	6.095010322297458E+002	-1.6516874E-002	-1.0256655E-002	1.3258083E+005	7.9545374E+002	1.000000000000000E+000	13	1.0203828E-002	1.4432549E-005	1.4101755E-003	1.0955873E-004	1.4144250E-003	4.4424744E+000
1.4807615E-002	7.6784979E+002	4.8214474E+001	7.6936206E+002	-3.5929732E+000	8.934202508085000E+002	-1.6506130E-002	-1.0231885E-002	2.2292438E+005	8.7548944E+002	1.000000000000000E+000	13	1.0203672E-002	1.3262509E-005	1.2972233E-003	8.1454651E-005	1.2997781E-003	3.5929732E+000
1.0000636E-002	8.6296765E+002	3.7030766E+001	8.6376178E+002	-2.4571092E+000	1.313794147575216E+003	-1.6508533E-002	-9.4861910E-003	4.2976378E+005	7.8989111E+002	1.000000000000000E+000	13	1.0203778E-002	1.1813185E-005	1.1566622E-003	4.9633480E-005	1.1577266E-003	2.4571092E+000