EC-Lab ASCII FILE
Nb header lines : 62                          

Potentio Electrochemical Impedance Spectroscopy

Run on channel : 5 (SN 35518)
User : 
CE vs. WE compliance from -10 V to 10 V
Electrode connection : standard
Ewe ctrl range : min = -2.50 V, max = 2.50 V
Safety Limits :
	Do not start on E overload
Acquisition started on : 09/21/2023 11:07:44
Technique started on : 09/21/2023 13:29:49
Saved on :
	File : 0919_01_0.5MTFSI_ZnSym_InsideGB_0hr_RT_Tranference_03_PEIS_C05.mpr
	Directory : C:\Users\CESL\Documents\EC-Lab\Data\PhD\Leifer\Results\Zn Ion GPE\2023\0919\
	Host : 10.110.196.171
Device : VSP (SN 1724172417241724)
Address : USB
EC-Lab for windows v11.16 (software)
Internet server v11.16 (firmware)
Command interpretor v11.16 (firmware)
Electrode material : Au/Pd
Initial state : 
Electrolyte : NaCl (0.2M)
Comments : Fe(CN)63-/Fe(CN)64- 5.10-3 M
Reference electrode : SCE Saturated Calomel Electrode (0.241 V)
Electrode surface area : 0.001 cm²
Characteristic mass : 0.001 g
Equivalent Weight : 0.000 g/eq.
Density : 0.000 g/cm3
Cycle Definition : Charge/Discharge alternance
Mode                Single sine         
E (V)               0.0000              
vs.                 Eoc                 
tE (h:m:s)          0:00:0.0000         
record              0                   
dI                  0.000               
unit dI             mA                  
dt (s)              0.000               
fi                  1.000               
unit fi             MHz                 
ff                  10.000              
unit ff             mHz                 
Nd                  6                   
Points              per decade          
spacing             Logarithmic         
Va (mV)             10.0                
pw                  0.10                
Na                  2                   
corr                1                   
E range min (V)     -2.500              
E range max (V)     2.500               
I Range             Auto                
Bandwidth           5                   
nc cycles           0                   
goto Ns'            0                   
nr cycles           0                   
inc. cycle          0                   

freq/Hz	Re(Z)/Ohm	-Im(Z)/Ohm	|Z|/Ohm	Phase(Z)/deg	time/s	<Ewe>/V	<I>/mA	Cs/µF	Cp/µF	cycle number	I Range	|Ewe|/V	|I|/A	Re(Y)/Ohm-1	Im(Y)/Ohm-1	|Y|/Ohm-1	Phase(Y)/deg	
1.0000193E+006	1.7915324E+000	4.4440098E+000	4.7915354E+000	-6.8043953E+001	8.525646232171392E+003	-1.6290760E-002	3.8792003E-002	3.5812676E-002	3.0806145E-002	1.000000000000000E+000	9	1.9293366E-004	4.0265521E-005	7.8032449E-002	1.9356446E-001	2.0870137E-001	6.8043953E+001
6.7575181E+005	-2.3630522E+003	3.2691550E+003	4.0337813E+003	-1.2586063E+002	8.527231219286681E+003	-1.6609302E-002	-1.1833508E-002	7.2043928E-005	4.7319889E-005	1.000000000000000E+000	13	2.3004944E-004	5.7030718E-008	-1.4522742E-004	2.0091429E-004	2.4790634E-004	1.2586063E+002
4.5664050E+005	2.9456940E+001	-5.2054086E+000	2.9913334E+001	1.0021420E+001	8.528258223228797E+003	-1.6496560E-002	-6.4060255E-003	-6.6956207E-002	-2.0275468E-003	1.000000000000000E+000	10	6.5658735E-003	2.1949655E-004	3.2919861E-002	-5.8173505E-003	3.3429909E-002	-1.0021420E+001
3.0857416E+005	2.0246878E+001	-2.2855291E+000	2.0375467E+001	6.4404588E+000	8.528667233408196E+003	-1.6635362E-002	-6.4993082E-003	-2.2566999E-001	-2.8394368E-003	1.000000000000000E+000	10	1.0625199E-002	5.2147021E-004	4.8768893E-002	-5.5051814E-003	4.9078628E-002	-6.4404588E+000
2.0852534E+005	1.7699610E+001	-1.2412441E+000	1.7743080E+001	4.0114894E+000	8.529208234447229E+003	-1.6588815E-002	-5.0851740E-003	-6.1489940E-001	-3.0092651E-003	1.000000000000000E+000	10	1.0151612E-002	5.7214481E-004	5.6221921E-002	-3.9427490E-003	5.6359999E-002	-4.0114894E+000
1.4090817E+005	1.6751003E+001	-6.7195964E-001	1.6764475E+001	2.2971652E+000	8.529749221512961E+003	-1.6552893E-002	-4.7922744E-003	-1.6808958E+000	-2.7005190E-003	1.000000000000000E+000	10	1.0142529E-002	6.0500135E-004	5.9602007E-002	-2.3909102E-003	5.9649944E-002	-2.2971652E+000
9.5214820E+004	1.6390755E+001	-3.2523078E-001	1.6393982E+001	1.1367326E+000	8.530158231105714E+003	-1.6568234E-002	-5.1784543E-003	-5.1395364E+000	-2.0227318E-003	1.000000000000000E+000	10	1.0797408E-002	6.5862027E-004	6.0985990E-002	-1.2101041E-003	6.0997993E-002	-1.1367326E+000
6.4345688E+004	1.6227037E+001	-5.4112758E-002	1.6227127E+001	1.9106515E-001	8.530567221365171E+003	-1.6543461E-002	-3.7326054E-003	-4.5708927E+001	-5.0829648E-004	1.000000000000000E+000	10	1.0566939E-002	6.5118977E-004	6.1624859E-002	-2.0550216E-004	6.1625201E-002	-1.9106515E-001
4.3476547E+004	1.6189276E+001	1.9244157E-001	1.6190420E+001	-6.8104160E-001	8.530976235624577E+003	-1.6545996E-002	-4.0777442E-003	1.9022440E+001	2.6874957E-003	1.000000000000000E+000	10	1.0386315E-002	6.4150989E-004	6.1760556E-002	7.3414634E-004	6.1764918E-002	6.8104160E-001
2.9384758E+004	1.6195553E+001	4.1605961E-001	1.6200895E+001	-1.4715903E+000	8.531385237937327E+003	-1.6542472E-002	-4.0236413E-003	1.3017945E+001	8.5856970E-003	1.000000000000000E+000	10	1.0249035E-002	6.3262158E-004	6.1704624E-002	1.5851761E-003	6.1724983E-002	1.4715903E+000
1.9853508E+004	1.6256323E+001	6.7229611E-001	1.6270218E+001	-2.3681734E+000	8.531794215556758E+003	-1.6546424E-002	-3.8165578E-003	1.1924008E+001	2.0359015E-002	1.000000000000000E+000	10	1.0154965E-002	6.2414439E-004	6.1409499E-002	2.5396498E-003	6.1461993E-002	2.3681734E+000
1.3417967E+004	1.6344774E+001	9.6043199E-001	1.6372969E+001	-3.3628786E+000	8.532071223649895E+003	-1.6540160E-002	-3.9937915E-003	1.2349996E+001	4.2495720E-002	1.000000000000000E+000	10	1.0730625E-002	6.5538666E-004	6.0971107E-002	3.5827109E-003	6.1076280E-002	3.3628786E+000
9.0820293E+003	1.6459261E+001	1.3710258E+000	1.6516264E+001	-4.7616391E+000	8.532508475937299E+003	-1.6549164E-002	-4.1840831E-003	1.2781788E+001	8.8076331E-002	1.000000000000000E+000	10	1.0058249E-002	6.0899061E-004	6.0337413E-002	5.0259940E-003	6.0546380E-002	4.7616391E+000
6.1409590E+003	1.6611765E+001	1.8794316E+000	1.6717745E+001	-6.4549150E+000	8.532911779209855E+003	-1.6539937E-002	-4.6057124E-003	1.3789783E+001	1.7428301E-001	1.000000000000000E+000	10	1.0176490E-002	6.0872384E-004	5.9437480E-002	6.7246724E-003	5.9816681E-002	6.4549150E+000
4.1413242E+003	1.6820873E+001	2.5789721E+000	1.7017429E+001	-8.7166958E+000	8.533377838085325E+003	-1.6522136E-002	-3.9117048E-003	1.4901647E+001	3.4224698E-001	1.000000000000000E+000	10	1.0234497E-002	6.0141267E-004	5.8084551E-002	8.9055076E-003	5.8763281E-002	8.7166958E+000
2.7973140E+003	1.7101477E+001	3.5694404E+000	1.7470015E+001	-1.1789584E+001	8.533844087360776E+003	-1.6522154E-002	-3.9714044E-003	1.5939650E+001	6.6541487E-001	1.000000000000000E+000	10	1.0256853E-002	5.8711186E-004	5.6033414E-002	1.1695360E-002	5.7240937E-002	1.1789584E+001
1.8906046E+003	1.7468678E+001	4.9285693E+000	1.8150633E+001	-1.5755751E+001	8.534308838209545E+003	-1.6520867E-002	-4.0422948E-003	1.7080420E+001	1.2593799E+000	1.000000000000000E+000	10	1.0246936E-002	5.6454982E-004	5.3024489E-002	1.4960198E-002	5.5094499E-002	1.5755751E+001
1.2871166E+003	1.7965897E+001	6.7932167E+000	1.9207323E+001	-2.0712473E+001	8.534775350178301E+003	-1.6525118E-002	-3.7643188E-003	1.8202322E+001	2.2769005E+000	1.000000000000000E+000	10	1.0252076E-002	5.3375872E-004	4.8698463E-002	1.8413732E-002	5.2063476E-002	2.0712473E+001
8.6306641E+002	1.8624109E+001	9.4929981E+000	2.0903934E+001	-2.7008646E+001	8.535242340627185E+003	-1.6530821E-002	-3.4695556E-003	1.9425514E+001	4.0061135E+000	1.000000000000000E+000	10	1.0232894E-002	4.8951997E-004	4.2620588E-002	2.1724377E-002	4.7837883E-002	2.7008646E+001
5.8369244E+002	1.9592478E+001	1.3165929E+001	2.3605230E+001	-3.3900665E+001	8.535709353476006E+003	-1.6530151E-002	-4.3613203E-003	2.0710213E+001	6.4427471E+000	1.000000000000000E+000	10	1.0229561E-002	4.3335991E-004	3.5161942E-002	2.3628438E-002	4.2363491E-002	3.3900665E+001
3.9411707E+002	2.0933439E+001	1.8345268E+001	2.7834471E+001	-4.1230087E+001	8.536176344191539E+003	-1.6524429E-002	-3.8762665E-003	2.2012573E+001	9.5620947E+000	1.000000000000000E+000	10	1.0220336E-002	3.6718269E-004	2.7019337E-002	2.3678716E-002	3.5926677E-002	4.1230087E+001
2.6644943E+002	2.3067526E+001	2.5647184E+001	3.4494766E+001	-4.8031231E+001	8.536891790865571E+003	-1.6549146E-002	-9.4126379E-003	2.3289793E+001	1.2874744E+001	1.000000000000000E+000	11	1.0309431E-002	2.9886942E-004	1.9386288E-002	2.1554269E-002	2.8989905E-002	4.8031231E+001
1.8005759E+002	2.6122482E+001	3.5730549E+001	4.4261227E+001	-5.3829590E+001	8.537356811367645E+003	-1.6549574E-002	-9.2940452E-003	2.4738251E+001	1.6121353E+001	1.000000000000000E+000	11	1.0263355E-002	2.3188141E-004	1.3334218E-002	1.8238654E-002	2.2593139E-002	5.3829590E+001
1.2159529E+002	3.0940035E+001	4.9693405E+001	5.8538197E+001	-5.8092842E+001	8.537817286882841E+003	-1.6539080E-002	-9.2964703E-003	2.6339325E+001	1.8981192E+001	1.000000000000000E+000	11	1.0235949E-002	1.7485932E-004	9.0290513E-003	1.4501738E-002	1.7082863E-002	5.8092842E+001
8.2236801E+001	3.8578312E+001	6.8412338E+001	7.8540016E+001	-6.0580971E+001	8.538272438797751E+003	-1.6542789E-002	-9.3535315E-003	2.8289125E+001	2.1463789E+001	1.000000000000000E+000	11	1.0219418E-002	1.3011735E-004	6.2540486E-003	1.1090534E-002	1.2732363E-002	6.0580971E+001
5.5515171E+001	5.0808197E+001	9.3357323E+001	1.0628764E+002	-6.1443481E+001	8.538734008979751E+003	-1.6545100E-002	-9.3136271E-003	3.0708605E+001	2.3691431E+001	1.000000000000000E+000	11	1.0208676E-002	9.6047625E-005	4.4974694E-003	8.2638580E-003	9.4084311E-003	6.1443481E+001
3.7560089E+001	6.9745186E+001	1.2476855E+002	1.4293909E+002	-6.0794960E+001	8.539225886923086E+003	-1.6541559E-002	-9.5852185E-003	3.3961620E+001	2.5875971E+001	1.000000000000000E+000	11	1.0211135E-002	7.1436967E-005	3.4135971E-003	6.1066514E-003	6.9959871E-003	6.0794960E+001
2.5365252E+001	9.8370110E+001	1.6344598E+002	1.9076495E+002	-5.8958328E+001	8.539934988236753E+003	-1.6535761E-002	-9.5502269E-003	3.8388992E+001	2.8181107E+001	1.000000000000000E+000	12	1.0221255E-002	5.3580359E-005	2.7031242E-003	4.4913515E-003	5.2420530E-003	5.8958328E+001
1.7132671E+001	1.4074236E+002	2.0732539E+002	2.5058377E+002	-5.5829472E+001	8.540347968949733E+003	-1.6551420E-002	-9.8285098E-003	4.4806660E+001	3.0671968E+001	1.000000000000000E+000	12	1.0210823E-002	4.0748142E-005	2.2413975E-003	3.3017683E-003	3.9906814E-003	5.5829472E+001
1.1591243E+001	1.9835361E+002	2.5400150E+002	3.2227460E+002	-5.2013184E+001	8.540757403475815E+003	-1.6553247E-002	-9.7268904E-003	5.4057236E+001	3.3579502E+001	1.000000000000000E+000	12	1.0207063E-002	3.1671942E-005	1.9098005E-003	2.4455928E-003	3.1029440E-003	5.2013184E+001
7.8281527E+000	2.7154977E+002	2.9728653E+002	4.0263950E+002	-4.7590557E+001	8.541339435476752E+003	-1.6547291E-002	-9.7217998E-003	6.8388901E+001	3.7282352E+001	1.000000000000000E+000	12	1.0201334E-002	2.5336149E-005	1.6750073E-003	1.8337599E-003	2.4836112E-003	4.7590557E+001
5.2930207E+000	3.6311176E+002	3.3612585E+002	4.9480374E+002	-4.2789860E+001	8.542175866103207E+003	-1.6541012E-002	-9.7204447E-003	8.9457062E+001	4.1281219E+001	1.000000000000000E+000	12	1.0204262E-002	2.0622847E-005	1.4831135E-003	1.3728907E-003	2.0210033E-003	4.2789860E+001
3.5755143E+000	4.6387054E+002	3.6177716E+002	5.8826746E+002	-3.7951015E+001	8.543390417494171E+003	-1.6538512E-002	-9.6382368E-003	1.2303834E+002	4.6534294E+001	1.000000000000000E+000	12	1.0204200E-002	1.7346190E-005	1.3404393E-003	1.0454217E-003	1.6999070E-003	3.7951015E+001
2.4172332E+000	5.7004279E+002	3.7134286E+002	6.8032660E+002	-3.3081421E+001	8.546043598980177E+003	-1.6536467E-002	-9.5855370E-003	1.7730725E+002	5.2825275E+001	1.000000000000000E+000	13	1.0206786E-002	1.5002774E-005	1.2316081E-003	8.0230623E-004	1.4698822E-003	3.3081421E+001
1.6327059E+000	6.7701483E+002	3.7231650E+002	7.7263745E+002	-2.8808088E+001	8.548654494890885E+003	-1.6538074E-002	-9.5272446E-003	2.6181824E+002	6.0795712E+001	1.000000000000000E+000	13	1.0206565E-002	1.3210031E-005	1.1340877E-003	6.2367850E-004	1.2942681E-003	2.8808088E+001
1.1020596E+000	7.7801672E+002	3.6151160E+002	8.5790479E+002	-2.4922308E+001	8.552503516407043E+003	-1.6535293E-002	-9.4358101E-003	3.9947797E+002	7.0934761E+001	1.000000000000000E+000	13	1.0206755E-002	1.1897306E-005	1.0570870E-003	4.9118383E-004	1.1656305E-003	2.4922308E+001
7.4560940E-001	8.7468213E+002	3.4242163E+002	9.3931964E+002	-2.1379412E+001	8.558175277609786E+003	-1.6535843E-002	-9.3000606E-003	6.2337238E+002	8.2840584E+001	1.000000000000000E+000	13	1.0205185E-002	1.0864444E-005	9.9134177E-004	3.8809175E-004	1.0646003E-003	2.1379412E+001
5.0390220E-001	9.6440881E+002	3.1918680E+002	1.0158566E+003	-1.8312803E+001	8.566551049314294E+003	-1.6540527E-002	-9.1260718E-003	9.8952997E+002	9.7690872E+001	1.000000000000000E+000	13	1.0204087E-002	1.0044811E-005	9.3453674E-004	3.0930017E-004	9.8439096E-004	1.8312803E+001
3.4010270E-001	1.0504309E+003	2.9485297E+002	1.0910286E+003	-1.5679280E+001	8.578944529956265E+003	-1.6538749E-002	-8.9084972E-003	1.5871010E+003	1.1591598E+002	1.000000000000000E+000	13	1.0203967E-002	9.3526123E-006	8.8246044E-004	2.4770416E-004	9.1656629E-004	1.5679280E+001
2.3021273E-001	1.1257129E+003	2.7003683E+002	1.1576482E+003	-1.3489273E+001	8.597237858451845E+003	-1.6538445E-002	-8.6511411E-003	2.5601638E+003	1.3930304E+002	1.000000000000000E+000	13	1.0203806E-002	8.8142542E-006	8.3999062E-004	2.0149759E-004	8.6382031E-004	1.3489273E+001
1.5547264E-001	1.1945952E+003	2.3908873E+002	1.2182861E+003	-1.1317759E+001	8.624309211550979E+003	-1.6537415E-002	-8.3535751E-003	4.2816094E+003	1.6490228E+002	1.000000000000000E+000	13	1.0204093E-002	8.3757768E-006	8.0486335E-004	1.6108701E-004	8.2082523E-004	1.1317759E+001
1.0504906E-001	1.2652891E+003	2.0746375E+002	1.2821847E+003	-9.3116741E+000	8.664358769959916E+003	-1.6536174E-002	-8.0100494E-003	7.3027383E+003	1.9119168E+002	1.000000000000000E+000	13	1.0204384E-002	7.9585916E-006	7.6964172E-004	1.2619469E-004	7.7991886E-004	9.3116741E+000
7.1022727E-002	1.3441112E+003	1.8176619E+002	1.3563458E+003	-7.7014747E+000	8.723579776106111E+003	-1.6534127E-002	-7.6089296E-003	1.2328484E+004	2.2140887E+002	1.000000000000000E+000	13	1.0204073E-002	7.5232088E-006	7.3062471E-004	9.8803488E-005	7.3727511E-004	7.7014747E+000
4.7988325E-002	1.4269255E+003	1.6830771E+002	1.4368173E+003	-6.7270293E+000	8.811210866028348E+003	-1.6542394E-002	-7.1643787E-003	1.9705186E+004	2.7038678E+002	1.000000000000000E+000	13	1.0203153E-002	7.1012182E-006	6.9119124E-004	8.1526894E-005	6.9598272E-004	6.7270293E+000
3.2443926E-002	1.5092356E+003	1.5573039E+002	1.5172488E+003	-5.8912129E+000	8.940811426770699E+003	-1.6549915E-002	-6.7011840E-003	3.1500205E+004	3.3185361E+002	1.000000000000000E+000	13	1.0204523E-002	6.7256756E-006	6.5560674E-004	6.7648747E-005	6.5908767E-004	5.8912129E+000
2.1920588E-002	1.6014421E+003	1.3799623E+002	1.6073767E+003	-4.9250102E+000	9.132612914734113E+003	-1.6553577E-002	-6.2412675E-003	5.2613926E+004	3.8779285E+002	1.000000000000000E+000	13	1.0203402E-002	6.3478597E-006	6.1983470E-004	5.3411142E-005	6.2213169E-004	4.9250102E+000
1.4807615E-002	1.7180140E+003	1.1550800E+002	1.7218927E+003	-3.8464038E+000	9.416532047872868E+003	-1.6550664E-002	-5.7544783E-003	9.3051406E+004	4.1873080E+002	1.000000000000000E+000	13	1.0202619E-002	5.9252352E-006	5.7944813E-004	3.8958293E-005	5.8075628E-004	3.8464038E+000
1.0000636E-002	1.8707709E+003	1.0453003E+002	1.8736890E+003	-3.1980977E+000	9.836904821572884E+003	-1.6550332E-002	-5.2684150E-003	1.5224794E+005	4.7384747E+002	1.000000000000000E+000	13	1.0204411E-002	5.4461607E-006	5.3287530E-004	2.9774608E-005	5.3370651E-004	3.1980977E+000