EC-Lab ASCII FILE
Nb header lines : 62                          

Potentio Electrochemical Impedance Spectroscopy

Run on channel : 3 (SN 35515)
User : 
CE vs. WE compliance from -10 V to 10 V
Electrode connection : standard
Ewe ctrl range : min = -5.00 V, max = 5.00 V
Safety Limits :
	Do not start on E overload
Acquisition started on : 07/20/2023 19:23:36
Technique started on : 07/20/2023 19:23:38
Saved on :
	File : 0720_06_EIS_0.5MTFSI_SymCell_OutsideGB_unsanded_60C_ThinCell_C03.mpr
	Directory : C:\Users\CESL\Documents\EC-Lab\Data\PhD\Leifer\Results\Zn Ion GPE\2023\0720\
	Host : 10.110.196.171
Device : VSP (SN 17241724)
Address : USB
EC-Lab for windows v11.16 (software)
Internet server v11.16 (firmware)
Command interpretor v11.16 (firmware)
Electrode material : Au/Pd
Initial state : 
Electrolyte : NaCl (0.2M)
Comments : Fe(CN)63-/Fe(CN)64- 5.10-3 M
Reference electrode : SCE Saturated Calomel Electrode (0.241 V)
Electrode surface area : 0.001 cm²
Characteristic mass : 0.001 g
Equivalent Weight : 0.000 g/eq.
Density : 0.000 g/cm3
Cycle Definition : Charge/Discharge alternance
Mode                Single sine         
E (V)               0.0000              
vs.                 Eoc                 
tE (h:m:s)          0:00:0.0000         
record              0                   
dI                  0.000               
unit dI             mA                  
dt (s)              0.000               
fi                  1.000               
unit fi             MHz                 
ff                  10.000              
unit ff             mHz                 
Nd                  6                   
Points              per decade          
spacing             Logarithmic         
Va (mV)             10.0                
pw                  0.10                
Na                  2                   
corr                1                   
E range min (V)     -5.000              
E range max (V)     5.000               
I Range             Auto                
Bandwidth           5                   
nc cycles           0                   
goto Ns'            0                   
nr cycles           0                   
inc. cycle          0                   

freq/Hz	Re(Z)/Ohm	-Im(Z)/Ohm	|Z|/Ohm	Phase(Z)/deg	time/s	<Ewe>/V	<I>/mA	Cs/µF	Cp/µF	cycle number	I Range	|Ewe|/V	|I|/A	Re(Y)/Ohm-1	Im(Y)/Ohm-1	|Y|/Ohm-1	Phase(Y)/deg	
1.0000193E+006	-8.1075211E+001	2.5905807E+001	8.5113457E+001	-1.6227986E+002	2.639096071972745E+000	2.3865886E-003	-9.9853543E-004	6.1434824E-003	5.6913123E-004	1.000000000000000E+000	11	3.0336314E-004	3.5642206E-006	-1.1191586E-002	3.5760256E-003	1.1749024E-002	1.6227986E+002
6.7575181E+005	4.0630325E+001	-1.0054138E+001	4.1855812E+001	1.3898870E+001	3.048090731404955E+000	1.7520254E-003	-1.1262649E-003	-2.3425456E-002	-1.3516560E-003	1.000000000000000E+000	11	1.4646359E-003	3.4992416E-005	2.3192029E-002	-5.7389610E-003	2.3891544E-002	-1.3898870E+001
4.5664050E+005	2.3852015E+001	-3.1879659E+000	2.4064117E+001	7.6128092E+000	3.751076818152796E+000	1.7654640E-003	5.0314511E-003	-1.0932816E-001	-1.9187548E-003	1.000000000000000E+000	10	8.0705322E-003	3.3537619E-004	4.1189373E-002	-5.5052084E-003	4.1555647E-002	-7.6128092E+000
3.0857416E+005	1.9940413E+001	-1.1487588E+000	1.9973475E+001	3.2971416E+000	4.160100330918795E+000	1.5117208E-003	6.2342742E-003	-4.4898492E-001	-1.4851906E-003	1.000000000000000E+000	10	1.0985335E-002	5.4999621E-004	4.9983524E-002	-2.8795300E-003	5.0066400E-002	-3.2971416E+000
2.0852534E+005	1.8595272E+001	3.5885010E-002	1.8595306E+001	-1.1056881E-001	4.701093316631159E+000	1.4903612E-003	5.1526679E-003	2.1269056E+001	7.9207748E-005	1.000000000000000E+000	10	1.0161952E-002	5.4647942E-004	5.3776912E-002	1.0377826E-004	5.3777013E-002	1.1056881E-001
1.4090817E+005	1.8150656E+001	1.0561727E+000	1.8181358E+001	-3.3302424E+000	5.242098302318482E+000	1.5108261E-003	5.8818189E-003	1.0694218E+000	3.6088286E-003	1.000000000000000E+000	10	1.0108048E-002	5.5595668E-004	5.4908507E-002	3.1950842E-003	5.5001389E-002	3.3302424E+000
9.5214820E+004	1.8103306E+001	2.0196407E+000	1.8215614E+001	-6.3657088E+000	5.651100028393557E+000	1.5039486E-003	4.3862192E-003	8.2764000E-001	1.0174241E-002	1.000000000000000E+000	10	1.0796233E-002	5.9269113E-004	5.4559480E-002	6.0867644E-003	5.4897957E-002	6.3657088E+000
6.4345688E+004	1.8338938E+001	3.1362123E+000	1.8605173E+001	-9.7044935E+000	6.060097141162260E+000	1.5096891E-003	5.8967383E-003	7.8866982E-001	2.2409838E-002	1.000000000000000E+000	10	1.0498730E-002	5.6429091E-004	5.2979365E-002	9.0602050E-003	5.3748492E-002	9.7044935E+000
4.3476547E+004	1.8698236E+001	4.5099778E+000	1.9234447E+001	-1.3560618E+001	6.469083507254254E+000	1.5146470E-003	5.1004509E-003	8.1169099E-001	4.4625189E-002	1.000000000000000E+000	10	1.0417284E-002	5.4159522E-004	5.0540697E-002	1.2190316E-002	5.1990055E-002	1.3560618E+001
2.9384758E+004	1.9209106E+001	6.2749219E+000	2.0208029E+001	-1.8090347E+001	6.878084566676989E+000	1.5107888E-003	4.8710755E-003	8.6315674E-001	8.3225891E-002	1.000000000000000E+000	10	1.0177478E-002	5.0363538E-004	4.7039129E-002	1.5365986E-002	4.9485281E-002	1.8090347E+001
1.9853508E+004	1.9987577E+001	8.6450930E+000	2.1777073E+001	-2.3389605E+001	7.287086639436893E+000	1.4985062E-003	5.6114146E-003	9.2728496E-001	1.4613476E-001	1.000000000000000E+000	10	1.0181298E-002	4.6752370E-004	4.2146467E-002	1.8229326E-002	4.5919854E-002	2.3389605E+001
1.3417967E+004	2.1017868E+001	1.1836447E+001	2.4121614E+001	-2.9386520E+001	7.564080225944053E+000	1.5230343E-003	5.3279586E-003	1.0021023E+000	2.4129151E-001	1.000000000000000E+000	10	1.0485010E-002	4.3467284E-004	3.6122344E-002	2.0342700E-002	4.1456595E-002	2.9386520E+001
9.0820293E+003	2.2434225E+001	1.6179770E+001	2.7660069E+001	-3.5799492E+001	7.860343013337115E+000	1.5124476E-003	5.2999835E-003	1.0830909E+000	3.7059799E-001	1.000000000000000E+000	10	1.0536829E-002	3.8094010E-004	2.9322742E-002	2.1147832E-002	3.6153201E-002	3.5799492E+001
6.1409590E+003	2.4240393E+001	2.2134212E+001	3.2825600E+001	-4.2399605E+001	8.263647325860802E+000	1.5055701E-003	2.8943410E-003	1.1709001E+000	5.3238112E-001	1.000000000000000E+000	10	1.0481616E-002	3.1931224E-004	2.2496467E-002	2.0541811E-002	3.0464029E-002	4.2399605E+001
4.1413242E+003	2.6911366E+001	3.0453331E+001	4.0640213E+001	-4.8533222E+001	9.204698943889525E+000	1.5134914E-003	4.8502488E-004	1.2619615E+000	7.0860428E-001	1.000000000000000E+000	11	1.0047546E-002	2.4723163E-004	1.6293854E-002	1.8438382E-002	2.4606170E-002	4.8533222E+001
2.7973140E+003	3.0525869E+001	4.1742680E+001	5.1713440E+001	-5.3822487E+001	9.670924699341413E+000	1.5083659E-003	4.4791639E-004	1.3630085E+000	8.8808054E-001	1.000000000000000E+000	11	9.5789554E-003	1.8523145E-004	1.1414614E-002	1.5608942E-002	1.9337334E-002	5.3822487E+001
1.8906046E+003	3.5383373E+001	5.7149986E+001	6.7216843E+001	-5.8237034E+001	1.013567442810745E+001	1.5110311E-003	4.8800517E-004	1.4730017E+000	1.0648277E+000	1.000000000000000E+000	11	9.2707174E-003	1.3792253E-004	7.8314645E-003	1.2649108E-002	1.4877223E-002	5.8237034E+001
1.2871166E+003	4.1840221E+001	7.7828194E+001	8.8361938E+001	-6.1737648E+001	1.060218850357342E+001	1.5096333E-003	5.1802688E-004	1.5887856E+000	1.2325618E+000	1.000000000000000E+000	11	9.0983221E-003	1.0296653E-004	5.3587505E-003	9.9679651E-003	1.1317090E-002	6.1737648E+001
8.6306641E+002	5.0741646E+001	1.0739050E+002	1.1877472E+002	-6.4709427E+001	1.129121714961366E+001	1.5148520E-003	4.9863325E-004	1.7171574E+000	1.4037628E+000	1.000000000000000E+000	11	1.0013315E-002	8.4305102E-005	3.5968018E-003	7.6123346E-003	8.4193004E-003	6.4709427E+001
5.8369244E+002	6.2629723E+001	1.4713776E+002	1.5991248E+002	-6.6942795E+001	1.175820543846930E+001	1.5054955E-003	4.3001180E-004	1.8531557E+000	1.5689008E+000	1.000000000000000E+000	11	9.9529736E-003	6.2240135E-005	2.4491521E-003	5.7538617E-003	6.2534208E-003	6.6942795E+001
3.9411707E+002	7.8701126E+001	2.0191444E+002	2.1671021E+002	-6.8705429E+001	1.222521135400166E+001	1.5103415E-003	4.2534951E-004	1.9999886E+000	1.7362152E+000	1.000000000000000E+000	11	9.9236332E-003	4.5792181E-005	1.6758000E-003	4.2994083E-003	4.6144575E-003	6.8705429E+001
2.6644943E+002	9.9316719E+001	2.7933057E+002	2.9646143E+002	-7.0427025E+001	1.294065805467471E+001	1.5119445E-003	-7.7899807E-005	2.1383898E+000	1.8983986E+000	1.000000000000000E+000	12	1.0040434E-002	3.3867589E-005	1.1300195E-003	3.1782063E-003	3.3731202E-003	7.0427025E+001
1.8005759E+002	1.2798717E+002	3.8551956E+002	4.0620938E+002	-7.1634544E+001	1.340567679675587E+001	1.5190270E-003	9.3250992E-006	2.2927794E+000	2.0651672E+000	1.000000000000000E+000	12	9.9625243E-003	2.4525589E-005	7.7565142E-004	2.3363964E-003	2.4617845E-003	7.1634544E+001
1.2159529E+002	1.7092195E+002	5.3352765E+002	5.6023749E+002	-7.2236519E+001	1.386610063191620E+001	1.5128764E-003	-6.1697036E-005	2.4532762E+000	2.2249281E+000	1.000000000000000E+000	12	9.9297529E-003	1.7724185E-005	5.4456975E-004	1.6998578E-003	1.7849574E-003	7.2236519E+001
8.2236801E+001	2.3036809E+002	7.3635480E+002	7.7154901E+002	-7.2627747E+001	1.432128329350962E+001	1.5112176E-003	-7.5905285E-005	2.6282508E+000	2.3939443E+000	1.000000000000000E+000	12	9.9077737E-003	1.2841406E-005	3.8698598E-004	1.2369726E-003	1.2960939E-003	7.2627747E+001
5.5515171E+001	3.1424258E+002	1.0232266E+003	1.0703929E+003	-7.2927780E+001	1.478290224881493E+001	1.5110871E-003	-5.7110381E-005	2.8017969E+000	2.5603173E+000	1.000000000000000E+000	12	9.8977033E-003	9.2467944E-006	2.7427019E-004	8.9306966E-004	9.3423633E-004	7.2927780E+001
3.7560089E+001	4.3187424E+002	1.4289974E+003	1.4928325E+003	-7.3184036E+001	1.527474747219821E+001	1.5191388E-003	-3.7951868E-005	2.9652553E+000	2.7170823E+000	1.000000000000000E+000	12	9.8953880E-003	6.6285988E-006	1.9379167E-004	6.4122328E-004	6.6986750E-004	7.3184036E+001
2.5365252E+001	6.1598322E+002	1.9844197E+003	2.0778250E+003	-7.2755150E+001	1.598386587918503E+001	1.5154857E-003	-2.2610569E-005	3.1618950E+000	2.8840089E+000	1.000000000000000E+000	13	9.9160727E-003	4.7723333E-006	1.4267598E-004	4.5963767E-004	4.8127249E-004	7.2755150E+001
1.7132671E+001	9.1127686E+002	2.7460273E+003	2.8932839E+003	-7.1641434E+001	1.639781755220611E+001	1.5091300E-003	-2.3158764E-005	3.3829081E+000	3.0473180E+000	1.000000000000000E+000	13	9.9069504E-003	3.4241198E-006	1.0885995E-004	3.2803693E-004	3.4562801E-004	7.1641434E+001
1.1591243E+001	1.3762546E+003	3.7407896E+003	3.9859231E+003	-6.9801186E+001	1.680725623827311E+001	1.4992330E-003	-2.8110897E-005	3.6705139E+000	3.2329247E+000	1.000000000000000E+000	13	9.8969508E-003	2.4829758E-006	8.6624546E-005	2.3545366E-004	2.5088291E-004	6.9801186E+001
7.8281527E+000	2.1127356E+003	5.0878271E+003	5.5090503E+003	-6.7449181E+001	1.738825917252689E+001	1.5070705E-003	-2.9112147E-005	3.9960277E+000	3.4083149E+000	1.000000000000000E+000	13	9.8961778E-003	1.7963491E-006	6.9613219E-005	1.6764046E-004	1.8151948E-004	6.7449181E+001
5.2930207E+000	3.2624143E+003	6.7072739E+003	7.4586104E+003	-6.4061737E+001	1.822467774564575E+001	1.5094845E-003	-6.0957063E-007	4.4830179E+000	3.6253233E+000	1.000000000000000E+000	13	9.8958947E-003	1.3267746E-006	5.8643956E-005	1.2056748E-004	1.3407323E-004	6.4061737E+001
3.5755143E+000	5.0856548E+003	8.6409199E+003	1.0026435E+004	-5.9520859E+001	2.004737351214862E+001	1.5124591E-003	-6.1736050E-006	5.1513567E+000	3.8260317E+000	1.000000000000000E+000	14	9.8989625E-003	9.8728640E-007	5.0588736E-005	8.5954176E-005	9.9736353E-005	5.9520859E+001
2.4172332E+000	7.7275806E+003	1.0658980E+004	1.3165461E+004	-5.4058521E+001	2.182458770324592E+001	1.5114365E-003	-6.9173279E-006	6.1771178E+000	4.0489750E+000	1.000000000000000E+000	14	9.8985946E-003	7.5186085E-007	4.4583219E-005	6.1495528E-005	7.5956326E-005	5.4058521E+001
1.6327059E+000	1.1308776E+004	1.2230047E+004	1.6657205E+004	-4.7241318E+001	2.443545844059554E+001	1.5125666E-003	2.3488672E-006	7.9704719E+000	4.2967100E+000	1.000000000000000E+000	14	9.8966556E-003	5.9413662E-007	4.0757859E-005	4.4078202E-005	6.0034083E-005	4.7241318E+001
1.1020596E+000	1.5626695E+004	1.3000024E+004	2.0327180E+004	-3.9757450E+001	2.828446449010517E+001	1.5202980E-003	2.0216557E-006	1.1108895E+001	4.5436511E+000	1.000000000000000E+000	14	9.8963212E-003	4.8685166E-007	3.7819249E-005	3.1462259E-005	4.9195216E-005	3.9757450E+001
7.4560940E-001	1.9618098E+004	1.2660406E+004	2.3348568E+004	-3.2835903E+001	3.395519771942054E+001	1.5167843E-003	1.3647898E-006	1.6860138E+001	4.9571939E+000	1.000000000000000E+000	14	9.8972749E-003	4.2389215E-007	3.5986232E-005	2.3223472E-005	4.2829179E-005	3.2835903E+001
5.0390220E-001	2.3707018E+004	1.1683041E+004	2.6429455E+004	-2.6234510E+001	4.233102574394434E+001	1.5153850E-003	2.2485474E-006	2.7034477E+001	5.2826686E+000	1.000000000000000E+000	14	9.8976120E-003	3.7449172E-007	3.3939115E-005	1.6725513E-005	3.7836573E-005	2.6234510E+001
3.4010270E-001	2.6772432E+004	9.8891816E+003	2.8540480E+004	-2.0273186E+001	5.472448185257963E+001	1.5193945E-003	-1.1219381E-006	4.7320538E+001	5.6813016E+000	1.000000000000000E+000	14	9.8981783E-003	3.4681190E-007	3.2867392E-005	1.2140535E-005	3.5037952E-005	2.0273186E+001
2.3021273E-001	2.8423883E+004	8.1376963E+003	2.9565846E+004	-1.5976302E+001	7.301776773484016E+001	1.5215930E-003	9.2708351E-006	8.4955070E+001	6.4359350E+000	1.000000000000000E+000	14	9.8966379E-003	3.3473211E-007	3.2516426E-005	9.3093813E-006	3.3822809E-005	1.5976302E+001
1.5547264E-001	3.0705221E+004	6.3230801E+003	3.1349512E+004	-1.1636170E+001	1.000890304873174E+002	1.5241192E-003	2.3809075E-006	1.6189650E+002	6.5861754E+000	1.000000000000000E+000	14	9.9022631E-003	3.1586657E-007	3.1242853E-005	6.4337933E-006	3.1898424E-005	1.1636170E+001
1.0504906E-001	3.4180660E+004	1.1393440E+003	3.4199645E+004	-1.9091336E+000	1.401384470295452E+002	1.5249253E-003	1.3635853E-004	1.3297595E+003	1.4758413E+000	1.000000000000000E+000	14	9.8990127E-003	2.8944783E-007	2.9223838E-005	9.7411828E-007	2.9240069E-005	1.9091336E+000
7.1022727E-002	3.2955750E+004	3.7131416E+003	3.3164270E+004	-6.4284348E+000	1.993592252290400E+002	1.5150424E-003	6.8389192E-005	6.0350562E+002	7.5652528E+000	1.000000000000000E+000	14	9.8983208E-003	2.9846339E-007	2.9963345E-005	3.3759859E-006	3.0152933E-005	6.4284348E+000
4.7988325E-002	3.5061695E+004	3.2938958E+003	3.5216078E+004	-5.3669405E+000	2.869900202713034E+002	1.5192910E-003	6.8191417E-005	1.0068730E+003	8.8087120E+000	1.000000000000000E+000	14	9.8987278E-003	2.8108548E-007	2.8271634E-005	2.6559987E-006	2.8396120E-005	5.3669405E+000
3.2443926E-002	3.6388980E+004	2.2886416E+003	3.6460879E+004	-3.5988095E+000	4.165901364269375E+002	1.5284636E-003	8.5461827E-005	2.1434282E+003	8.4452066E+000	1.000000000000000E+000	14	9.8985806E-003	2.7148496E-007	2.7372573E-005	1.7215652E-006	2.7426657E-005	3.5988095E+000
2.1920588E-002	3.9838574E+004	2.2546838E+003	3.9902324E+004	-3.2392275E+000	6.083909712970199E+002	1.5132036E-003	1.2329688E-004	3.2201956E+003	1.0281517E+001	1.000000000000000E+000	14	9.8978076E-003	2.4805090E-007	2.5021158E-005	1.4160848E-006	2.5061197E-005	3.2392275E+000
1.4807615E-002	4.2369859E+004	1.8133619E+003	4.2408645E+004	-2.4506719E+000	8.923090613157256E+002	1.5211115E-003	1.9317321E-004	5.9272129E+003	1.0837041E+001	1.000000000000000E+000	14	9.9004181E-003	2.3345282E-007	2.3558532E-005	1.0082674E-006	2.3580098E-005	2.4506719E+000
1.0000636E-002	4.5780426E+004	2.6281599E+003	4.5855801E+004	-3.2856264E+000	1.312681440562330E+003	1.5220098E-003	2.5875182E-004	6.0553706E+003	1.9890959E+001	1.000000000000000E+000	14	9.9006901E-003	2.1590922E-007	2.1771644E-005	1.2498652E-006	2.1807491E-005	3.2856264E+000