EC-Lab ASCII FILE
Nb header lines : 62                          

Potentio Electrochemical Impedance Spectroscopy

Run on channel : 3 (SN 35515)
User : 
CE vs. WE compliance from -10 V to 10 V
Electrode connection : standard
Ewe ctrl range : min = -5.00 V, max = 5.00 V
Safety Limits :
	Do not start on E overload
Acquisition started on : 07/20/2023 18:07:13
Technique started on : 07/20/2023 18:07:15
Saved on :
	File : 0720_06_EIS_0.5MTFSI_SymCell_OutsideGB_unsanded_RT_ThinCell_C03.mpr
	Directory : C:\Users\CESL\Documents\EC-Lab\Data\PhD\Leifer\Results\Zn Ion GPE\2023\0720\
	Host : 10.110.196.171
Device : VSP (SN 17241724)
Address : USB
EC-Lab for windows v11.16 (software)
Internet server v11.16 (firmware)
Command interpretor v11.16 (firmware)
Electrode material : Au/Pd
Initial state : 
Electrolyte : NaCl (0.2M)
Comments : Fe(CN)63-/Fe(CN)64- 5.10-3 M
Reference electrode : SCE Saturated Calomel Electrode (0.241 V)
Electrode surface area : 0.001 cm²
Characteristic mass : 0.001 g
Equivalent Weight : 0.000 g/eq.
Density : 0.000 g/cm3
Cycle Definition : Charge/Discharge alternance
Mode                Single sine         
E (V)               0.0000              
vs.                 Eoc                 
tE (h:m:s)          0:00:0.0000         
record              0                   
dI                  0.000               
unit dI             mA                  
dt (s)              0.000               
fi                  1.000               
unit fi             MHz                 
ff                  10.000              
unit ff             mHz                 
Nd                  6                   
Points              per decade          
spacing             Logarithmic         
Va (mV)             10.0                
pw                  0.10                
Na                  2                   
corr                1                   
E range min (V)     -5.000              
E range max (V)     5.000               
I Range             Auto                
Bandwidth           5                   
nc cycles           0                   
goto Ns'            0                   
nr cycles           0                   
inc. cycle          0                   

freq/Hz	Re(Z)/Ohm	-Im(Z)/Ohm	|Z|/Ohm	Phase(Z)/deg	time/s	<Ewe>/V	<I>/mA	Cs/µF	Cp/µF	cycle number	I Range	|Ewe|/V	|I|/A	Re(Y)/Ohm-1	Im(Y)/Ohm-1	|Y|/Ohm-1	Phase(Y)/deg	
1.0000193E+006	4.4891830E+002	4.2784061E+001	4.5095245E+002	-5.4441185E+000	2.820078693941468E+000	-6.0296439E-002	-5.7766418E-004	3.7198870E-003	3.3483608E-005	1.000000000000000E+000	12	8.5534953E-004	1.8967621E-006	2.2075258E-003	2.1038776E-004	2.2175286E-003	5.4441185E+000
6.7575181E+005	2.4804214E+002	-1.3825901E+001	2.4842717E+002	3.1903727E+000	3.979076322342735E+000	-6.0954057E-002	3.4516864E-004	-1.7034896E-002	-5.2762840E-005	1.000000000000000E+000	11	6.4225853E-003	2.5852991E-005	4.0190858E-003	-2.2402436E-004	4.0253247E-003	-3.1903727E+000
4.5664050E+005	1.4043993E+002	-4.8562698E+000	1.4052386E+002	1.9804406E+000	4.388094261725200E+000	-6.1110303E-002	2.5827449E-004	-7.1769990E-002	-8.5713320E-005	1.000000000000000E+000	11	1.0535337E-002	7.4971875E-005	7.1119783E-003	-2.4592495E-004	7.1162288E-003	-1.9804406E+000
3.0857416E+005	1.1644997E+002	-2.0873787E+000	1.1646868E+002	1.0269232E+000	4.929098340769997E+000	-6.1201386E-002	4.5033835E-004	-2.4709237E-001	-7.9367652E-005	1.000000000000000E+000	11	1.0130637E-002	8.6981643E-005	8.5846195E-003	-1.5388026E-004	8.5859988E-003	-1.0269232E+000
2.0852534E+005	1.0783198E+002	2.7680939E-001	1.0783234E+002	-1.4708044E-001	5.338096866878914E+000	-6.1209999E-002	4.7159591E-004	2.7572775E+000	1.8169547E-005	1.000000000000000E+000	11	1.0799446E-002	1.0015035E-004	9.2736250E-003	2.3805800E-005	9.2736557E-003	1.4708044E-001
1.4090817E+005	1.0400351E+002	2.6427374E+000	1.0403708E+002	-1.4555770E+000	5.747079792985460E+000	-6.1200362E-002	3.9551611E-004	4.2739552E-001	2.7577931E-004	1.000000000000000E+000	11	1.0734670E-002	1.0318119E-004	9.6088564E-003	2.4416178E-004	9.6119577E-003	1.4555770E+000
9.5214820E+004	1.0279053E+002	5.0903616E+000	1.0291650E+002	-2.8350680E+000	6.156091599055799E+000	-6.1220083E-002	3.2969227E-004	3.2837260E-001	8.0333045E-004	1.000000000000000E+000	11	1.0626047E-002	1.0324921E-004	9.7047221E-003	4.8059429E-004	9.7166151E-003	2.8350680E+000
6.4345688E+004	1.0258794E+002	8.0435915E+000	1.0290279E+002	-4.4832063E+000	6.565079431835329E+000	-6.1194193E-002	4.5350837E-004	3.0750394E-001	1.8788684E-003	1.000000000000000E+000	11	1.0519109E-002	1.0222374E-004	9.6881744E-003	7.5961871E-004	9.7179087E-003	4.4832063E+000
4.3476547E+004	1.0321272E+002	1.1589004E+001	1.0386131E+002	-6.4064922E+000	6.974082411237760E+000	-6.1201237E-002	6.0715945E-004	3.1587774E-001	3.9328164E-003	1.000000000000000E+000	11	1.0404414E-002	1.0017603E-004	9.5680999E-003	1.0743322E-003	9.6282251E-003	6.4064922E+000
2.9384758E+004	1.0447399E+002	1.6455486E+001	1.0576199E+002	-8.9510040E+000	7.383095257304376E+000	-6.1208695E-002	3.3416739E-004	3.2914504E-001	7.9680039E-003	1.000000000000000E+000	11	1.0379105E-002	9.8136443E-005	9.3400450E-003	1.4711315E-003	9.4551928E-003	8.9510040E+000
1.9853508E+004	1.0607703E+002	2.2946115E+001	1.0853046E+002	-1.2205908E+001	7.792082690109964E+000	-6.1195385E-002	4.2124855E-004	3.4936044E-001	1.5616681E-002	1.000000000000000E+000	11	1.0176620E-002	9.3767398E-005	9.0057114E-003	1.9480758E-003	9.2140026E-003	1.2205908E+001
1.3417967E+004	1.0871102E+002	3.1652630E+001	1.1322533E+002	-1.6233608E+001	8.201098469522549E+000	-6.1184499E-002	5.0404103E-004	3.7473446E-001	2.9285731E-002	1.000000000000000E+000	11	1.0133239E-002	8.9496229E-005	8.4798150E-003	2.4690088E-003	8.8319462E-003	1.6233608E+001
9.0820293E+003	1.1222048E+002	4.3743969E+001	1.2044489E+002	-2.1296024E+001	8.498326696950244E+000	-6.1206214E-002	2.9165178E-004	4.0060747E-001	5.2841924E-002	1.000000000000000E+000	11	1.0519887E-002	8.7341912E-005	7.7356240E-003	3.0153755E-003	8.3025517E-003	2.1296024E+001
6.1409590E+003	1.1736298E+002	6.0370644E+001	1.3197986E+002	-2.7220955E+001	8.901659196166293E+000	-6.1207183E-002	2.2060605E-004	4.2929724E-001	8.9824416E-002	1.000000000000000E+000	11	1.0641789E-002	8.0631922E-005	6.7377640E-003	3.4658560E-003	7.5769136E-003	2.7220955E+001
4.1413242E+003	1.2476472E+002	8.3165321E+001	1.4994234E+002	-3.3686520E+001	9.366669404917047E+000	-6.1178163E-002	5.0254830E-004	4.6210283E-001	1.4215909E-001	1.000000000000000E+000	11	1.0619280E-002	7.0822425E-005	5.5493643E-003	3.6990796E-003	6.6692303E-003	3.3686520E+001
2.7973140E+003	1.3563875E+002	1.1423970E+002	1.7733748E+002	-4.0105255E+001	9.832964227040065E+000	-6.1171360E-002	5.3089205E-004	4.9803728E-001	2.0667830E-001	1.000000000000000E+000	11	1.0566214E-002	5.9582522E-005	4.3130326E-003	3.6325867E-003	5.6389659E-003	4.0105255E+001
1.8906046E+003	1.5012350E+002	1.5628577E+002	2.1670789E+002	-4.6152130E+001	1.029767424913734E+001	-6.1177958E-002	6.0827669E-004	5.3864169E-001	2.8014922E-001	1.000000000000000E+000	11	1.0497759E-002	4.8441980E-005	3.1966809E-003	3.3278980E-003	4.6145068E-003	4.6152130E+001
1.2871166E+003	1.7177814E+002	2.1130663E+002	2.7232007E+002	-5.0891201E+001	1.076419299127883E+001	-6.1168548E-002	5.5792922E-004	5.8517957E-001	3.5233524E-001	1.000000000000000E+000	11	1.0455625E-002	3.8394617E-005	2.3163734E-003	2.8494028E-003	3.6721495E-003	5.0891201E+001
8.6306641E+002	2.0284195E+002	2.8853421E+002	3.5269937E+002	-5.4892460E+001	1.148321851875517E+001	-6.1198797E-002	2.8623583E-005	6.3911444E-001	4.2772424E-001	1.000000000000000E+000	12	1.0765237E-002	3.0522417E-005	1.6306038E-003	2.3194656E-003	2.8352758E-003	5.4892460E+001
5.8369244E+002	2.4363878E+002	3.8798935E+002	4.5814365E+002	-5.7873142E+001	1.195020187427872E+001	-6.1202656E-002	7.3820978E-005	7.0277488E-001	5.0402552E-001	1.000000000000000E+000	12	1.0595459E-002	2.3126937E-005	1.1607618E-003	1.8484874E-003	2.1827216E-003	5.7873142E+001
3.9411707E+002	2.9820004E+002	5.2067273E+002	6.0001947E+002	-6.0199341E+001	1.241719152309815E+001	-6.1202694E-002	8.2006343E-005	7.7558613E-001	5.8402175E-001	1.000000000000000E+000	12	1.0499494E-002	1.7498589E-005	8.2827971E-004	1.4462193E-003	1.6666126E-003	6.0199341E+001
2.6644943E+002	3.7391953E+002	6.9533112E+002	7.8949426E+002	-6.1730526E+001	1.288067170515569E+001	-6.1207969E-002	6.1421211E-005	8.5904062E-001	6.6634488E-001	1.000000000000000E+000	12	1.0445153E-002	1.3230183E-005	5.9990183E-004	1.1155620E-003	1.2666336E-003	6.1730526E+001
1.8005759E+002	4.5976852E+002	9.3179828E+002	1.0390549E+003	-6.3737316E+001	1.334569140724489E+001	-6.1215833E-002	9.8414472E-005	9.4860804E-001	7.6287538E-001	1.000000000000000E+000	12	1.0436502E-002	1.0044226E-005	4.2585548E-004	8.6306775E-004	9.6241303E-004	6.3737316E+001
1.2159529E+002	5.8329681E+002	1.2510632E+003	1.3803602E+003	-6.5003143E+001	1.380612044243026E+001	-6.1210670E-002	8.2173879E-005	1.0462227E+000	8.5940480E-001	1.000000000000000E+000	12	1.0407029E-002	7.5393573E-006	3.0612919E-004	6.5659021E-004	7.2444859E-004	6.5003143E+001
8.2236801E+001	7.0410352E+002	1.7115220E+003	1.8506942E+003	-6.7638206E+001	1.426128955735476E+001	-6.1212234E-002	5.8437705E-005	1.1307627E+000	9.6709043E-001	1.000000000000000E+000	12	1.0408495E-002	5.6241029E-006	2.0557354E-004	4.9970433E-004	5.4033776E-004	6.7638206E+001
5.5515171E+001	9.2159155E+002	2.3185366E+003	2.4949836E+003	-6.8322754E+001	1.497389988455689E+001	-6.1204873E-002	1.8833075E-006	1.2365011E+000	1.0677929E+000	1.000000000000000E+000	13	1.0431658E-002	4.1810526E-006	1.4804817E-004	3.7245909E-004	4.0080425E-004	6.8322754E+001
3.7560089E+001	1.1879281E+003	3.1734131E+003	3.3884692E+003	-6.9477234E+001	1.546573508126312E+001	-6.1206188E-002	8.9625665E-008	1.3352633E+000	1.1711514E+000	1.000000000000000E+000	13	1.0418543E-002	3.0747049E-006	1.0346251E-004	2.7638822E-004	2.9511852E-004	6.9477234E+001
2.5365252E+001	1.5494954E+003	4.3891650E+003	4.6546436E+003	-7.0555573E+001	1.592488574306481E+001	-6.1202433E-002	-5.8347490E-007	1.4295490E+000	1.2711302E+000	1.000000000000000E+000	13	1.0401376E-002	2.2346235E-006	7.1518349E-005	2.0258583E-004	2.1483922E-004	7.0555573E+001
1.7132671E+001	2.1009160E+003	6.0339678E+003	6.3892578E+003	-7.0802826E+001	1.633883509607404E+001	-6.1203271E-002	-4.4318140E-006	1.5395439E+000	1.3730843E+000	1.000000000000000E+000	13	1.0396936E-002	1.6272526E-006	5.1464518E-005	1.4780943E-004	1.5651270E-004	7.0802826E+001
1.1591243E+001	2.8707449E+003	8.2837969E+003	8.7671240E+003	-7.0886269E+001	1.674827420883230E+001	-6.1215851E-002	-1.9941938E-007	1.6575273E+000	1.4798076E+000	1.000000000000000E+000	13	1.0398250E-002	1.1860503E-006	3.7349117E-005	1.0777428E-004	1.1406249E-004	7.0886269E+001
7.8281527E+000	4.1673086E+003	1.1442052E+004	1.2177315E+004	-6.9987877E+001	1.763729630436865E+001	-6.1197631E-002	1.3819492E-006	1.7768754E+000	1.5687785E+000	1.000000000000000E+000	14	1.0408971E-002	8.5478365E-007	2.8102990E-005	7.7161523E-005	8.2119906E-005	6.9987877E+001
5.2930207E+000	6.1501943E+003	1.5598656E+004	1.6767318E+004	-6.8481812E+001	1.847372301080031E+001	-6.1201356E-002	2.6322793E-006	1.9276552E+000	1.6683090E+000	1.000000000000000E+000	14	1.0406695E-002	6.2065351E-007	2.1875685E-005	5.5483000E-005	5.9639828E-005	6.8481812E+001
3.5755143E+000	9.2171709E+003	2.1016500E+004	2.2948846E+004	-6.6319267E+001	1.968829549514339E+001	-6.1199781E-002	3.5731362E-006	2.1179769E+000	1.7763164E+000	1.000000000000000E+000	14	1.0396083E-002	4.5301115E-007	1.7501527E-005	3.9906045E-005	4.3575175E-005	6.6319267E+001
2.4172332E+000	1.3997867E+004	2.7629258E+004	3.0972830E+004	-6.3131767E+001	2.146553104618215E+001	-6.1203241E-002	2.2609643E-006	2.3830457E+000	1.8963085E+000	1.000000000000000E+000	14	1.0400068E-002	3.3578036E-007	1.4591506E-005	2.8800994E-005	3.2286363E-005	6.3131767E+001
1.6327059E+000	2.7223943E+004	3.8703391E+004	4.7319082E+004	-5.4877468E+001	2.407644069023081E+001	-6.1195638E-002	-4.4411008E-005	2.5186229E+000	1.6849560E+000	1.000000000000000E+000	14	1.0396938E-002	2.1971977E-007	1.2158455E-005	1.7285278E-005	2.1133123E-005	5.4877468E+001
1.1020596E+000	3.1356932E+004	4.1708148E+004	5.2180715E+004	-5.3063499E+001	2.792544985967106E+001	-6.1194368E-002	-9.1621841E-006	3.4625349E+000	2.2121568E+000	1.000000000000000E+000	14	1.0395969E-002	1.9923010E-007	1.1516315E-005	1.5317957E-005	1.9164168E-005	5.3063499E+001
7.4560940E-001	4.4287613E+004	5.0799965E+004	6.7394578E+004	-4.8917950E+001	3.359618116906495E+001	-6.1197303E-002	-3.1915386E-006	4.2018962E+000	2.3873839E+000	1.000000000000000E+000	14	1.0398214E-002	1.5428859E-007	9.7506227E-006	1.1184420E-005	1.4837989E-005	4.8917950E+001
5.0390220E-001	6.0094086E+004	5.7529313E+004	8.3192070E+004	-4.3750866E+001	4.197201391356066E+001	-6.1193660E-002	2.8616091E-007	5.4901557E+000	2.6254225E+000	1.000000000000000E+000	14	1.0398592E-002	1.2499498E-007	8.6829614E-006	8.3123787E-006	1.2020377E-005	4.3750866E+001
3.4010270E-001	7.7543555E+004	6.2583508E+004	9.9647875E+004	-3.8906151E+001	5.436546927553718E+001	-6.1194040E-002	4.7317453E-006	7.4773917E+000	2.9494014E+000	1.000000000000000E+000	14	1.0397451E-002	1.0434192E-007	7.8092562E-006	6.3026596E-006	1.0035337E-005	3.8906151E+001
2.3021273E-001	9.6766844E+004	6.5659391E+004	1.1694006E+005	-3.4158146E+001	7.265869945112354E+001	-6.1188053E-002	1.2086016E-005	1.0529165E+001	3.3194106E+000	1.000000000000000E+000	14	1.0398352E-002	8.8920352E-008	7.0761971E-006	4.8014258E-006	8.5513893E-006	3.4158146E+001
1.5547264E-001	1.1766755E+005	6.8015484E+004	1.3591084E+005	-3.0029242E+001	9.972996164357755E+001	-6.1188862E-002	2.8481998E-005	1.5050758E+001	3.7693439E+000	1.000000000000000E+000	14	1.0398073E-002	7.6506574E-008	6.3701327E-006	3.6821339E-006	7.3577648E-006	3.0029242E+001
1.0504906E-001	1.4909202E+005	6.8608516E+004	1.6412056E+005	-2.4710735E+001	1.397793854124902E+002	-6.1196432E-002	3.5845496E-005	2.2082586E+001	3.8590465E+000	1.000000000000000E+000	14	1.0398541E-002	6.3359160E-008	5.5351375E-006	2.5471354E-006	6.0930815E-006	2.4710735E+001
7.1022727E-002	1.7103658E+005	6.0346711E+004	1.8137044E+005	-1.9434334E+001	1.990001689186611E+002	-6.1195556E-002	4.3936579E-005	3.7133781E+001	4.1109614E+000	1.000000000000000E+000	14	1.0398327E-002	5.7331988E-008	5.1994334E-006	1.8345123E-006	5.5135779E-006	1.9434334E+001
4.7988325E-002	2.0225220E+005	6.9809781E+004	2.1396111E+005	-1.9042732E+001	2.866309589742450E+002	-6.1185714E-002	5.6544992E-005	4.7508163E+001	5.0574446E+000	1.000000000000000E+000	14	1.0398157E-002	4.8598352E-008	4.4179778E-006	1.5249184E-006	4.6737464E-006	1.9042732E+001
3.2443926E-002	2.5919691E+005	7.6710438E+004	2.7031006E+005	-1.6486345E+001	4.162310739832465E+002	-6.1206155E-002	6.0977312E-005	6.3948780E+001	5.1501131E+000	1.000000000000000E+000	14	1.0398550E-002	3.8468972E-008	3.5473611E-006	1.0498567E-006	3.6994554E-006	1.6486345E+001
2.1920588E-002	2.7800903E+005	4.6559230E+004	2.8188078E+005	-9.5073128E+000	6.080319707199815E+002	-6.1192207E-002	7.0917602E-005	1.5594165E+002	4.2544436E+000	1.000000000000000E+000	14	1.0399793E-002	3.6894296E-008	3.4988711E-006	5.8596930E-007	3.5475991E-006	9.5073128E+000
1.4807615E-002	2.9602406E+005	8.5634383E+004	3.0816147E+005	-1.6134195E+001	8.919501473786950E+002	-6.1195180E-002	6.4020780E-005	1.2551245E+002	9.6922922E+000	1.000000000000000E+000	14	1.0398969E-002	3.3745195E-008	3.1172408E-006	9.0176110E-007	3.2450521E-006	1.6134195E+001
1.0000636E-002	3.2076491E+005	9.3180320E+004	3.3402500E+005	-1.6198271E+001	1.312322507905279E+003	-6.1188698E-002	3.3441636E-005	1.7079230E+002	1.3291034E+001	1.000000000000000E+000	14	1.0400668E-002	3.1137393E-008	2.8749407E-006	8.3515340E-007	2.9937878E-006	1.6198271E+001