EC-Lab ASCII FILE
Nb header lines : 62                          

Potentio Electrochemical Impedance Spectroscopy

Run on channel : 3 (SN 35515)
User : 
CE vs. WE compliance from -10 V to 10 V
Electrode connection : standard
Ewe ctrl range : min = -5.00 V, max = 5.00 V
Safety Limits :
	Do not start on E overload
Acquisition started on : 07/20/2023 18:46:26
Technique started on : 07/20/2023 18:46:28
Saved on :
	File : 0720_06_EIS_0.5MTFSI_SymCell_OutsideGB_unsanded_40C_ThinCell_C03.mpr
	Directory : C:\Users\CESL\Documents\EC-Lab\Data\PhD\Leifer\Results\Zn Ion GPE\2023\0720\
	Host : 10.110.196.171
Device : VSP (SN 17241724)
Address : USB
EC-Lab for windows v11.16 (software)
Internet server v11.16 (firmware)
Command interpretor v11.16 (firmware)
Electrode material : Au/Pd
Initial state : 
Electrolyte : NaCl (0.2M)
Comments : Fe(CN)63-/Fe(CN)64- 5.10-3 M
Reference electrode : SCE Saturated Calomel Electrode (0.241 V)
Electrode surface area : 0.001 cm²
Characteristic mass : 0.001 g
Equivalent Weight : 0.000 g/eq.
Density : 0.000 g/cm3
Cycle Definition : Charge/Discharge alternance
Mode                Single sine         
E (V)               0.0000              
vs.                 Eoc                 
tE (h:m:s)          0:00:0.0000         
record              0                   
dI                  0.000               
unit dI             mA                  
dt (s)              0.000               
fi                  1.000               
unit fi             MHz                 
ff                  10.000              
unit ff             mHz                 
Nd                  6                   
Points              per decade          
spacing             Logarithmic         
Va (mV)             10.0                
pw                  0.10                
Na                  2                   
corr                1                   
E range min (V)     -5.000              
E range max (V)     5.000               
I Range             Auto                
Bandwidth           5                   
nc cycles           0                   
goto Ns'            0                   
nr cycles           0                   
inc. cycle          0                   

freq/Hz	Re(Z)/Ohm	-Im(Z)/Ohm	|Z|/Ohm	Phase(Z)/deg	time/s	<Ewe>/V	<I>/mA	Cs/µF	Cp/µF	cycle number	I Range	|Ewe|/V	|I|/A	Re(Y)/Ohm-1	Im(Y)/Ohm-1	|Y|/Ohm-1	Phase(Y)/deg	
1.0000193E+006	-4.6025168E+002	-1.6754530E+002	4.8979898E+002	1.5999699E+002	2.819099547195947E+000	-2.9835643E-003	4.2231145E-004	-9.4990351E-004	-1.1114969E-004	1.000000000000000E+000	12	8.8985730E-004	1.8167806E-006	-1.9184905E-003	-6.9838745E-004	2.0416540E-003	-1.5999699E+002
6.7575181E+005	2.5260065E+002	-1.6777262E+001	2.5315720E+002	3.7998972E+000	3.978090962249553E+000	-3.7347479E-003	2.2825194E-004	-1.4038213E-002	-6.1655730E-005	1.000000000000000E+000	11	6.5479800E-003	2.5865273E-005	3.9414307E-003	-2.6178244E-004	3.9501148E-003	-3.7998972E+000
4.5664050E+005	1.4325046E+002	-7.0151896E+000	1.4342213E+002	2.8036201E+000	4.387088128365576E+000	-3.8621039E-003	2.2545582E-004	-4.9682826E-002	-1.1886466E-004	1.000000000000000E+000	11	1.0656187E-002	7.4299460E-005	6.9640791E-003	-3.4104136E-004	6.9724247E-003	-2.8036201E+000
3.0857416E+005	1.1855121E+002	-3.8683338E+000	1.1861430E+002	1.8689020E+000	4.928080420737388E+000	-3.9844653E-003	5.6035555E-004	-1.3333268E-001	-1.4181115E-004	1.000000000000000E+000	11	1.0121747E-002	8.5333275E-005	8.4262025E-003	-2.7494752E-004	8.4306868E-003	-1.8689020E+000
2.0852534E+005	1.0927924E+002	-1.3704031E+000	1.0928783E+002	7.1847314E-001	5.337076626834460E+000	-3.9807190E-003	4.7420652E-004	-5.5694586E-001	-8.7572153E-005	1.000000000000000E+000	11	1.0839248E-002	9.9180746E-005	9.1494313E-003	-1.1473733E-004	9.1501502E-003	-7.1847314E-001
1.4090817E+005	1.0531737E+002	5.3951311E-001	1.0531875E+002	-2.9350859E-001	5.746077286254149E+000	-3.9818184E-003	3.9160025E-004	2.0935433E+000	5.4938220E-005	1.000000000000000E+000	11	1.0725540E-002	1.0183885E-004	9.4948607E-003	4.8639668E-005	9.4949855E-003	2.9350859E-001
9.5214820E+004	1.0411137E+002	2.5933397E+000	1.0414367E+002	-1.4269017E+000	6.155087892344454E+000	-3.9687715E-003	4.1509548E-004	6.4454937E-001	3.9967705E-004	1.000000000000000E+000	11	1.0608472E-002	1.0186382E-004	9.5991427E-003	2.3910776E-004	9.6021201E-003	1.4269017E+000
6.4345688E+004	1.0366951E+002	4.9673185E+000	1.0378844E+002	-2.7432261E+000	6.564083431789186E+000	-3.9746240E-003	3.7724205E-004	4.9794188E-001	1.1405773E-003	1.000000000000000E+000	11	1.0490126E-002	1.0107220E-004	9.6239429E-003	4.6113066E-004	9.6349837E-003	2.7432261E+000
4.3476547E+004	1.0403811E+002	7.4316487E+000	1.0430320E+002	-4.0858116E+000	6.973095797846327E+000	-3.9779046E-003	3.5859508E-004	4.9258360E-001	2.5006621E-003	1.000000000000000E+000	11	1.0458947E-002	1.0027446E-004	9.5630661E-003	6.8310887E-004	9.5874332E-003	4.0858116E+000
2.9384758E+004	1.0482878E+002	1.0729368E+001	1.0537643E+002	-5.8439507E+000	7.382083470642101E+000	-3.9553707E-003	4.2479165E-004	5.0480527E-001	5.2334149E-003	1.000000000000000E+000	11	1.0300606E-002	9.7750562E-005	9.4404686E-003	9.6624473E-004	9.4897877E-003	5.8439507E+000
1.9853508E+004	1.0603767E+002	1.4838548E+001	1.0707086E+002	-7.9660463E+000	7.791094023355981E+000	-3.9642239E-003	3.1365547E-004	5.4024589E-001	1.0376042E-002	1.000000000000000E+000	11	1.0187346E-002	9.5145828E-005	9.2494851E-003	1.2943413E-003	9.3396092E-003	7.9660463E+000
1.3417967E+004	1.0777739E+002	2.0694515E+001	1.0974620E+002	-1.0869169E+001	8.199097856093431E+000	-3.9544385E-003	4.5462666E-004	5.7316303E-001	2.0380259E-002	1.000000000000000E+000	11	1.0172090E-002	9.2687398E-005	8.9484677E-003	1.7182101E-003	9.1119325E-003	1.0869169E+001
9.0820293E+003	1.1020438E+002	2.8519442E+001	1.1383482E+002	-1.4509088E+001	8.496327043540077E+000	-3.9698901E-003	2.8102318E-004	6.1446363E-001	3.8568079E-002	1.000000000000000E+000	11	1.0613607E-002	9.3236915E-005	8.5044969E-003	2.2008517E-003	8.7846583E-003	1.4509088E+001
6.1409590E+003	1.1357658E+002	3.9112244E+001	1.2012247E+002	-1.9002115E+001	8.899626476069898E+000	-3.9732261E-003	2.3142208E-004	6.6263014E-001	7.0250295E-002	1.000000000000000E+000	11	1.0783968E-002	8.9774781E-005	7.8711882E-003	2.7105925E-003	8.3248373E-003	1.9002115E+001
4.1413242E+003	1.1837127E+002	5.3951580E+001	1.3008662E+002	-2.4502680E+001	9.365679084869043E+000	-3.9396957E-003	5.7471282E-004	7.1232259E-001	1.2252361E-001	1.000000000000000E+000	11	1.0824095E-002	8.3206825E-005	6.9948919E-003	3.1881509E-003	7.6871854E-003	2.4502680E+001
2.7973140E+003	1.2506757E+002	7.4145805E+001	1.4539429E+002	-3.0661409E+001	9.831926866987487E+000	-3.9444114E-003	4.9751368E-004	7.6734787E-001	1.9955876E-001	1.000000000000000E+000	11	1.0807952E-002	7.4335469E-005	5.9162979E-003	3.5074532E-003	6.8778493E-003	3.0661409E+001
1.8906046E+003	1.3500919E+002	1.0135242E+002	1.6881882E+002	-3.6895836E+001	1.029667070242431E+001	-3.9398819E-003	4.7364572E-004	8.3058733E-001	2.9937243E-001	1.000000000000000E+000	11	1.0769166E-002	6.3791267E-005	4.7371988E-003	3.5562511E-003	5.9235101E-003	3.6895836E+001
1.2871166E+003	1.4792120E+002	1.3696590E+002	2.0159450E+002	-4.2797779E+001	1.076318875121069E+001	-3.9479900E-003	4.9714092E-004	9.0279639E-001	4.1673249E-001	1.000000000000000E+000	11	1.0721375E-002	5.3182877E-005	3.6397630E-003	3.3701954E-003	4.9604527E-003	4.2797779E+001
8.6306641E+002	1.6718315E+002	1.8677237E+002	2.5066736E+002	-4.8167728E+001	1.123017498673289E+001	-3.9533949E-003	4.7252618E-004	9.8733217E-001	5.4814190E-001	1.000000000000000E+000	11	1.0694781E-002	4.2665233E-005	2.6607064E-003	2.9724669E-003	3.9893505E-003	4.8167728E+001
5.8369244E+002	1.9192801E+002	2.5257866E+002	3.1722601E+002	-5.2769733E+001	1.194920126089710E+001	-3.9833467E-003	9.1590766E-005	1.0795417E+000	6.8437660E-001	1.000000000000000E+000	12	1.0920304E-002	3.4424364E-005	1.9072201E-003	2.5099153E-003	3.1523267E-003	5.2769733E+001
3.9411707E+002	2.2546521E+002	3.4071814E+002	4.0856262E+002	-5.6505989E+001	1.241618800305878E+001	-3.9755190E-003	7.5351181E-006	1.1852219E+000	8.2427645E-001	1.000000000000000E+000	12	1.0790776E-002	2.6411561E-005	1.3507104E-003	2.0411643E-003	2.4476051E-003	5.6505989E+001
2.6644943E+002	2.7006949E+002	4.5940771E+002	5.3290991E+002	-5.9550240E+001	1.287967941177340E+001	-3.9793584E-003	8.1316553E-005	1.3001907E+000	9.6626449E-001	1.000000000000000E+000	12	1.0722682E-002	2.0121002E-005	9.5097243E-004	1.6176727E-003	1.8764897E-003	5.9550240E+001
1.8005759E+002	3.2913892E+002	6.2274756E+002	7.0437701E+002	-6.2142338E+001	1.334469580719451E+001	-3.9804578E-003	8.0328085E-005	1.4193734E+000	1.1094568E+000	1.000000000000000E+000	12	1.0691890E-002	1.5179215E-005	6.6338998E-004	1.2551675E-003	1.4196943E-003	6.2142338E+001
1.2159529E+002	4.0076636E+002	8.4223364E+002	9.3272247E+002	-6.4553139E+001	1.380510356233572E+001	-3.9837197E-003	2.4371948E-005	1.5540707E+000	1.2671589E+000	1.000000000000000E+000	12	1.0673405E-002	1.1443281E-005	4.6066631E-004	9.6811668E-004	1.0721303E-003	6.4553139E+001
8.2236801E+001	4.9661035E+002	1.1549354E+003	1.2571785E+003	-6.6732796E+001	1.426031974397483E+001	-3.9824895E-003	2.7355178E-005	1.6756998E+000	1.4142226E+000	1.000000000000000E+000	12	1.0659231E-002	8.4786934E-006	3.1421133E-004	7.3074165E-004	7.9543202E-004	6.6732796E+001
5.5515171E+001	6.2008618E+002	1.5627415E+003	1.6812697E+003	-6.8357124E+001	1.472287400596542E+001	-3.9790971E-003	7.6132608E-005	1.8345152E+000	1.5849693E+000	1.000000000000000E+000	12	1.0655496E-002	6.3377674E-006	2.1937005E-004	5.5285642E-004	5.9478858E-004	6.8357124E+001
3.7560089E+001	8.1209509E+002	2.1633979E+003	2.3107983E+003	-6.9424896E+001	1.547876705521776E+001	-3.9596390E-003	-1.4143893E-005	1.9586513E+000	1.7167453E+000	1.000000000000000E+000	13	1.0678878E-002	4.6212940E-006	1.5208375E-004	4.0514671E-004	4.3275088E-004	6.9424896E+001
2.5365252E+001	1.0675013E+003	2.9782598E+003	3.1637937E+003	-7.0280731E+001	1.593785334366839E+001	-3.9680260E-003	-1.3295579E-005	2.1067762E+000	1.8669266E+000	1.000000000000000E+000	13	1.0651664E-002	3.3667377E-006	1.0664787E-004	2.9754062E-004	3.1607624E-004	7.0280731E+001
1.7132671E+001	1.4525295E+003	4.1303408E+003	4.3783052E+003	-7.0624603E+001	1.635084250997170E+001	-3.9777742E-003	-1.1252120E-005	2.2491021E+000	2.0015612E+000	1.000000000000000E+000	13	1.0655777E-002	2.4337676E-006	7.5772718E-005	2.1546356E-004	2.2839889E-004	7.0624603E+001
1.1591243E+001	2.0235946E+003	5.6614912E+003	6.0122725E+003	-7.0331520E+001	1.676025839606882E+001	-3.9839433E-003	-7.8848552E-006	2.4252656E+000	2.1505208E+000	1.000000000000000E+000	13	1.0649690E-002	1.7713253E-006	5.5981705E-005	1.5662228E-004	1.6632646E-004	7.0331520E+001
7.8281527E+000	2.9341472E+003	7.7481689E+003	8.2851279E+003	-6.9258873E+001	1.734128146365401E+001	-3.9748480E-003	-1.1924303E-005	2.6239874E+000	2.2948880E+000	1.000000000000000E+000	13	1.0651529E-002	1.2856203E-006	4.2744810E-005	1.1287576E-004	1.2069820E-004	6.9258873E+001
5.2930207E+000	4.2919932E+003	1.0488110E+004	1.1332328E+004	-6.7744415E+001	1.860475904369378E+001	-3.9664353E-003	-4.1107173E-006	2.8669446E+000	2.4557011E+000	1.000000000000000E+000	14	1.0656399E-002	9.4035386E-007	3.3421096E-005	8.1669321E-005	8.8243120E-005	6.7744415E+001
3.5755143E+000	6.3536719E+003	1.4060411E+004	1.5429333E+004	-6.5682564E+001	1.981927443467430E+001	-3.9629564E-003	-6.5569147E-006	3.1658010E+000	2.6289682E+000	1.000000000000000E+000	14	1.0652591E-002	6.9041158E-007	2.6688886E-005	5.9061404E-005	6.4811618E-005	6.5682564E+001
2.4172332E+000	9.5596631E+003	1.8509506E+004	2.0832402E+004	-6.2684860E+001	2.159648593244492E+001	-3.9632432E-003	-4.9451091E-006	3.5571873E+000	2.8081331E+000	1.000000000000000E+000	14	1.0649102E-002	5.1117973E-007	2.2027432E-005	4.2649714E-005	4.8002144E-005	6.2684860E+001
1.6327059E+000	1.4414601E+004	2.3684674E+004	2.7726242E+004	-5.8675117E+001	2.420737530975020E+001	-3.9620530E-003	-7.7915029E-006	4.1157103E+000	3.0032921E+000	1.000000000000000E+000	14	1.0648639E-002	3.8406355E-007	1.8750834E-005	3.0809555E-005	3.6066915E-005	5.8675117E+001
1.1020596E+000	2.1460189E+004	2.9250660E+004	3.6278656E+004	-5.3733803E+001	2.805638770593214E+001	-3.9639822E-003	-9.4990837E-006	4.9371848E+000	3.2095809E+000	1.000000000000000E+000	14	1.0649787E-002	2.9355519E-007	1.6305388E-005	2.2224565E-005	2.7564416E-005	5.3733803E+001
7.4560940E-001	3.0779480E+004	3.3946051E+004	4.5822602E+004	-4.7800850E+001	3.372813280197443E+001	-3.9626560E-003	-1.0102076E-005	6.2881007E+000	3.4509490E+000	1.000000000000000E+000	14	1.0650043E-002	2.3241900E-007	1.4658914E-005	1.6167012E-005	2.1823291E-005	4.7800850E+001
5.0390220E-001	4.2267512E+004	3.7182598E+004	5.6294656E+004	-4.1337990E+001	4.210396242651041E+001	-3.9631985E-003	-1.1292281E-005	8.4944277E+000	3.7057767E+000	1.000000000000000E+000	14	1.0651295E-002	1.8920615E-007	1.3337436E-005	1.1732902E-005	1.7763676E-005	4.1337990E+001
3.4010270E-001	5.4574617E+004	3.8053082E+004	6.6531391E+004	-3.4886791E+001	5.449739728178247E+001	-3.9668991E-003	-1.0203125E-005	1.2297595E+001	4.0229688E+000	1.000000000000000E+000	14	1.0651464E-002	1.6009682E-007	1.2329274E-005	8.5967959E-006	1.5030499E-005	3.4886791E+001
2.3021273E-001	6.6623055E+004	3.6224371E+004	7.5834273E+004	-2.8533865E+001	7.279066804406466E+001	-3.9594732E-003	-1.1418430E-005	1.9084902E+001	4.3547235E+000	1.000000000000000E+000	14	1.0652945E-002	1.4047666E-007	1.1584933E-005	6.2989739E-006	1.3186650E-005	2.8533865E+001
1.5547264E-001	7.7010125E+004	3.1437648E+004	8.3179836E+004	-2.2206633E+001	9.986184492986649E+001	-3.9590523E-003	-1.4039128E-005	3.2562378E+001	4.6513615E+000	1.000000000000000E+000	14	1.0651188E-002	1.2805012E-007	1.1130424E-005	4.5437450E-006	1.2022145E-005	2.2206633E+001
1.0504906E-001	8.5909984E+004	2.7099379E+004	9.0082750E+004	-1.7507318E+001	1.399102619787154E+002	-3.9576874E-003	-1.7387114E-005	5.5907314E+001	5.0594583E+000	1.000000000000000E+000	14	1.0651844E-002	1.1824510E-007	1.0586695E-005	3.3394588E-006	1.1100905E-005	1.7507318E+001
7.1022727E-002	9.2497828E+004	2.1667119E+004	9.5001641E+004	-1.3183531E+001	1.991310406315606E+002	-3.9560096E-003	-1.9832207E-005	1.0342406E+002	5.3797460E+000	1.000000000000000E+000	14	1.0651004E-002	1.1211390E-007	1.0248713E-005	2.4007061E-006	1.0526134E-005	1.3183531E+001
4.7988325E-002	9.5069141E+004	1.5875492E+004	9.6385539E+004	-9.4802856E+000	2.867618368738040E+002	-3.9563105E-003	-1.4142363E-005	2.0890909E+002	5.6674538E+000	1.000000000000000E+000	14	1.0650506E-002	1.1049900E-007	1.0233302E-005	1.7088481E-006	1.0375001E-005	9.4802856E+000
3.2443926E-002	1.0097347E+005	1.2061996E+004	1.0169136E+005	-6.8121061E+000	4.163618797761446E+002	-3.9487220E-003	-3.0020467E-005	4.0669382E+002	5.7218680E+000	1.000000000000000E+000	14	1.0650925E-002	1.0473777E-007	9.7642560E-006	1.1664094E-006	9.8336768E-006	6.8121061E+000
2.1920588E-002	1.0286023E+005	9.9600859E+003	1.0334134E+005	-5.5307794E+000	6.081617165128191E+002	-3.9553931E-003	-3.8370898E-005	7.2896191E+002	6.7714686E+000	1.000000000000000E+000	14	1.0650851E-002	1.0306477E-007	9.6316207E-006	9.3264197E-007	9.6766698E-006	5.5307794E+000
1.4807615E-002	1.0565672E+005	1.0083222E+004	1.0613677E+005	-5.4514437E+000	8.920799051448703E+002	-3.9526359E-003	-5.0143364E-005	1.0659473E+003	9.6206102E+000	1.000000000000000E+000	14	1.0651480E-002	1.0035618E-007	9.3791914E-006	8.9509183E-007	9.4218058E-006	5.4514437E+000
1.0000636E-002	1.1656695E+005	7.2004233E+003	1.1678913E+005	-3.5347099E+000	1.312451288204727E+003	-3.9575049E-003	-4.5189543E-005	2.2102148E+003	8.4012852E+000	1.000000000000000E+000	14	1.0650943E-002	9.1198075E-008	8.5461525E-006	5.2790193E-007	8.5624415E-006	3.5347099E+000