EC-Lab ASCII FILE
Nb header lines : 62                          

Potentio Electrochemical Impedance Spectroscopy

Run on channel : 1 (SN 35512)
User : 
CE vs. WE compliance from -10 V to 10 V
Electrode connection : standard
Ewe ctrl range : min = -5.00 V, max = 5.00 V
Safety Limits :
	Do not start on E overload
Acquisition started on : 06/21/2023 15:53:28
Technique started on : 06/21/2023 15:53:30
Saved on :
	File : 0614_01_EIS_0.5MTFSI_Blocking_Redone_6_21_23_C01.mpr
	Directory : C:\Users\CESL\Documents\EC-Lab\Data\PhD\Leifer\Results\Zn Ion GPE\2023\0614\
	Host : 10.110.196.171
Device : VSP (SN 17241724)
Address : USB
EC-Lab for windows v11.16 (software)
Internet server v11.16 (firmware)
Command interpretor v11.16 (firmware)
Electrode material : Au/Pd
Initial state : 
Electrolyte : NaCl (0.2M)
Comments : Fe(CN)63-/Fe(CN)64- 5.10-3 M
Reference electrode : SCE Saturated Calomel Electrode (0.241 V)
Electrode surface area : 0.001 cm²
Characteristic mass : 0.001 g
Equivalent Weight : 0.000 g/eq.
Density : 0.000 g/cm3
Cycle Definition : Charge/Discharge alternance
Mode                Single sine         
E (V)               0.0000              
vs.                 Eoc                 
tE (h:m:s)          0:00:0.0000         
record              0                   
dI                  0.000               
unit dI             mA                  
dt (s)              0.000               
fi                  1.000               
unit fi             MHz                 
ff                  10.000              
unit ff             mHz                 
Nd                  6                   
Points              per decade          
spacing             Logarithmic         
Va (mV)             10.0                
pw                  0.10                
Na                  2                   
corr                1                   
E range min (V)     -5.000              
E range max (V)     5.000               
I Range             Auto                
Bandwidth           5                   
nc cycles           0                   
goto Ns'            0                   
nr cycles           0                   
inc. cycle          0                   

freq/Hz	Re(Z)/Ohm	-Im(Z)/Ohm	|Z|/Ohm	Phase(Z)/deg	time/s	<Ewe>/V	<I>/mA	Cs/µF	Cp/µF	cycle number	I Range	|Ewe|/V	|I|/A	Re(Y)/Ohm-1	Im(Y)/Ohm-1	|Y|/Ohm-1	Phase(Y)/deg	
1.0000193E+006	-7.6352592E+001	-1.8642191E+001	7.8595482E+001	1.6627916E+002	2.487089958129218E+000	2.9808743E-002	5.2943028E-004	-8.5371872E-003	-4.8030107E-004	1.000000000000000E+000	11	4.1133922E-004	5.2336245E-006	-1.2360290E-002	-3.0178772E-003	1.2723378E-002	-1.6627916E+002
6.7575181E+005	3.4261730E+001	-5.0829387E+000	3.4636723E+001	8.4386301E+000	2.896082937542815E+000	2.9193699E-002	1.1705610E-005	-4.6335947E-002	-9.9787046E-004	1.000000000000000E+000	11	1.0927096E-003	3.1547719E-005	2.8558522E-002	-4.2368323E-003	2.8871091E-002	-8.4386301E+000
4.5664050E+005	1.4732119E+001	-8.4123224E-001	1.4756117E+001	3.2681499E+000	4.187077212205622E+000	2.9280763E-002	7.4398681E-003	-4.1431415E-001	-1.3465344E-003	1.000000000000000E+000	10	4.8011066E-003	3.2536383E-004	6.7658290E-002	-3.8634182E-003	6.7768507E-002	-3.2681499E+000
3.0857416E+005	1.1130811E+001	1.3762139E-001	1.1131661E+001	-7.0836914E-001	4.596096938272240E+000	2.9053845E-002	7.8836894E-003	3.7477849E+000	5.7283102E-004	1.000000000000000E+000	10	9.9642407E-003	8.9512614E-004	8.9826986E-002	1.1106211E-003	8.9833848E-002	7.0836914E-001
2.0852534E+005	1.0000607E+001	6.1929649E-001	1.0019764E+001	-3.5435669E+000	5.137089230673155E+000	2.9015301E-002	7.4548018E-003	1.2324312E+000	4.7080917E-003	1.000000000000000E+000	10	1.0138650E-002	1.0118652E-003	9.9611931E-002	6.1685573E-003	9.9802747E-002	3.5435669E+000
1.4090817E+005	9.6397352E+000	1.0071421E+000	9.6922045E+000	-5.9645200E+000	5.677078616310610E+000	2.9053174E-002	8.8328375E-003	1.1214844E+000	1.2109593E-002	1.000000000000000E+000	10	1.0095494E-002	1.0416097E-003	1.0261715E-001	1.0721254E-002	1.0317570E-001	5.9645200E+000
9.5214820E+004	9.5459681E+000	1.4464729E+000	9.6549358E+000	-8.6163177E+000	6.086090395721840E+000	2.9064212E-002	8.0496510E-003	1.1555940E+000	2.5937438E-002	1.000000000000000E+000	10	1.0831008E-002	1.1218104E-003	1.0240500E-001	1.5517133E-002	1.0357396E-001	8.6163177E+000
6.4345688E+004	9.5697708E+000	2.0437200E+000	9.7855663E+000	-1.2054995E+001	6.494098121795105E+000	2.9055858E-002	9.4239581E-003	1.2102617E+000	5.2789818E-002	1.000000000000000E+000	10	1.0728850E-002	1.0963954E-003	9.9937767E-002	2.1342706E-002	1.0219133E-001	1.2054995E+001
4.3476547E+004	9.6892586E+000	2.8821080E+000	1.0108822E+001	-1.6565315E+001	6.903095581190428E+000	2.9057967E-002	8.3013875E-003	1.2701496E+000	1.0324625E-001	1.000000000000000E+000	10	1.0633389E-002	1.0518919E-003	9.4817713E-002	2.8203899E-002	9.8923497E-002	1.6565315E+001
2.9384758E+004	9.9107141E+000	4.0546570E+000	1.0708057E+001	-2.2250381E+001	7.312094880646328E+000	2.9062571E-002	8.4263207E-003	1.3358076E+000	1.9152734E-001	1.000000000000000E+000	10	1.0540149E-002	9.8431949E-004	8.6433791E-002	3.5361670E-002	9.3387619E-002	2.2250381E+001
1.9853508E+004	1.0244493E+001	5.6927333E+000	1.1719934E+001	-2.9060366E+001	7.721088420075830E+000	2.9062888E-002	8.2584964E-003	1.4081925E+000	3.3224112E-001	1.000000000000000E+000	10	1.0363329E-002	8.8424806E-004	7.4583054E-002	4.1444842E-002	8.5324712E-002	2.9060366E+001
1.3417967E+004	1.0709404E+001	7.9811525E+000	1.3356277E+001	-3.6695213E+001	8.129088999441592E+000	2.9070050E-002	8.6258398E-003	1.4861677E+000	5.3067452E-001	1.000000000000000E+000	10	1.0141212E-002	7.5928436E-004	6.0033616E-002	4.4739876E-002	7.4871168E-002	3.6695213E+001
9.0820293E+003	1.1335809E+001	1.1148549E+001	1.5899393E+001	-4.4522827E+001	8.426346293563256E+000	2.9063076E-002	8.3368057E-003	1.5718781E+000	7.7284873E-001	1.000000000000000E+000	10	1.0240416E-002	6.4407592E-004	4.4842664E-002	4.4101898E-002	6.2895484E-002	4.4522827E+001
6.1409590E+003	1.2095078E+001	1.5725707E+001	1.9839071E+001	-5.2435116E+001	8.829632579410827E+000	2.9070739E-002	8.2678068E-003	1.6480627E+000	1.0355031E+000	1.000000000000000E+000	10	9.9341776E-003	5.0073804E-004	3.0730242E-002	3.9954662E-002	5.0405584E-002	5.2435116E+001
4.1413242E+003	1.3179224E+001	2.2292398E+001	2.5896776E+001	-5.9408501E+001	9.295700041540840E+000	2.9105926E-002	1.1031334E-002	1.7239478E+000	1.2774570E+000	1.000000000000000E+000	10	9.6310191E-003	3.7190030E-004	1.9651625E-002	3.3240337E-002	3.8614847E-002	5.9408501E+001
2.7973140E+003	1.4676969E+001	3.1598179E+001	3.4840469E+001	-6.5085709E+001	9.761931263667066E+000	2.9098636E-002	1.1122705E-002	1.8005984E+000	1.4810610E+000	1.000000000000000E+000	10	9.4316015E-003	2.7070823E-004	1.2091170E-002	2.6031192E-002	2.8702253E-002	6.5085709E+001
1.8906046E+003	1.6787840E+001	4.5190144E+001	4.8207684E+001	-6.9620300E+001	1.047968729778222E+001	2.9075159E-002	9.4369095E-004	1.8628407E+000	1.6369319E+000	1.000000000000000E+000	11	9.8886238E-003	2.0512547E-004	7.2237430E-003	1.9445146E-002	2.0743581E-002	6.9620300E+001
1.2871166E+003	1.9857645E+001	6.3893398E+001	6.6908089E+001	-7.2735100E+001	1.094620491992100E+001	2.9079951E-002	9.7146764E-004	1.9352911E+000	1.7648224E+000	1.000000000000000E+000	11	9.5370086E-003	1.4253895E-004	4.4357856E-003	1.4272456E-002	1.4945876E-002	7.2735100E+001
8.6306641E+002	2.4538963E+001	9.1575806E+001	9.4806587E+001	-7.4999237E+001	1.141318862207117E+001	2.9079802E-002	8.2548911E-004	2.0137019E+000	1.8787961E+000	1.000000000000000E+000	11	9.3636410E-003	9.8765719E-005	2.7301048E-003	1.0188347E-002	1.0547791E-002	7.4999237E+001
5.8369244E+002	3.1296345E+001	1.3016980E+002	1.3387920E+002	-7.6481133E+001	1.188017973760725E+001	2.9073462E-002	9.1404404E-004	2.0947192E+000	1.9802504E+000	1.000000000000000E+000	11	9.2794243E-003	6.9311922E-005	1.7460932E-003	7.2624651E-003	7.4694203E-003	7.6481133E+001
3.9411707E+002	4.2065578E+001	1.8460347E+002	1.8933556E+002	-7.7163200E+001	1.234721967976657E+001	2.9073704E-002	8.2697923E-004	2.1875350E+000	2.0795550E+000	1.000000000000000E+000	11	9.2362855E-003	4.8782626E-005	1.1734444E-003	5.1496238E-003	5.2816281E-003	7.7163200E+001
2.6644943E+002	5.8028603E+001	2.6310013E+002	2.6942346E+002	-7.7562141E+001	1.306264654046754E+001	2.9085303E-002	7.8235498E-005	2.2703054E+000	2.1649885E+000	1.000000000000000E+000	12	9.3662320E-003	3.4763980E-005	7.9941301E-004	3.6245179E-003	3.7116292E-003	7.7562141E+001
1.8005759E+002	8.2570679E+001	3.7226404E+002	3.8131146E+002	-7.7493881E+001	1.352766522922320E+001	2.9082133E-002	6.2158826E-005	2.3744204E+000	2.2630808E+000	1.000000000000000E+000	12	9.2794877E-003	2.4335717E-005	5.6789239E-004	2.5603031E-003	2.6225280E-003	7.7493881E+001
1.2159529E+002	1.2089469E+002	5.2433453E+002	5.3809131E+002	-7.7016342E+001	1.398813946437440E+001	2.9084407E-002	5.1546787E-005	2.4962893E+000	2.3702812E+000	1.000000000000000E+000	12	9.2414757E-003	1.7174549E-005	4.1753720E-004	1.8109087E-003	1.8584207E-003	7.7016342E+001
8.2236801E+001	1.8012967E+002	7.3309943E+002	7.5490497E+002	-7.6195343E+001	1.444332535265130E+001	2.9082803E-002	3.8603503E-005	2.6399217E+000	2.4896154E+000	1.000000000000000E+000	12	9.2162332E-003	1.2208468E-005	3.1608267E-004	1.2864068E-003	1.3246700E-003	7.6195343E+001
5.5515171E+001	2.6882513E+002	1.0158676E+003	1.0508348E+003	-7.5177788E+001	1.490588158799801E+001	2.9081760E-002	2.5063511E-005	2.8220932E+000	2.6374037E+000	1.000000000000000E+000	12	9.2084724E-003	8.7630069E-006	2.4344507E-004	9.1995840E-004	9.5162436E-004	7.5177788E+001
3.7560089E+001	4.0458224E+002	1.4044584E+003	1.4615712E+003	-7.3929901E+001	1.539676249132026E+001	2.9085498E-002	6.8228881E-005	3.0170648E+000	2.7858803E+000	1.000000000000000E+000	12	9.2130406E-003	6.3035181E-006	1.8939427E-004	6.5745943E-004	6.8419520E-004	7.3929901E+001
2.5365252E+001	5.9645288E+002	1.9253875E+003	2.0156570E+003	-7.2787895E+001	1.610585444499156E+001	2.9078739E-002	9.8180390E-006	3.2588384E+000	2.9734857E+000	1.000000000000000E+000	13	9.2153763E-003	4.5718971E-006	1.4680567E-004	4.7389805E-004	4.9611618E-004	7.2787895E+001
1.7132671E+001	8.7680719E+002	2.6202771E+003	2.7630857E+003	-7.1498528E+001	1.651883419795195E+001	2.9078329E-002	-3.3518809E-006	3.5452578E+000	3.1882586E+000	1.000000000000000E+000	13	9.2171775E-003	3.3358276E-006	1.1484589E-004	3.4320887E-004	3.6191422E-004	7.1498528E+001
1.1591243E+001	1.2555133E+003	3.5327773E+003	3.7492439E+003	-7.0435303E+001	1.692827483071596E+001	2.9068166E-002	2.8507336E-006	3.8866360E+000	3.4507937E+000	1.000000000000000E+000	13	9.2109460E-003	2.4567476E-006	8.9316964E-005	2.5132106E-004	2.6672045E-004	7.0435303E+001
7.8281527E+000	1.7864740E+003	4.7283242E+003	5.0545562E+003	-6.9302231E+001	1.751028357833275E+001	2.9082086E-002	5.0624840E-006	4.2998528E+000	3.7627213E+000	1.000000000000000E+000	13	9.2076557E-003	1.8216546E-006	6.9924718E-005	1.8507219E-004	1.9784131E-004	6.9302231E+001
5.2930207E+000	2.4408640E+003	6.2875791E+003	6.7447363E+003	-6.8783585E+001	1.834670412477863E+001	2.9080512E-002	6.3542534E-006	4.7822590E+000	4.1559472E+000	1.000000000000000E+000	13	9.2108659E-003	1.3656377E-006	5.3655418E-005	1.3821447E-004	1.4826376E-004	6.8783585E+001
3.5755143E+000	3.3293496E+003	8.3821074E+003	9.0191074E+003	-6.8337166E+001	2.017039066468715E+001	2.9084245E-002	1.3344082E-006	5.3104143E+000	4.5867782E+000	1.000000000000000E+000	14	9.2101572E-003	1.0211828E-006	4.0929102E-005	1.0304481E-004	1.1087571E-004	6.8337166E+001
2.4172332E+000	4.3686040E+003	1.1221731E+004	1.2042091E+004	-6.8729103E+001	2.194660818910324E+001	2.9085221E-002	1.7264530E-006	5.8673463E+000	5.0951581E+000	1.000000000000000E+000	14	9.2079192E-003	7.6464454E-007	3.0125824E-005	7.7384866E-005	8.3042054E-005	6.8729103E+001
1.6327059E+000	5.6980112E+003	1.5070156E+004	1.6111392E+004	-6.9288445E+001	2.455749737974838E+001	2.9084802E-002	5.7665449E-007	6.4683633E+000	5.6593146E+000	1.000000000000000E+000	14	9.2060883E-003	5.7140244E-007	2.1951146E-005	5.8056605E-005	6.2067884E-005	6.9288445E+001
1.1020596E+000	7.2174346E+003	2.0397352E+004	2.1636619E+004	-7.0514091E+001	2.840650724255829E+001	2.9088704E-002	9.4046135E-007	7.0801306E+000	6.2923088E+000	1.000000000000000E+000	14	9.2077199E-003	4.2556186E-007	1.5417150E-005	4.3570741E-005	4.6217941E-005	7.0514091E+001
7.4560940E-001	9.0299658E+003	2.7819521E+004	2.9248352E+004	-7.2017036E+001	3.407890708532068E+001	2.9083274E-002	1.0215979E-006	7.6728921E+000	6.9415364E+000	1.000000000000000E+000	14	9.2061404E-003	3.1475759E-007	1.0555610E-005	3.2519725E-005	3.4189961E-005	7.2017036E+001
5.0390220E-001	1.0984416E+004	3.8508777E+004	4.0044766E+004	-7.4079491E+001	4.245475561650528E+001	2.9085519E-002	1.1193204E-006	8.2018938E+000	7.5847640E+000	1.000000000000000E+000	14	9.2058480E-003	2.2988893E-007	6.8499203E-006	2.4014204E-005	2.4972052E-005	7.4079491E+001
3.4010270E-001	1.3539665E+004	5.4010086E+004	5.5681344E+004	-7.5926682E+001	5.484820972513990E+001	2.9081970E-002	1.0374711E-006	8.6643333E+000	8.1520252E+000	1.000000000000000E+000	14	9.2052771E-003	1.6532067E-007	4.3670525E-006	1.7420294E-005	1.7959337E-005	7.5926682E+001
2.3021273E-001	1.6646963E+004	7.6430273E+004	7.8222172E+004	-7.7712547E+001	7.314150675400742E+001	2.9082041E-002	8.3309754E-007	9.0453491E+000	8.6356783E+000	1.000000000000000E+000	14	9.2039630E-003	1.1766438E-007	2.7206663E-006	1.2491244E-005	1.2784099E-005	7.7712547E+001
1.5547264E-001	2.1043889E+004	1.0883885E+005	1.1085459E+005	-7.9056946E+001	1.002127979865327E+002	2.9081997E-002	9.2441206E-007	9.4055071E+000	9.0665636E+000	1.000000000000000E+000	14	9.2036091E-003	8.3024155E-008	1.7124529E-006	8.8567940E-006	9.0208259E-006	7.9056946E+001
1.0504906E-001	2.7102490E+004	1.5575294E+005	1.5809339E+005	-8.0128830E+001	1.402622376487416E+002	2.9082324E-002	9.7593204E-007	9.7272873E+000	9.4414082E+000	1.000000000000000E+000	14	9.2031611E-003	5.8213448E-008	1.0843805E-006	6.2317326E-006	6.3253751E-006	8.0128830E+001
7.1022727E-002	3.6367848E+004	2.2274073E+005	2.2569017E+005	-8.0726891E+001	1.994829849682574E+002	2.9085455E-002	7.6981979E-007	1.0060583E+001	9.7993469E+000	1.000000000000000E+000	14	9.2049679E-003	4.0785860E-008	7.1399052E-007	4.3729483E-006	4.4308531E-006	8.0726891E+001
4.7988325E-002	5.0257184E+004	3.1988647E+005	3.2381034E+005	-8.1071281E+001	2.871138059571822E+002	2.9073423E-002	1.7504199E-006	1.0367849E+001	1.0118100E+001	1.000000000000000E+000	14	9.2040226E-003	2.8424115E-008	4.7931007E-007	3.0508049E-006	3.0882275E-006	8.1071281E+001
3.2443926E-002	7.0857750E+004	4.5915334E+005	4.6458866E+005	-8.1227173E+001	4.167139773661911E+002	2.9085269E-002	1.2846264E-006	1.0683880E+001	1.0435356E+001	1.000000000000000E+000	14	9.2041064E-003	1.9811303E-008	3.2828427E-007	2.1272599E-006	2.1524418E-006	8.1227173E+001
2.1920588E-002	1.0317664E+005	6.5696138E+005	6.6501406E+005	-8.1074532E+001	6.085148748495849E+002	2.9070055E-002	1.3948925E-006	1.1051675E+001	1.0785645E+001	1.000000000000000E+000	14	9.2036137E-003	1.3839728E-008	2.3330263E-007	1.4855190E-006	1.5037276E-006	8.1074532E+001
1.4807615E-002	1.5222725E+005	9.4118788E+005	9.5341900E+005	-8.0812569E+001	8.924331432415929E+002	2.9077439E-002	4.5891724E-007	1.1419805E+001	1.1128682E+001	1.000000000000000E+000	14	9.2036389E-003	9.6532995E-009	1.6746534E-007	1.0354014E-006	1.0488568E-006	8.0812569E+001
1.0000636E-002	2.3253544E+005	1.3420335E+006	1.3620304E+006	-8.0169907E+001	1.312804677181568E+003	2.9086102E-002	8.1422382E-007	1.1858483E+001	1.1512835E+001	1.000000000000000E+000	14	9.2037329E-003	6.7573627E-009	1.2534746E-007	7.2341879E-007	7.3419801E-007	8.0169907E+001