EC-Lab ASCII FILE
Nb header lines : 62                          

Potentio Electrochemical Impedance Spectroscopy

Run on channel : 1 (SN 35512)
User : 
CE vs. WE compliance from -10 V to 10 V
Electrode connection : standard
Ewe ctrl range : min = -5.00 V, max = 5.00 V
Safety Limits :
	Do not start on E overload
Acquisition started on : 06/21/2023 17:11:31
Technique started on : 06/21/2023 17:11:33
Saved on :
	File : 0614_01_EIS_0.5MTFSI_Blocking_Remelt_Initial_Test_6_21_23_Test2_C01.mpr
	Directory : C:\Users\CESL\Documents\EC-Lab\Data\PhD\Leifer\Results\Zn Ion GPE\2023\0614\
	Host : 10.110.196.171
Device : VSP (SN 172417241724)
Address : USB
EC-Lab for windows v11.16 (software)
Internet server v11.16 (firmware)
Command interpretor v11.16 (firmware)
Electrode material : Au/Pd
Initial state : 
Electrolyte : NaCl (0.2M)
Comments : Fe(CN)63-/Fe(CN)64- 5.10-3 M
Reference electrode : SCE Saturated Calomel Electrode (0.241 V)
Electrode surface area : 0.001 cm²
Characteristic mass : 0.001 g
Equivalent Weight : 0.000 g/eq.
Density : 0.000 g/cm3
Cycle Definition : Charge/Discharge alternance
Mode                Single sine         
E (V)               0.0000              
vs.                 Eoc                 
tE (h:m:s)          0:00:0.0000         
record              0                   
dI                  0.000               
unit dI             mA                  
dt (s)              0.000               
fi                  1.000               
unit fi             MHz                 
ff                  10.000              
unit ff             mHz                 
Nd                  6                   
Points              per decade          
spacing             Logarithmic         
Va (mV)             10.0                
pw                  0.10                
Na                  2                   
corr                1                   
E range min (V)     -5.000              
E range max (V)     5.000               
I Range             Auto                
Bandwidth           5                   
nc cycles           0                   
goto Ns'            0                   
nr cycles           0                   
inc. cycle          0                   

freq/Hz	Re(Z)/Ohm	-Im(Z)/Ohm	|Z|/Ohm	Phase(Z)/deg	time/s	<Ewe>/V	<I>/mA	Cs/µF	Cp/µF	cycle number	I Range	|Ewe|/V	|I|/A	Re(Y)/Ohm-1	Im(Y)/Ohm-1	|Y|/Ohm-1	Phase(Y)/deg	
1.0000193E+006	7.7522682E+001	1.6761749E+000	7.7540802E+001	-1.2386411E+000	2.487087691464694E+000	-6.7850938E-003	-1.2758089E-003	9.4949447E-002	4.4368066E-005	1.000000000000000E+000	11	4.3787938E-004	5.6470835E-006	1.2893423E-002	2.7877817E-004	1.2896436E-002	1.2386411E+000
6.7575181E+005	7.0802513E+001	-9.3693905E-002	7.0802574E+001	7.5820222E-002	2.896100830897922E+000	-7.3429467E-003	4.8189200E-004	-2.5137470E+000	-4.4019607E-006	1.000000000000000E+000	11	2.1291233E-003	3.0071271E-005	1.4123769E-002	-1.8690171E-005	1.4123781E-002	-7.5820222E-002
4.5664050E+005	3.8439968E+001	-9.9031635E-002	3.8440094E+001	1.4760892E-001	3.305082130304072E+000	-7.2211800E-003	6.8063341E-004	-3.5194252E+000	-2.3358813E-005	1.000000000000000E+000	11	6.5061008E-003	1.6925299E-004	2.6014419E-002	-6.7020097E-005	2.6014505E-002	-1.4760892E-001
3.0857416E+005	3.1756115E+001	9.0866697E-001	3.1769112E+001	-1.6390097E+000	4.140097716619493E+000	-7.4204821E-003	1.2012185E-002	5.6761760E-001	4.6436040E-004	1.000000000000000E+000	10	9.8529756E-003	3.1014325E-004	3.1464238E-002	9.0031524E-004	3.1477116E-002	1.6390097E+000
2.0852534E+005	2.9408634E+001	1.0821726E+000	2.9428537E+001	-2.1074071E+000	4.681080809008563E+000	-7.4355309E-003	1.1974890E-002	7.0528513E-001	9.5371908E-004	1.000000000000000E+000	10	1.0139338E-002	3.4454101E-004	3.3957642E-002	1.2495661E-003	3.3980623E-002	2.1074071E+000
1.4090817E+005	2.8539219E+001	1.3163325E+000	2.8569559E+001	-2.6408179E+000	5.222095848032041E+000	-7.4281464E-003	1.1428523E-002	8.5806137E-001	1.8215558E-003	1.000000000000000E+000	10	1.0110529E-002	3.5389166E-004	3.4965120E-002	1.6127183E-003	3.5002291E-002	2.6408179E+000
9.5214820E+004	2.8205803E+001	1.7643363E+000	2.8260931E+001	-3.5793161E+000	5.631097014091210E+000	-7.4298806E-003	1.2030832E-002	9.4740176E-001	3.6925299E-003	1.000000000000000E+000	10	1.0616050E-002	3.7564404E-004	3.5315517E-002	2.2090648E-003	3.5384540E-002	3.5793161E+000
6.4345688E+004	2.8150213E+001	2.3731475E+000	2.8250069E+001	-4.8188119E+000	6.039088926831027E+000	-7.4337032E-003	1.2849449E-002	1.0422597E+000	7.3550632E-003	1.000000000000000E+000	10	1.0454840E-002	3.7008192E-004	3.5273023E-002	2.9736217E-003	3.5398144E-002	4.8188119E+000
4.3476547E+004	2.8238501E+001	3.2437704E+000	2.8424196E+001	-6.5528727E+000	6.448099986271700E+000	-7.4207061E-003	1.2312406E-002	1.1285349E+000	1.4697343E-002	1.000000000000000E+000	10	1.0321745E-002	3.6313233E-004	3.4951456E-002	4.0148906E-003	3.5181295E-002	6.5528727E+000
2.9384758E+004	2.8384016E+001	4.5178270E+000	2.8741314E+001	-9.0437899E+000	6.857093099009944E+000	-7.4424674E-003	1.1961835E-002	1.1988599E+000	2.9622002E-002	1.000000000000000E+000	10	1.0229973E-002	3.5593269E-004	3.4360588E-002	5.4691057E-003	3.4793120E-002	9.0437899E+000
1.9853508E+004	2.8713541E+001	6.2951741E+000	2.9395521E+001	-1.2365911E+001	7.266076691797934E+000	-7.4343001E-003	1.1808929E-002	1.2734302E+000	5.8402080E-002	1.000000000000000E+000	10	1.0115409E-002	3.4411397E-004	3.3229548E-002	7.2852662E-003	3.4018788E-002	1.2365911E+001
1.3417967E+004	2.9120388E+001	8.8215780E+000	3.0427244E+001	-1.6853386E+001	7.543093398242490E+000	-7.4464581E-003	1.1833169E-002	1.3445815E+000	1.1301978E-001	1.000000000000000E+000	10	1.0507474E-002	3.4533109E-004	3.1453710E-002	9.5284227E-003	3.2865282E-002	1.6853386E+001
9.0820293E+003	2.9654371E+001	1.2518698E+001	3.2188499E+001	-2.2887213E+001	7.839345918997424E+000	-7.4473531E-003	1.0839268E-002	1.3998389E+000	2.1173610E-001	1.000000000000000E+000	10	1.0682141E-002	3.3186204E-004	2.8621161E-002	1.2082526E-002	3.1066997E-002	2.2887213E+001
6.1409590E+003	3.0382067E+001	1.7741915E+001	3.5183029E+001	-3.0283224E+001	8.242652791530418E+000	-7.4512502E-003	8.9055393E-003	1.4607753E+000	3.7146503E-001	1.000000000000000E+000	10	1.0729993E-002	3.0497639E-004	2.4544312E-002	1.4332899E-002	2.8422793E-002	3.0283224E+001
4.1413242E+003	3.1499342E+001	2.5430645E+001	4.0483654E+001	-3.8915291E+001	9.183683396222477E+000	-7.4408827E-003	1.4319618E-003	1.5112054E+000	5.9631932E-001	1.000000000000000E+000	11	1.0127920E-002	2.5017306E-004	1.9219499E-002	1.5516651E-002	2.4701327E-002	3.8915291E+001
2.7973140E+003	3.2958523E+001	3.6374981E+001	4.9085674E+001	-4.7821011E+001	9.649929765029810E+000	-7.4467752E-003	1.4664519E-003	1.5641418E+000	8.5895842E-001	1.000000000000000E+000	11	9.8842438E-003	2.0136718E-004	1.3679122E-002	1.5097091E-002	2.0372543E-002	4.7821011E+001
1.8906046E+003	3.5016991E+001	5.2126354E+001	6.2796070E+001	-5.6107929E+001	1.011466973377537E+001	-7.4436422E-003	1.4196549E-003	1.6149610E+000	1.1127864E+000	1.000000000000000E+000	11	9.6169850E-003	1.5314629E-004	8.8800183E-003	1.3218813E-002	1.5924564E-002	5.6107929E+001
1.2871166E+003	3.7903519E+001	7.4095245E+001	8.3227295E+001	-6.2907928E+001	1.058118916922831E+001	-7.4451342E-003	1.4006378E-003	1.6688292E+000	1.3226991E+000	1.000000000000000E+000	11	9.4260788E-003	1.1325706E-004	5.4720235E-003	1.0696921E-002	1.2015289E-002	6.2907928E+001
8.6306641E+002	4.2347778E+001	1.0689138E+002	1.1497435E+002	-6.8387726E+001	1.104817575143534E+001	-7.4484162E-003	1.3245719E-003	1.7251753E+000	1.4911340E+000	1.000000000000000E+000	11	9.3196863E-003	8.1058832E-005	3.2035294E-003	8.0861300E-003	8.6975917E-003	6.8387726E+001
5.8369244E+002	4.8941303E+001	1.5290082E+002	1.6054256E+002	-7.2250893E+001	1.151521206690813E+001	-7.4384958E-003	1.3048094E-003	1.7833074E+000	1.6175791E+000	1.000000000000000E+000	11	9.2596198E-003	5.7677044E-005	1.8988701E-003	5.9323870E-003	6.2288782E-003	7.2250893E+001
3.9411707E+002	5.8116653E+001	2.1861349E+002	2.2620656E+002	-7.5112701E+001	1.198219944912125E+001	-7.4459920E-003	1.3601796E-003	1.8472171E+000	1.7252876E+000	1.000000000000000E+000	11	9.2218090E-003	4.0767205E-005	1.1357696E-003	4.2723473E-003	4.4207382E-003	7.5112701E+001
2.6644943E+002	7.2683937E+001	3.1400018E+002	3.2230276E+002	-7.6966866E+001	1.269764529646636E+001	-7.4528726E-003	1.0014897E-004	1.9022844E+000	1.8055403E+000	1.000000000000000E+000	12	9.3353363E-003	2.8964492E-005	6.9969770E-004	3.0227473E-003	3.1026728E-003	7.6966866E+001
1.8005759E+002	9.3952217E+001	4.4838525E+002	4.5812265E+002	-7.8165764E+001	1.316268699854845E+001	-7.4508404E-003	9.9552017E-005	1.9713211E+000	1.8884109E+000	1.000000000000000E+000	12	9.2622014E-003	2.0217733E-005	4.4765504E-004	2.1364256E-003	2.1828215E-003	7.8165764E+001
1.2159529E+002	1.2469537E+002	6.4079382E+002	6.5281366E+002	-7.8988136E+001	1.362311067371047E+001	-7.4527049E-003	9.0469213E-005	2.0426080E+000	1.9680822E+000	1.000000000000000E+000	12	9.2291282E-003	1.4137462E-005	2.9259842E-004	1.5036260E-003	1.5318306E-003	7.8988136E+001
8.2236801E+001	1.7422823E+002	9.1092767E+002	9.2743988E+002	-7.9172119E+001	1.407829869535635E+001	-7.4541033E-003	8.9350142E-005	2.1245651E+000	2.0495868E+000	1.000000000000000E+000	12	9.2141740E-003	9.9350636E-006	2.0255682E-004	1.0590400E-003	1.0782370E-003	7.9172119E+001
5.5515171E+001	2.4851541E+002	1.2942073E+003	1.3178514E+003	-7.9130295E+001	1.453988511729403E+001	-7.4492181E-003	8.8604022E-005	2.2151575E+000	2.1363842E+000	1.000000000000000E+000	12	9.2080729E-003	6.9871858E-006	1.4309368E-004	7.4519671E-004	7.5881090E-004	7.9130295E+001
3.7560089E+001	3.5315500E+002	1.8354310E+003	1.8690975E+003	-7.9108826E+001	1.529577443319431E+001	-7.4492088E-003	7.7890463E-006	2.3086360E+000	2.2262180E+000	1.000000000000000E+000	13	9.2329942E-003	4.9398141E-006	1.0108846E-004	5.2538078E-004	5.3501758E-004	7.9108826E+001
2.5365252E+001	5.0388776E+002	2.5902112E+003	2.6387681E+003	-7.8991440E+001	1.575486661499599E+001	-7.4479314E-003	1.5893849E-005	2.4223995E+000	2.3340690E+000	1.000000000000000E+000	13	9.2173479E-003	3.4930497E-006	7.2365459E-005	3.7199128E-004	3.7896473E-004	7.8991440E+001
1.7132671E+001	7.3507916E+002	3.6591777E+003	3.7322813E+003	-7.8641243E+001	1.616883274132852E+001	-7.4602943E-003	5.8979749E-006	2.5387011E+000	2.4402246E+000	1.000000000000000E+000	13	9.2080394E-003	2.4671344E-006	5.2769781E-005	2.6268471E-004	2.6793266E-004	7.8641243E+001
1.1591243E+001	1.0600068E+003	5.1294443E+003	5.2378252E+003	-7.8324104E+001	1.657825854737894E+001	-7.4678841E-003	3.7980831E-006	2.6768239E+000	2.5671926E+000	1.000000000000000E+000	13	9.2025623E-003	1.7569434E-006	3.8637278E-005	1.8696845E-004	1.9091893E-004	7.8324104E+001
7.8281527E+000	1.5330663E+003	7.1959873E+003	7.3574810E+003	-7.7973251E+001	1.715925534834969E+001	-7.4546724E-003	5.3636376E-007	2.8253384E+000	2.7026694E+000	1.000000000000000E+000	13	9.2037851E-003	1.2509424E-006	2.8320605E-005	1.3293278E-004	1.3591608E-004	7.7973251E+001
5.2930207E+000	2.2079153E+003	1.0119059E+004	1.0357135E+004	-7.7691330E+001	1.842274722171715E+001	-7.4483412E-003	-9.5224510E-007	2.9715047E+000	2.8364646E+000	1.000000000000000E+000	14	9.2088906E-003	8.8913498E-007	2.0582742E-005	9.4332390E-005	9.6551797E-005	7.7691330E+001
3.5755143E+000	3.1472786E+003	1.4153068E+004	1.4498783E+004	-7.7462891E+001	1.963727799933986E+001	-7.4414192E-003	3.3110499E-008	3.1450751E+000	2.9968784E+000	1.000000000000000E+000	14	9.1998391E-003	6.3452489E-007	1.4971732E-005	6.7326728E-005	6.8971305E-005	7.7462891E+001
2.4172332E+000	4.5250894E+003	1.9792143E+004	2.0302840E+004	-7.7121773E+001	2.141451451045577E+001	-7.4383980E-003	1.9028876E-006	3.3266625E+000	3.1614099E+000	1.000000000000000E+000	14	9.2022195E-003	4.5324791E-007	1.0977759E-005	4.8015252E-005	4.9254195E-005	7.7121773E+001
1.6327059E+000	6.4212480E+003	2.7577467E+004	2.8315174E+004	-7.6892570E+001	2.402540074111312E+001	-7.4425996E-003	5.8410382E-007	3.5347426E+000	3.3529577E+000	1.000000000000000E+000	14	9.2013748E-003	3.2496268E-007	8.0090485E-006	3.4396631E-005	3.5316752E-005	7.6892570E+001
1.1020596E+000	8.9804385E+003	3.8567828E+004	3.9599566E+004	-7.6892357E+001	2.787441332396702E+001	-7.4447533E-003	5.3297765E-007	3.7444658E+000	3.5518889E+000	1.000000000000000E+000	14	9.2000710E-003	2.3232758E-007	5.7268617E-006	2.4594859E-005	2.5252803E-005	7.6892357E+001
7.4560940E-001	1.2656399E+004	5.3815316E+004	5.5283566E+004	-7.6765564E+001	3.354616167335189E+001	-7.4446290E-003	9.8798444E-007	3.9664578E+000	3.7585692E+000	1.000000000000000E+000	14	9.1989953E-003	1.6639656E-007	4.1411217E-006	1.7608152E-005	1.8088558E-005	7.6765564E+001
5.0390220E-001	1.7899930E+004	7.5206656E+004	7.7307492E+004	-7.6612129E+001	4.192199220453040E+001	-7.4451021E-003	1.0111453E-006	4.1996932E+000	3.9745409E+000	1.000000000000000E+000	14	9.2010088E-003	1.1901833E-007	2.9950779E-006	1.2583837E-005	1.2935357E-005	7.6612129E+001
3.4010270E-001	2.5269072E+004	1.0479804E+005	1.0780146E+005	-7.6443520E+001	5.431545201982954E+001	-7.4427240E-003	8.8483660E-007	4.4653640E+000	4.2200141E+000	1.000000000000000E+000	14	9.2008514E-003	8.5349967E-008	2.1744027E-006	9.0178673E-006	9.2763121E-006	7.6443520E+001
2.3021273E-001	3.5305883E+004	1.4583398E+005	1.5004684E+005	-7.6390747E+001	7.260873558207823E+001	-7.4451556E-003	7.2748998E-007	4.7405858E+000	4.4781208E+000	1.000000000000000E+000	14	9.1991276E-003	6.1308370E-008	1.5681708E-006	6.4774640E-006	6.6645853E-006	7.6390747E+001
1.5547264E-001	5.0001801E+004	2.0293728E+005	2.0900650E+005	-7.6158569E+001	9.967992337455507E+001	-7.4440553E-003	7.6080431E-007	5.0443401E+000	4.7556338E+000	1.000000000000000E+000	14	9.1988826E-003	4.4012424E-008	1.1446324E-006	4.6456043E-006	4.7845401E-006	7.6158569E+001
1.0504906E-001	7.0129555E+004	2.8262638E+005	2.9119722E+005	-7.6064362E+001	1.397293673034583E+002	-7.4482798E-003	7.7184342E-007	5.3606234E+000	5.0497074E+000	1.000000000000000E+000	14	9.2004538E-003	3.1595267E-008	8.2704014E-007	3.3330225E-006	3.4340987E-006	7.6064362E+001
7.1022727E-002	9.7788242E+004	3.9128606E+005	4.0332038E+005	-7.5968346E+001	1.989501674229687E+002	-7.4424320E-003	1.1017526E-006	5.7270164E+000	5.3903484E+000	1.000000000000000E+000	14	9.1982018E-003	2.2806192E-008	6.0115468E-007	2.4054375E-006	2.4794185E-006	7.5968346E+001
4.7988325E-002	1.3756920E+005	5.4481769E+005	5.6191781E+005	-7.5828751E+001	2.865809837718552E+002	-7.4501541E-003	1.0645723E-006	6.0874205E+000	5.7225571E+000	1.000000000000000E+000	14	9.1998605E-003	1.6372253E-008	4.3568807E-007	1.7254629E-006	1.7796197E-006	7.5828751E+001
3.2443926E-002	1.9064088E+005	7.5981944E+005	7.8337063E+005	-7.5915077E+001	4.161811418742000E+002	-7.4463831E-003	4.1667636E-007	6.4561901E+000	6.0738292E+000	1.000000000000000E+000	14	9.1983341E-003	1.1741995E-008	3.1065727E-007	1.2381573E-006	1.2765349E-006	7.5915077E+001
2.1920588E-002	2.6693106E+005	1.0644299E+006	1.0973893E+006	-7.5922043E+001	6.079819393042708E+002	-7.4522272E-003	3.1724781E-007	6.8210444E+000	6.4174662E+000	1.000000000000000E+000	14	9.2019681E-003	8.3853271E-009	2.2165504E-007	8.8388475E-007	9.1125366E-007	7.5922043E+001
1.4807615E-002	3.8718538E+005	1.4913924E+006	1.5408321E+006	-7.5446533E+001	8.919002083362720E+002	-7.4513759E-003	-1.5739639E-007	7.2068100E+000	6.7517490E+000	1.000000000000000E+000	14	9.2000393E-003	5.9708252E-009	1.6308287E-007	6.2817588E-007	6.4899996E-007	7.5446533E+001
1.0000636E-002	5.6301063E+005	2.0792828E+006	2.1541583E+006	-7.4849228E+001	1.312272708089633E+003	-7.4531413E-003	-2.8731492E-007	7.6538324E+000	7.1310067E+000	1.000000000000000E+000	14	9.1990121E-003	4.2703512E-009	1.2132811E-007	4.4808289E-007	4.6421846E-007	7.4849228E+001