EC-Lab ASCII FILE
Nb header lines : 62                          

Potentio Electrochemical Impedance Spectroscopy

Run on channel : 1 (SN 35512)
User : 
CE vs. WE compliance from -10 V to 10 V
Electrode connection : standard
Ewe ctrl range : min = -5.00 V, max = 5.00 V
Safety Limits :
	Do not start on E overload
Acquisition started on : 06/21/2023 16:20:26
Technique started on : 06/21/2023 16:20:28
Saved on :
	File : 0614_01_EIS_0.5MTFSI_Blocking_Remelt_Initial_Test_6_21_23_C01.mpr
	Directory : C:\Users\CESL\Documents\EC-Lab\Data\PhD\Leifer\Results\Zn Ion GPE\2023\0614\
	Host : 10.110.196.171
Device : VSP (SN 172417241724)
Address : USB
EC-Lab for windows v11.16 (software)
Internet server v11.16 (firmware)
Command interpretor v11.16 (firmware)
Electrode material : Au/Pd
Initial state : 
Electrolyte : NaCl (0.2M)
Comments : Fe(CN)63-/Fe(CN)64- 5.10-3 M
Reference electrode : SCE Saturated Calomel Electrode (0.241 V)
Electrode surface area : 0.001 cm²
Characteristic mass : 0.001 g
Equivalent Weight : 0.000 g/eq.
Density : 0.000 g/cm3
Cycle Definition : Charge/Discharge alternance
Mode                Single sine         
E (V)               0.0000              
vs.                 Eoc                 
tE (h:m:s)          0:00:0.0000         
record              0                   
dI                  0.000               
unit dI             mA                  
dt (s)              0.000               
fi                  1.000               
unit fi             MHz                 
ff                  10.000              
unit ff             mHz                 
Nd                  6                   
Points              per decade          
spacing             Logarithmic         
Va (mV)             10.0                
pw                  0.10                
Na                  2                   
corr                1                   
E range min (V)     -5.000              
E range max (V)     5.000               
I Range             Auto                
Bandwidth           5                   
nc cycles           0                   
goto Ns'            0                   
nr cycles           0                   
inc. cycle          0                   

freq/Hz	Re(Z)/Ohm	-Im(Z)/Ohm	|Z|/Ohm	Phase(Z)/deg	time/s	<Ewe>/V	<I>/mA	Cs/µF	Cp/µF	cycle number	I Range	|Ewe|/V	|I|/A	Re(Y)/Ohm-1	Im(Y)/Ohm-1	|Y|/Ohm-1	Phase(Y)/deg	
1.0000193E+006	8.4961708E+001	1.2563015E+001	8.5885513E+001	-8.4111938E+000	2.488092811516253E+000	-9.0407565E-002	-1.1915407E-003	1.2668287E-002	2.7106024E-004	1.000000000000000E+000	11	4.0145844E-004	4.6743439E-006	1.1518168E-002	1.7031545E-003	1.1643407E-002	8.4111938E+000
6.7575181E+005	6.5087326E+001	-4.8757650E-002	6.5087341E+001	4.2920910E-002	2.897076270950492E+000	-9.0956822E-002	2.7532311E-004	-4.8304782E+000	-2.7107071E-006	1.000000000000000E+000	11	1.9660676E-003	3.0206604E-005	1.5363966E-002	-1.1509322E-005	1.5363971E-002	-4.2920910E-002
4.5664050E+005	3.5403126E+001	-1.5682724E-001	3.5403473E+001	2.5380471E-001	3.306084423704306E+000	-9.0859085E-002	2.6134422E-004	-2.2224100E+000	-4.3608932E-005	1.000000000000000E+000	11	6.0426942E-003	1.7068084E-004	2.8245538E-002	-1.2512087E-004	2.8245816E-002	-2.5380471E-001
3.0857416E+005	2.9234680E+001	8.6147016E-001	2.9247370E+001	-1.6878695E+000	4.009085737081477E+000	-9.1046847E-002	1.1005230E-002	5.9871525E-001	5.1943021E-004	1.000000000000000E+000	10	9.0924753E-003	3.1088182E-004	3.4176275E-002	1.0070861E-003	3.4191109E-002	1.6878695E+000
2.0852534E+005	2.7113585E+001	1.0596808E+000	2.7134285E+001	-2.2381530E+000	4.550079682783689E+000	-9.1056228E-002	1.0736712E-002	7.2025490E-001	1.0984988E-003	1.000000000000000E+000	10	1.0134887E-002	3.7350852E-004	3.6825631E-002	1.4392568E-003	3.6853746E-002	2.2381530E+000
1.4090817E+005	2.6366369E+001	1.3255708E+000	2.6399670E+001	-2.8781257E+000	5.091091015114216E+000	-9.1065012E-002	1.0235097E-002	8.5208124E-001	2.1482753E-003	1.000000000000000E+000	10	1.0123909E-002	3.8348619E-004	3.7831482E-002	1.9019801E-003	3.7879262E-002	2.8781257E+000
9.5214820E+004	2.6011028E+001	1.7758188E+000	2.6071577E+001	-3.9056234E+000	5.500079407909652E+000	-9.1048583E-002	1.0337658E-002	9.4127584E-001	4.3669641E-003	1.000000000000000E+000	10	1.0644365E-002	4.0827470E-004	3.8266867E-002	2.6125466E-003	3.8355947E-002	3.9056234E+000
6.4345688E+004	2.5922234E+001	2.4313092E+000	2.6036003E+001	-5.3582349E+000	5.909092840651283E+000	-9.1077022E-002	1.0634151E-002	1.0173268E+000	8.8714017E-003	1.000000000000000E+000	10	1.0459897E-002	4.0174741E-004	3.8240522E-002	3.5866713E-003	3.8408354E-002	5.3582349E+000
4.3476547E+004	2.6058170E+001	3.3199914E+000	2.6268814E+001	-7.2607608E+000	6.317097553372150E+000	-9.1060571E-002	1.1247647E-002	1.1026258E+000	1.7612506E-002	1.000000000000000E+000	10	1.0353465E-002	3.9413522E-004	3.7762698E-002	4.8112292E-003	3.8067956E-002	7.2607608E+000
2.9384758E+004	2.6286007E+001	4.6221681E+000	2.6689297E+001	-9.9730158E+000	6.726090959477006E+000	-9.1069765E-002	1.1089141E-002	1.1717967E+000	3.5145480E-002	1.000000000000000E+000	10	1.0222766E-002	3.8302867E-004	3.6902037E-002	6.4889062E-003	3.7468202E-002	9.9730158E+000
1.9853508E+004	2.6583620E+001	6.4459758E+000	2.7353966E+001	-1.3629971E+001	7.135095218865899E+000	-9.1064245E-002	9.9460604E-003	1.2436388E+000	6.9060698E-002	1.000000000000000E+000	10	1.0023676E-002	3.6644324E-004	3.5528228E-002	8.6148567E-003	3.6557771E-002	1.3629971E+001
1.3417967E+004	2.7017378E+001	9.1288958E+000	2.8517984E+001	-1.8669584E+001	7.412078405381180E+000	-9.1045111E-002	1.1711962E-002	1.2993171E+000	1.3314168E-001	1.000000000000000E+000	10	1.0431863E-002	3.6579947E-004	3.3220451E-002	1.1224850E-002	3.5065591E-002	1.8669584E+001
9.0820293E+003	2.7558708E+001	1.2920643E+001	3.0437237E+001	-2.5119093E+001	7.709335406165337E+000	-9.1064453E-002	1.0059809E-002	1.3562918E+000	2.4440546E-001	1.000000000000000E+000	10	1.0578641E-002	3.4755588E-004	2.9747358E-002	1.3946771E-002	3.2854494E-002	2.5119093E+001
6.1409590E+003	2.8283854E+001	1.8321844E+001	3.3699650E+001	-3.2934544E+001	8.112632572021539E+000	-9.1078192E-002	7.7307583E-003	1.4145384E+000	4.1812134E-001	1.000000000000000E+000	10	1.0623896E-002	3.1525240E-004	2.4905073E-002	1.6133122E-002	2.9673899E-002	3.2934544E+001
4.1413242E+003	2.9470842E+001	2.6226555E+001	3.9450764E+001	-4.1666378E+001	9.053674830051023E+000	-9.1073066E-002	1.2462734E-003	1.4653443E+000	6.4760667E-001	1.000000000000000E+000	11	1.0240180E-002	2.5956862E-004	1.8935716E-002	1.6851185E-002	2.5348052E-002	4.1666378E+001
2.7973140E+003	3.0951582E+001	3.7540932E+001	4.8655132E+001	-5.0495251E+001	9.519960318837548E+000	-9.1068275E-002	1.2043258E-003	1.5155625E+000	9.0224946E-001	1.000000000000000E+000	11	9.9225016E-003	2.0393536E-004	1.3074514E-002	1.5857974E-002	2.0552816E-002	5.0495251E+001
1.8906046E+003	3.3183914E+001	5.3732304E+001	6.3153248E+001	-5.8301414E+001	9.984666740936518E+000	-9.1070659E-002	1.2583898E-003	1.5666932E+000	1.1341317E+000	1.000000000000000E+000	11	9.6229026E-003	1.5237383E-004	8.3202478E-003	1.3472374E-002	1.5834499E-002	5.8301414E+001
1.2871166E+003	3.6210171E+001	7.6434868E+001	8.4578163E+001	-6.4651268E+001	1.045118804308004E+001	-9.1068551E-002	1.1476470E-003	1.6177475E+000	1.3212265E+000	1.000000000000000E+000	11	9.4221542E-003	1.1140174E-004	5.0619054E-003	1.0685013E-002	1.1823383E-002	6.4651268E+001
8.6306641E+002	4.0828125E+001	1.1013451E+002	1.1745869E+002	-6.9659676E+001	1.091817531854031E+001	-9.1074705E-002	1.1620015E-003	1.6743742E+000	1.4720718E+000	1.000000000000000E+000	11	9.3135769E-003	7.9292360E-005	2.9593012E-003	7.9827597E-003	8.5136313E-003	6.9659676E+001
5.8369244E+002	4.7404087E+001	1.5740034E+002	1.6438374E+002	-7.3239334E+001	1.138521163407131E+001	-9.1075882E-002	1.0922748E-003	1.7323291E+000	1.5882689E+000	1.000000000000000E+000	11	9.2491517E-003	5.6265610E-005	1.7542763E-003	5.8248928E-003	6.0833264E-003	7.3239334E+001
3.9411707E+002	5.7243347E+001	2.2531226E+002	2.3247025E+002	-7.5744904E+001	1.185220216293237E+001	-9.1068625E-002	1.0779187E-003	1.7922975E+000	1.6836234E+000	1.000000000000000E+000	11	9.2309834E-003	3.9708237E-005	1.0592302E-003	4.1691745E-003	4.3016258E-003	7.5744904E+001
2.6644943E+002	7.2117371E+001	3.2296271E+002	3.3091666E+002	-7.7412392E+001	1.256764563695833E+001	-9.1075972E-002	7.4300006E-005	1.8494941E+000	1.7616534E+000	1.000000000000000E+000	12	9.3235336E-003	2.8174869E-005	6.5857120E-004	2.9492741E-003	3.0219089E-003	7.7412392E+001
1.8005759E+002	9.4111145E+001	4.6135477E+002	4.7085574E+002	-7.8470490E+001	1.303269099237514E+001	-9.1070123E-002	6.0536164E-005	1.9159037E+000	1.8393652E+000	1.000000000000000E+000	12	9.2590330E-003	1.9664267E-005	4.2448801E-004	2.0809385E-003	2.1237927E-003	7.8470490E+001
1.2159529E+002	1.2785294E+002	6.5854120E+002	6.7083746E+002	-7.9012955E+001	1.349311672089971E+001	-9.1070212E-002	6.5217100E-005	1.9875609E+000	1.9153657E+000	1.000000000000000E+000	12	9.2295706E-003	1.3758282E-005	2.8410315E-004	1.4633505E-003	1.4906741E-003	7.9012955E+001
8.2236801E+001	1.7748280E+002	9.3363916E+002	9.5035901E+002	-7.9236618E+001	1.394828738245997E+001	-9.1073029E-002	4.1885847E-005	2.0728834E+000	2.0005877E+000	1.000000000000000E+000	12	9.2136692E-003	9.6949352E-006	1.9650836E-004	1.0337218E-003	1.0522340E-003	7.9236618E+001
5.5515171E+001	2.5217894E+002	1.3276267E+003	1.3513649E+003	-7.9244957E+001	1.440987601777306E+001	-9.1072470E-002	4.4049146E-005	2.1593969E+000	2.0841990E+000	1.000000000000000E+000	12	9.1985594E-003	6.8068657E-006	1.3809040E-004	7.2699389E-004	7.3999260E-004	7.9244957E+001
3.7560089E+001	3.5684738E+002	1.8848798E+003	1.9183617E+003	-7.9279587E+001	1.516676642706443E+001	-9.1063045E-002	5.4215534E-006	2.2480702E+000	2.1702821E+000	1.000000000000000E+000	13	9.2320805E-003	4.8124816E-006	9.6966432E-005	5.1218004E-004	5.2127813E-004	7.9279587E+001
2.5365252E+001	5.1214716E+002	2.6640432E+003	2.7128252E+003	-7.9117973E+001	1.562587023552624E+001	-9.1072410E-002	5.4317811E-006	2.3552647E+000	2.2713215E+000	1.000000000000000E+000	13	9.2146257E-003	3.3966899E-006	6.9590700E-005	3.6199088E-004	3.6861940E-004	7.9117973E+001
1.7132671E+001	7.2955969E+002	3.7494277E+003	3.8197468E+003	-7.8989037E+001	1.603982049519254E+001	-9.1072969E-002	3.0372214E-006	2.4775934E+000	2.3872113E+000	1.000000000000000E+000	13	9.2066564E-003	2.4102792E-006	5.0002483E-005	2.5697795E-004	2.6179745E-004	7.8989037E+001
1.1591243E+001	1.0461003E+003	5.2845488E+003	5.3870942E+003	-7.8802803E+001	1.644925830126158E+001	-9.1076851E-002	-1.0189448E-006	2.5982575E+000	2.5002816E+000	1.000000000000000E+000	13	9.1931829E-003	1.7065198E-006	3.6046586E-005	1.8209532E-004	1.8562883E-004	7.8802803E+001
7.8281527E+000	1.5351270E+003	7.4575239E+003	7.6138872E+003	-7.8368179E+001	1.703025766220526E+001	-9.1064624E-002	-4.1818244E-006	2.7262530E+000	2.6154270E+000	1.000000000000000E+000	13	9.1973236E-003	1.2079669E-006	2.6480811E-005	1.2864170E-004	1.3133895E-004	7.8368179E+001
5.2930207E+000	2.2628257E+003	1.0475034E+004	1.0716656E+004	-7.7810226E+001	1.829373198891699E+001	-9.1062754E-002	-2.7286806E-006	2.8705235E+000	2.7425425E+000	1.000000000000000E+000	14	9.2079677E-003	8.5922022E-007	1.9703006E-005	9.1208822E-005	9.3312687E-005	7.7810226E+001
3.5755143E+000	3.1701538E+003	1.4654102E+004	1.4993084E+004	-7.7793182E+001	1.950827361989650E+001	-9.1066778E-002	-5.5569380E-006	3.0375431E+000	2.9017425E+000	1.000000000000000E+000	14	9.2013106E-003	6.1370366E-007	1.4102575E-005	6.5189437E-005	6.6697416E-005	7.7793182E+001
2.4172332E+000	4.5133242E+003	2.0549744E+004	2.1039537E+004	-7.7612846E+001	2.128562570437316E+001	-9.1060944E-002	-4.8304400E-006	3.2040195E+000	3.0565791E+000	1.000000000000000E+000	14	9.1980640E-003	4.3717998E-007	1.0195869E-005	4.6423094E-005	4.7529564E-005	7.7612846E+001
1.6327059E+000	6.4780010E+003	2.8717391E+004	2.9438971E+004	-7.7288116E+001	2.389520036158501E+001	-9.1061831E-002	-4.4410676E-006	3.3944328E+000	3.2300699E+000	1.000000000000000E+000	14	9.1953902E-003	3.1235433E-007	7.4747359E-006	3.3135973E-005	3.3968579E-005	7.7288116E+001
1.1020596E+000	9.1669697E+003	4.0227715E+004	4.1258969E+004	-7.7162819E+001	2.774550902450574E+001	-9.1061287E-002	-4.5344195E-006	3.5899606E+000	3.4127438E+000	1.000000000000000E+000	14	9.1971736E-003	2.2291333E-007	5.3850417E-006	2.3631357E-005	2.4237155E-005	7.7162819E+001
7.4560940E-001	1.3018763E+004	5.6146484E+004	5.7636063E+004	-7.6945442E+001	3.341791350726271E+001	-9.1059655E-002	-4.1832445E-006	3.8017728E+000	3.6078022E+000	1.000000000000000E+000	14	9.1978395E-003	1.5958480E-007	3.9190527E-006	1.6901839E-005	1.7350249E-005	7.6945442E+001
5.0390220E-001	1.8289988E+004	7.8512039E+004	8.0614289E+004	-7.6886391E+001	4.179362811845203E+001	-9.1057345E-002	-4.1108246E-006	4.0228848E+000	3.8158040E+000	1.000000000000000E+000	14	9.1972323E-003	1.1408936E-007	2.8144220E-006	1.2081258E-005	1.2404748E-005	7.6886391E+001
3.4010270E-001	2.6265916E+004	1.0928382E+005	1.1239596E+005	-7.6485527E+001	5.418706620042212E+001	-9.1063716E-002	-4.0142636E-006	4.2820740E+000	4.0482235E+000	1.000000000000000E+000	14	9.1988193E-003	8.1842970E-008	2.0791758E-006	8.6507634E-006	8.8971165E-006	7.6485527E+001
2.3021273E-001	3.7284977E+004	1.5229789E+005	1.5679547E+005	-7.6243637E+001	7.248034080260550E+001	-9.1058567E-002	-3.7003385E-006	4.5393839E+000	4.2827001E+000	1.000000000000000E+000	14	9.1976495E-003	5.8660177E-008	1.5165856E-006	6.1947940E-006	6.3777352E-006	7.6243637E+001
1.5547264E-001	5.4074605E+004	2.1166736E+005	2.1846541E+005	-7.5669182E+001	9.955155214175466E+001	-9.1059864E-002	-3.6205126E-006	4.8362894E+000	4.5399880E+000	1.000000000000000E+000	14	9.1988668E-003	4.2106745E-008	1.1329948E-006	4.4349481E-006	4.5773836E-006	7.5669182E+001
1.0504906E-001	7.6143078E+004	2.9458472E+005	3.0426622E+005	-7.5507607E+001	1.396010074573569E+002	-9.1057748E-002	-3.3856600E-006	5.1430149E+000	4.8209286E+000	1.000000000000000E+000	14	9.1967769E-003	3.0226087E-008	8.2247539E-007	3.1820189E-006	3.2865955E-006	7.5507607E+001
7.1022727E-002	1.0557266E+005	4.0739575E+005	4.2085256E+005	-7.5471931E+001	1.988218011235440E+002	-9.1059715E-002	-3.7228021E-006	5.5005527E+000	5.1544147E+000	1.000000000000000E+000	14	9.1968412E-003	2.1852882E-008	5.9606208E-007	2.3001519E-006	2.3761290E-006	7.5471931E+001
4.7988325E-002	1.5347497E+005	5.6476931E+005	5.8525119E+005	-7.4797112E+001	2.864525346990849E+002	-9.1061167E-002	-2.5723546E-006	5.8723707E+000	5.4685354E+000	1.000000000000000E+000	14	9.1971653E-003	1.5714903E-008	4.4807740E-007	1.6488702E-006	1.7086680E-006	7.4797112E+001
3.2443926E-002	2.1313739E+005	7.8659225E+005	8.1495700E+005	-7.4839012E+001	4.160516110679891E+002	-9.1063000E-002	-2.7626725E-006	6.2364445E+000	5.8098779E+000	1.000000000000000E+000	14	9.1982409E-003	1.1286780E-008	3.2091515E-007	1.1843506E-006	1.2270586E-006	7.4839012E+001
2.1920588E-002	2.9412316E+005	1.1019106E+006	1.1404891E+006	-7.5054977E+001	6.078525362314249E+002	-9.1059648E-002	-1.7868966E-006	6.5890307E+000	6.1508055E+000	1.000000000000000E+000	14	9.1976169E-003	8.0646245E-009	2.2612411E-007	8.4715737E-007	8.7681678E-007	7.5054977E+001
1.4807615E-002	4.1810625E+005	1.5265389E+006	1.5827615E+006	-7.4682808E+001	8.917708076901909E+002	-9.1065928E-002	-9.7826739E-007	7.0408835E+000	6.5495567E+000	1.000000000000000E+000	14	9.1950400E-003	5.8094920E-009	1.6689974E-007	6.0936424E-007	6.3180715E-007	7.4682808E+001
1.0000636E-002	6.0179769E+005	2.1070118E+006	2.1912688E+006	-7.4059776E+001	1.312143261896766E+003	-9.1071963E-002	-6.1244134E-007	7.5531054E+000	6.9834204E+000	1.000000000000000E+000	14	9.1965832E-003	4.1969215E-009	1.2533120E-007	4.3880914E-007	4.5635662E-007	7.4059776E+001