EC-Lab ASCII FILE
Nb header lines : 62                          

Potentio Electrochemical Impedance Spectroscopy

Run on channel : 1 (SN 35512)
User : 
CE vs. WE compliance from -10 V to 10 V
Electrode connection : standard
Ewe ctrl range : min = -5.00 V, max = 5.00 V
Safety Limits :
	Do not start on E overload
Acquisition started on : 06/14/2023 16:49:57
Technique started on : 06/14/2023 16:49:59
Saved on :
	File : 0614_01_EIS_0.5MTFSI_Blocking_C01.mpr
	Directory : C:\Users\CESL\Documents\EC-Lab\Data\PhD\Leifer\Results\Zn Ion GPE\2023\0614\
	Host : 10.110.196.171
Device : VSP (SN 1724)
Address : USB
EC-Lab for windows v11.16 (software)
Internet server v11.16 (firmware)
Command interpretor v11.16 (firmware)
Electrode material : Au/Pd
Initial state : 
Electrolyte : NaCl (0.2M)
Comments : Fe(CN)63-/Fe(CN)64- 5.10-3 M
Reference electrode : SCE Saturated Calomel Electrode (0.241 V)
Electrode surface area : 0.001 cm²
Characteristic mass : 0.001 g
Equivalent Weight : 0.000 g/eq.
Density : 0.000 g/cm3
Cycle Definition : Charge/Discharge alternance
Mode                Single sine         
E (V)               0.0000              
vs.                 Eoc                 
tE (h:m:s)          0:00:0.0000         
record              0                   
dI                  0.000               
unit dI             mA                  
dt (s)              0.000               
fi                  1.000               
unit fi             MHz                 
ff                  10.000              
unit ff             mHz                 
Nd                  6                   
Points              per decade          
spacing             Logarithmic         
Va (mV)             10.0                
pw                  0.10                
Na                  2                   
corr                1                   
E range min (V)     -5.000              
E range max (V)     5.000               
I Range             Auto                
Bandwidth           5                   
nc cycles           0                   
goto Ns'            0                   
nr cycles           0                   
inc. cycle          0                   

freq/Hz	Re(Z)/Ohm	-Im(Z)/Ohm	|Z|/Ohm	Phase(Z)/deg	time/s	<Ewe>/V	<I>/mA	Cs/µF	Cp/µF	cycle number	I Range	|Ewe|/V	|I|/A	Re(Y)/Ohm-1	Im(Y)/Ohm-1	|Y|/Ohm-1	Phase(Y)/deg	
1.0000193E+006	-1.5567081E+002	-1.1225842E+002	1.9192538E+002	1.4420361E+002	2.488085931516252E+000	9.0421490E-002	-2.2320317E-004	-1.4177278E-003	-4.8502689E-004	1.000000000000000E+000	11	7.7929167E-004	4.0603886E-006	-4.2261253E-003	-3.0475724E-003	5.2103582E-003	-1.4420361E+002
6.7575181E+005	4.8886337E+001	-4.5292244E+000	4.9095699E+001	5.2932329E+000	2.897091230930528E+000	8.9849427E-002	-2.3065839E-004	-5.2000683E-002	-4.4255762E-004	1.000000000000000E+000	11	1.5980075E-003	3.2548829E-005	2.0281523E-002	-1.8790440E-003	2.0368382E-002	-5.2932329E+000
4.5664050E+005	1.5492548E+001	-1.1307673E+000	1.5533759E+001	4.1744919E+000	4.188091692252783E+000	8.9877173E-002	5.8641699E-003	-3.0822825E-001	-1.6332994E-003	1.000000000000000E+000	10	5.2144034E-003	3.3568201E-004	6.4205125E-002	-4.6861921E-003	6.4375915E-002	-4.1744919E+000
3.0857416E+005	1.0971726E+001	1.2149318E-001	1.0972399E+001	-6.3442725E-001	4.597080351668410E+000	8.9701049E-002	7.8967419E-003	4.2453027E+000	5.2048633E-004	1.000000000000000E+000	10	9.9204872E-003	9.0413110E-004	9.1132186E-002	1.0091338E-003	9.1137774E-002	6.3442725E-001
2.0852534E+005	9.6705179E+000	7.0601434E-001	9.6962557E+000	-4.1755781E+000	5.138091284054099E+000	8.9639626E-002	7.6916227E-003	1.0810549E+000	5.7314788E-003	1.000000000000000E+000	10	1.0158425E-002	1.0476648E-003	1.0285883E-001	7.5094029E-003	1.0313259E-001	4.1755781E+000
1.4090817E+005	9.2897749E+000	1.1686492E+000	9.3629942E+000	-7.1701159E+000	5.679086216405267E+000	8.9662209E-002	9.4164992E-003	9.6649539E-001	1.5057006E-002	1.000000000000000E+000	10	1.0151795E-002	1.0842467E-003	1.0596823E-001	1.3330752E-002	1.0680344E-001	7.1701159E+000
9.5214820E+004	9.2091608E+000	1.6892412E+000	9.3628082E+000	-1.0394245E+001	6.088097969157388E+000	8.9687809E-002	8.7414645E-003	9.8951846E-001	3.2210317E-002	1.000000000000000E+000	10	1.0915562E-002	1.1658428E-003	1.0505284E-001	1.9269897E-002	1.0680556E-001	1.0394245E+001
6.4345688E+004	9.2455730E+000	2.3636529E+000	9.5429277E+000	-1.4340645E+001	6.497080841916613E+000	8.9678876E-002	8.7470599E-003	1.0464463E+000	6.4197943E-002	1.000000000000000E+000	10	1.0802723E-002	1.1320134E-003	1.0152443E-001	2.5954966E-002	1.0478964E-001	1.4340645E+001
4.3476547E+004	9.3934498E+000	3.3095465E+000	9.9594173E+000	-1.9408632E+001	6.906092274672119E+000	8.9677103E-002	8.6668767E-003	1.1061057E+000	1.2214220E-001	1.000000000000000E+000	10	1.0618567E-002	1.0661836E-003	9.4701588E-002	3.3365730E-002	1.0040748E-001	1.9408632E+001
2.9384758E+004	9.6550083E+000	4.6410756E+000	1.0712552E+001	-2.5673176E+001	7.315099387458758E+000	8.9686371E-002	8.9503108E-003	1.1670229E+000	2.1904370E-001	1.000000000000000E+000	10	1.0518460E-002	9.8188175E-004	8.4133074E-002	4.0442012E-002	9.3348436E-002	2.5673176E+001
1.9853508E+004	1.0022741E+001	6.4957342E+000	1.1943614E+001	-3.2947254E+001	7.724091300187865E+000	8.9669757E-002	7.0949020E-003	1.2341121E+000	3.6503929E-001	1.000000000000000E+000	10	1.0317349E-002	8.6383813E-004	7.0261113E-002	4.5536194E-002	8.3726749E-002	3.2947254E+001
1.3417967E+004	1.0531569E+001	9.0893602E+000	1.3911520E+001	-4.0796116E+001	8.133094999619061E+000	8.9683406E-002	8.1857629E-003	1.3049687E+000	5.5708003E-001	1.000000000000000E+000	10	1.0100845E-002	7.2607776E-004	5.4418165E-002	4.6966061E-002	7.1882874E-002	4.0796116E+001
9.0820293E+003	1.1199060E+001	1.2754836E+001	1.6973650E+001	-4.8716072E+001	8.430328853748506E+000	8.9683071E-002	8.8607948E-003	1.3739228E+000	7.7582115E-001	1.000000000000000E+000	10	9.9585978E-003	5.8670930E-004	3.8871482E-002	4.4271518E-002	5.8914848E-002	4.8716072E+001
6.1409590E+003	1.2042454E+001	1.7977940E+001	2.1638554E+001	-5.6183998E+001	8.833630259601705E+000	8.9694723E-002	8.9241918E-003	1.4415975E+000	9.9510151E-001	1.000000000000000E+000	10	9.6337171E-003	4.4521078E-004	2.5719265E-002	3.8395777E-002	4.6213809E-002	5.6183998E+001
4.1413242E+003	1.3242384E+001	2.5514156E+001	2.8746006E+001	-6.2569736E+001	9.298672868353606E+000	8.9741528E-002	1.1012687E-002	1.5062592E+000	1.1866075E+000	1.000000000000000E+000	10	9.3874922E-003	3.2656683E-004	1.6025485E-002	3.0876366E-002	3.4787443E-002	6.2569736E+001
2.7973140E+003	1.5016969E+001	3.6423779E+001	3.9397984E+001	-6.7594391E+001	1.001694631579448E+001	8.9705750E-002	1.0301966E-003	1.5620463E+000	1.3351065E+000	1.000000000000000E+000	11	1.0275624E-002	2.6081598E-004	9.6746292E-003	2.3465890E-002	2.5382010E-002	6.7594391E+001
1.8906046E+003	1.7537882E+001	5.1861492E+001	5.4746613E+001	-7.1316124E+001	1.048170015121286E+001	8.9708805E-002	9.9179032E-004	1.6232089E+000	1.4566323E+000	1.000000000000000E+000	11	9.6492171E-003	1.7625232E-004	5.8514383E-003	1.7303362E-002	1.8265970E-002	7.1316124E+001
1.2871166E+003	2.1164324E+001	7.3328064E+001	7.6321251E+001	-7.3900528E+001	1.094819803998689E+001	8.9708284E-002	9.7295851E-004	1.6862891E+000	1.5566161E+000	1.000000000000000E+000	11	9.3510747E-003	1.2252256E-004	3.6334023E-003	1.2588653E-002	1.3102511E-002	7.3900528E+001
8.6306641E+002	2.6638313E+001	1.0485388E+002	1.0818473E+002	-7.5745476E+001	1.141519787549623E+001	8.9712948E-002	8.6985988E-004	1.7586986E+000	1.6520702E+000	1.000000000000000E+000	11	9.1949496E-003	8.4993044E-005	2.2760127E-003	8.9588556E-003	9.2434483E-003	7.5745476E+001
5.8369244E+002	3.4991508E+001	1.4891920E+002	1.5297495E+002	-7.6777092E+001	1.188218203102588E+001	8.9706510E-002	8.4394484E-004	1.8309873E+000	1.7351865E+000	1.000000000000000E+000	11	9.1349334E-003	5.9715228E-005	1.4952783E-003	6.3637057E-003	6.5370183E-003	7.6777092E+001
3.9411707E+002	4.7503811E+001	2.1060355E+002	2.1589458E+002	-7.7289063E+001	1.234921754655079E+001	8.9712441E-002	8.8775629E-004	1.9174728E+000	1.8246397E+000	1.000000000000000E+000	11	9.0979328E-003	4.2140626E-005	1.0191661E-003	4.5183748E-003	4.6318904E-003	7.7289063E+001
2.6644943E+002	6.6751221E+001	2.9996024E+002	3.0729770E+002	-7.7454193E+001	1.306465867389852E+001	8.9714438E-002	4.9887152E-005	1.9913226E+000	1.8973629E+000	1.000000000000000E+000	12	9.2101917E-003	2.9971561E-005	7.0687180E-004	3.1764724E-003	3.2541733E-003	7.7454193E+001
1.8005759E+002	9.6755699E+001	4.2261136E+002	4.3354587E+002	-7.7104538E+001	1.352969650931482E+001	8.9715220E-002	4.7667709E-005	2.0915465E+000	1.9873747E+000	1.000000000000000E+000	12	9.1361385E-003	2.1073061E-005	5.1476195E-004	2.2483869E-003	2.3065610E-003	7.7104538E+001
1.2159529E+002	1.4237778E+002	5.9410040E+002	6.1092285E+002	-7.6523087E+001	1.399014693117351E+001	8.9717515E-002	5.7328161E-005	2.2031474E+000	2.0834856E+000	1.000000000000000E+000	12	9.1054924E-003	1.4904488E-005	3.8147785E-004	1.5917949E-003	1.6368679E-003	7.6523087E+001
8.2236801E+001	2.1074921E+002	8.2770923E+002	8.5411816E+002	-7.5715034E+001	1.444532991273445E+001	8.9717552E-002	2.8886829E-005	2.3381703E+000	2.1958153E+000	1.000000000000000E+000	12	9.0824766E-003	1.0633747E-005	2.8888829E-004	1.1345977E-003	1.1707982E-003	7.5715034E+001
5.5515171E+001	3.1750964E+002	1.1446189E+003	1.1878403E+003	-7.4496338E+001	1.490690420137253E+001	8.9716226E-002	6.2661878E-005	2.5046530E+000	2.3256974E+000	1.000000000000000E+000	12	9.0716034E-003	7.6370561E-006	2.2503021E-004	8.1123138E-004	8.4186398E-004	7.4496338E+001
3.7560089E+001	4.6845911E+002	1.5711185E+003	1.6394717E+003	-7.3397041E+001	1.539874502475141E+001	8.9714617E-002	6.8872294E-005	2.6970227E+000	2.4768212E+000	1.000000000000000E+000	12	9.0750055E-003	5.5353230E-006	1.7428654E-004	5.8452238E-004	6.0995261E-004	7.3397041E+001
2.5365252E+001	6.8576526E+002	2.1557083E+003	2.2621565E+003	-7.2353302E+001	1.610786305842339E+001	8.9711137E-002	8.3186524E-006	2.9106567E+000	2.6431735E+000	1.000000000000000E+000	13	9.0841660E-003	4.0157106E-006	1.3400783E-004	4.2125463E-004	4.4205607E-004	7.2353302E+001
1.7132671E+001	9.9634705E+002	2.9165698E+003	3.0820588E+003	-7.1139008E+001	1.652284915812197E+001	8.9705691E-002	1.0603117E-005	3.1850970E+000	2.8522367E+000	1.000000000000000E+000	13	9.0799453E-003	2.9460648E-006	1.0488873E-004	3.0703685E-004	3.2445844E-004	7.1139008E+001
1.1591243E+001	1.4407773E+003	3.9207241E+003	4.1770703E+003	-6.9822762E+001	1.693228995086974E+001	8.9701697E-002	8.9787782E-006	3.5020623E+000	3.0854096E+000	1.000000000000000E+000	13	9.0664998E-003	2.1705403E-006	8.2575898E-005	2.2471017E-004	2.3940224E-004	6.9822762E+001
7.8281527E+000	2.0136804E+003	5.2492915E+003	5.6222744E+003	-6.9012688E+001	1.751429683188326E+001	8.9708723E-002	9.1960173E-006	3.8731129E+000	3.3762722E+000	1.000000000000000E+000	13	9.0680094E-003	1.6128721E-006	6.3703970E-005	1.6606442E-004	1.7786396E-004	6.9012688E+001
5.2930207E+000	2.7854512E+003	6.9918130E+003	7.5262334E+003	-6.8278282E+001	1.835072127163585E+001	8.9708850E-002	1.1834555E-005	4.3005767E+000	3.7115128E+000	1.000000000000000E+000	13	9.0720356E-003	1.2053886E-006	4.9174520E-005	1.2343390E-004	1.3286859E-004	6.8278282E+001
3.5755143E+000	3.7330730E+003	9.3106436E+003	1.0031147E+004	-6.8151840E+001	2.017426925155451E+001	8.9709692E-002	3.7305288E-006	4.7808151E+000	4.1186996E+000	1.000000000000000E+000	14	9.0746563E-003	9.0464789E-007	3.7099260E-005	9.2529132E-005	9.9689496E-005	6.8151840E+001
2.4172332E+000	4.8623921E+003	1.2392202E+004	1.3312007E+004	-6.8576195E+001	2.195148568259901E+001	8.9716010E-002	7.1843469E-006	5.3131623E+000	4.6042933E+000	1.000000000000000E+000	14	9.0729771E-003	6.8156345E-007	2.7438657E-005	6.9929658E-005	7.5120151E-005	6.8576195E+001
1.6327059E+000	6.1705918E+003	1.6680939E+004	1.7785666E+004	-6.9699623E+001	2.456237279329798E+001	8.9716226E-002	5.9339682E-006	5.8437505E+000	5.1403465E+000	1.000000000000000E+000	14	9.0703247E-003	5.0997949E-007	1.9506822E-005	5.2732728E-005	5.6225053E-005	6.9699623E+001
1.1020596E+000	7.7447329E+003	2.2684578E+004	2.3970211E+004	-7.1149605E+001	2.841138342945487E+001	8.9712858E-002	5.3851345E-006	6.3662596E+000	5.7016697E+000	1.000000000000000E+000	14	9.0720942E-003	3.7847369E-007	1.3479156E-005	3.9480899E-005	4.1718449E-005	7.1149605E+001
7.4560940E-001	9.4927559E+003	3.1159367E+004	3.2573279E+004	-7.3056549E+001	3.408313361884211E+001	8.9716278E-002	5.3808453E-006	6.8504663E+000	6.2686558E+000	1.000000000000000E+000	14	9.0712253E-003	2.7848671E-007	8.9468331E-006	2.9367409E-005	3.0700008E-005	7.3056549E+001
5.0390220E-001	1.1664634E+004	4.3517793E+004	4.5053988E+004	-7.4994995E+001	4.245896572337369E+001	8.9715049E-002	5.3420899E-006	7.2578340E+000	6.7713342E+000	1.000000000000000E+000	14	9.0691764E-003	2.0129575E-007	5.7465149E-006	2.1438795E-005	2.2195592E-005	7.4994995E+001
3.4010270E-001	1.4347846E+004	6.1514965E+004	6.3166063E+004	-7.6870964E+001	5.485241207198123E+001	8.9716874E-002	4.9913874E-006	7.6072779E+000	7.2147822E+000	1.000000000000000E+000	14	9.0694791E-003	1.4358152E-007	3.5959954E-006	1.5417472E-005	1.5831287E-005	7.6870964E+001
2.3021273E-001	1.8139221E+004	8.7233281E+004	8.9099250E+004	-7.8253357E+001	7.314568590091949E+001	8.9714855E-002	4.6859841E-006	7.9251699E+000	7.5966983E+000	1.000000000000000E+000	14	9.0700081E-003	1.0179668E-007	2.2849169E-006	1.0988391E-005	1.1223439E-005	7.8253357E+001
1.5547264E-001	2.3650395E+004	1.2471489E+005	1.2693756E+005	-7.9262177E+001	1.002169559067115E+002	8.9714177E-002	4.3108357E-006	8.2081985E+000	7.9232650E+000	1.000000000000000E+000	14	9.0705305E-003	7.1456633E-008	1.4677707E-006	7.7399463E-006	7.8778885E-006	7.9262177E+001
1.0504906E-001	3.1841668E+004	1.7839933E+005	1.8121869E+005	-7.9880104E+001	1.402663807422796E+002	8.9717567E-002	4.2007487E-006	8.4924841E+000	8.2302914E+000	1.000000000000000E+000	14	9.0707289E-003	5.0054048E-008	9.6959411E-007	5.4323436E-006	5.5181945E-006	7.9880104E+001
7.1022727E-002	4.3268023E+004	2.5519152E+005	2.5883359E+005	-8.0376945E+001	1.994871795550862E+002	8.9722954E-002	4.1799585E-006	8.7812548E+000	8.5358686E+000	1.000000000000000E+000	14	9.0716975E-003	3.5048377E-008	6.4584151E-007	3.8091225E-006	3.8634862E-006	8.0376945E+001
4.7988325E-002	6.0708355E+004	3.6509144E+005	3.7010441E+005	-8.0559090E+001	2.871179947040509E+002	8.9727357E-002	3.3396570E-006	9.0841208E+000	8.8397026E+000	1.000000000000000E+000	14	9.0699075E-003	2.4506349E-008	4.4320021E-007	2.6653433E-006	2.7019403E-006	8.0559090E+001
3.2443926E-002	9.1524742E+004	5.1989816E+005	5.2789288E+005	-8.0015747E+001	4.167181410730409E+002	8.9727327E-002	3.2963192E-006	9.4355774E+000	9.1519451E+000	1.000000000000000E+000	14	9.0701925E-003	1.7181881E-008	3.2843315E-007	1.8656351E-006	1.8943238E-006	8.0015747E+001
2.1920588E-002	1.3522242E+005	7.4304931E+005	7.5525319E+005	-7.9686005E+001	6.085190370364289E+002	8.9729704E-002	2.9993662E-006	9.7712536E+000	9.4580240E+000	1.000000000000000E+000	14	9.0683419E-003	1.2007022E-008	2.3706295E-007	1.3026643E-006	1.3240593E-006	7.9686005E+001
1.4807615E-002	2.0464105E+005	1.0659613E+006	1.0854268E+006	-7.9132690E+001	8.924372994551377E+002	8.9720733E-002	2.7629269E-006	1.0083089E+001	9.7246819E+000	1.000000000000000E+000	14	9.0692518E-003	8.3554710E-009	1.7369680E-007	9.0477454E-007	9.2129665E-007	7.9132690E+001
1.0000636E-002	3.0700500E+005	1.5139990E+006	1.5448123E+006	-7.8537125E+001	1.312809641208412E+003	8.9708246E-002	2.6030116E-006	1.0511554E+001	1.0096403E+001	1.000000000000000E+000	14	9.0691429E-003	5.8707088E-009	1.2864538E-007	6.3441604E-007	6.4732785E-007	7.8537125E+001