EC-Lab ASCII FILE
Nb header lines : 62                          

Potentio Electrochemical Impedance Spectroscopy

Run on channel : 5 (SN 35518)
User : 
CE vs. WE compliance from -10 V to 10 V
Electrode connection : standard
Ewe ctrl range : min = -5.00 V, max = 5.00 V
Safety Limits :
	Do not start on E overload
Acquisition started on : 07/10/2023 07:23:43
Technique started on : 07/10/2023 07:23:45
Saved on :
	File : 0708_01_EIS_0.5MTFSI_SymCell_OutsideGB_unsanded_60C_C04_overnight_C05.mpr
	Directory : C:\Users\CESL\Documents\EC-Lab\Data\PhD\Leifer\Results\Zn Ion GPE\2023\0708\
	Host : 10.110.196.171
Device : VSP (SN 1724172417241724)
Address : USB
EC-Lab for windows v11.16 (software)
Internet server v11.16 (firmware)
Command interpretor v11.16 (firmware)
Electrode material : Au/Pd
Initial state : 
Electrolyte : NaCl (0.2M)
Comments : Fe(CN)63-/Fe(CN)64- 5.10-3 M
Reference electrode : SCE Saturated Calomel Electrode (0.241 V)
Electrode surface area : 0.001 cm²
Characteristic mass : 0.001 g
Equivalent Weight : 0.000 g/eq.
Density : 0.000 g/cm3
Cycle Definition : Charge/Discharge alternance
Mode                Single sine         
E (V)               0.0000              
vs.                 Eoc                 
tE (h:m:s)          0:00:0.0000         
record              0                   
dI                  0.000               
unit dI             mA                  
dt (s)              0.000               
fi                  1.000               
unit fi             MHz                 
ff                  10.000              
unit ff             mHz                 
Nd                  6                   
Points              per decade          
spacing             Logarithmic         
Va (mV)             10.0                
pw                  0.10                
Na                  2                   
corr                1                   
E range min (V)     -5.000              
E range max (V)     5.000               
I Range             Auto                
Bandwidth           5                   
nc cycles           0                   
goto Ns'            0                   
nr cycles           0                   
inc. cycle          0                   

freq/Hz	Re(Z)/Ohm	-Im(Z)/Ohm	|Z|/Ohm	Phase(Z)/deg	time/s	<Ewe>/V	<I>/mA	Cs/µF	Cp/µF	cycle number	I Range	|Ewe|/V	|I|/A	Re(Y)/Ohm-1	Im(Y)/Ohm-1	|Y|/Ohm-1	Phase(Y)/deg	
1.0000193E+006	-1.6618876E+001	-6.4499664E+000	1.7826639E+001	1.5878822E+002	2.306089229503414E+000	-1.0672438E-002	7.4181454E-003	-2.4674838E-002	-3.2302062E-003	1.000000000000000E+000	10	2.1390140E-004	1.1998975E-005	-5.2295301E-002	-2.0296378E-002	5.6095824E-002	-1.5878822E+002
6.7575181E+005	1.3167837E+003	5.9002087E+002	1.4429290E+003	-2.4136068E+001	3.303085783554707E+000	-1.0930750E-002	-5.3785065E-005	3.9917702E-004	6.6743713E-005	1.000000000000000E+000	12	3.6706796E-004	2.5439087E-007	6.3244760E-004	2.8338539E-004	6.9303479E-004	2.4136068E+001
4.5664050E+005	3.8456608E+001	1.7427160E+001	4.2221043E+001	-2.4378336E+001	4.168084837961942E+000	-1.0721167E-002	1.0322920E-002	1.9999497E-002	3.4073316E-003	1.000000000000000E+000	10	1.0148237E-002	2.4035972E-004	2.1573124E-002	9.7761694E-003	2.3684872E-002	2.4378336E+001
3.0857416E+005	2.9565638E+001	1.5554963E+001	3.3407841E+001	-2.7749588E+001	4.709092436969513E+000	-1.0862411E-002	8.8378889E-003	3.3158250E-002	7.1884086E-003	1.000000000000000E+000	10	1.0213545E-002	3.0572299E-004	2.6490517E-002	1.3937092E-002	2.9933093E-002	2.7749588E+001
2.0852534E+005	2.9011906E+001	1.6920210E+001	3.3585476E+001	-3.0251423E+001	5.250089316017693E+000	-1.0832529E-002	9.1121290E-003	4.5108203E-002	1.1448907E-002	1.000000000000000E+000	10	1.0191250E-002	3.0344215E-004	2.5720136E-002	1.5000395E-002	2.9774776E-002	3.0251423E+001
1.4090817E+005	3.0878426E+001	1.9706142E+001	3.6630714E+001	-3.2545399E+001	5.791083741729381E+000	-1.0805313E-002	9.5580108E-003	5.7316855E-002	1.6588030E-002	1.000000000000000E+000	10	1.0126042E-002	2.7643584E-004	2.3012532E-002	1.4686247E-002	2.7299495E-002	3.2545399E+001
9.5214820E+004	3.4064465E+001	2.3660940E+001	4.1475628E+001	-3.4783573E+001	6.200082641153131E+000	-1.0800914E-002	9.6979309E-003	7.0645347E-002	2.2991199E-002	1.000000000000000E+000	10	1.0399062E-002	2.5072705E-004	1.9802298E-002	1.3754538E-002	2.4110544E-002	3.4783573E+001
6.4345688E+004	3.7876785E+001	2.8886137E+001	4.7634647E+001	-3.7330387E+001	6.609078927256633E+000	-1.0803468E-002	9.4572650E-003	8.5627101E-002	3.1487938E-002	1.000000000000000E+000	10	1.0257171E-002	2.1533004E-004	1.6692724E-002	1.2730444E-002	2.0993123E-002	3.7330387E+001
4.3476547E+004	4.3142597E+001	3.5812840E+001	5.6069984E+001	-3.9696198E+001	7.312097733985865E+000	-1.0881928E-002	7.0452620E-004	1.0221776E-001	4.1700665E-002	1.000000000000000E+000	11	9.7479755E-003	1.7385372E-004	1.3722884E-002	1.1391420E-002	1.7834853E-002	3.9696198E+001
2.9384758E+004	4.9088886E+001	4.5244526E+001	6.6759163E+001	-4.2666321E+001	7.721085380064324E+000	-1.0873018E-002	6.5436494E-004	1.1971043E-001	5.4984756E-002	1.000000000000000E+000	11	1.0459514E-002	1.5667533E-004	1.1014415E-002	1.0151829E-002	1.4979217E-002	4.2666321E+001
1.9853508E+004	5.6459774E+001	5.7845985E+001	8.0832321E+001	-4.5694805E+001	8.130096252803924E+000	-1.0891939E-002	4.9139181E-004	1.3858292E-001	7.0971832E-002	1.000000000000000E+000	11	1.0259424E-002	1.2692230E-004	8.6410996E-003	8.8532576E-003	1.2371289E-002	4.5694805E+001
1.3417967E+004	6.5360626E+001	7.4463463E+001	9.9079857E+001	-4.8724819E+001	8.407086319319205E+000	-1.0886178E-002	5.2943133E-004	1.5929063E-001	8.9971699E-002	1.000000000000000E+000	11	1.0520569E-002	1.0618272E-004	6.6580251E-003	7.5852950E-003	1.0092868E-002	4.8724819E+001
9.0820293E+003	7.6468292E+001	9.6889717E+001	1.2343021E+002	-5.1718430E+001	8.704332573426655E+000	-1.0874546E-002	5.3782162E-004	1.8086708E-001	1.1144792E-001	1.000000000000000E+000	11	1.0227955E-002	8.2864273E-005	5.0192457E-003	6.3596717E-003	8.1017436E-003	5.1718430E+001
6.1409590E+003	9.0418159E+001	1.2705167E+002	1.5594092E+002	-5.4561893E+001	9.107654005947552E+000	-1.0840712E-002	1.0120076E-003	2.0398749E-001	1.3540794E-001	1.000000000000000E+000	11	9.9267066E-003	6.3656844E-005	3.7182234E-003	5.2246861E-003	6.4126849E-003	5.4561893E+001
4.1413242E+003	1.0797827E+002	1.6897350E+002	2.0052768E+002	-5.7420410E+001	9.573710214746825E+000	-1.0813086E-002	9.2697819E-004	2.2743762E-001	1.6149193E-001	1.000000000000000E+000	11	9.7160907E-003	4.8452617E-005	2.6852684E-003	4.2021344E-003	4.9868426E-003	5.7420410E+001
2.7973140E+003	1.3157863E+002	2.2486542E+002	2.6053290E+002	-5.9666225E+001	1.003996282353182E+001	-1.0810682E-002	8.0521422E-004	2.5302079E-001	1.8848483E-001	1.000000000000000E+000	11	9.5946174E-003	3.6826896E-005	1.9384749E-003	3.3128178E-003	3.8382870E-003	5.9666225E+001
1.8906046E+003	1.6140355E+002	3.0196219E+002	3.4239197E+002	-6.1874794E+001	1.050368855225679E+001	-1.0808649E-002	7.7481987E-004	2.7878335E-001	2.1683273E-001	1.000000000000000E+000	11	9.5314542E-003	2.7837843E-005	1.3767843E-003	2.5757600E-003	2.9206292E-003	6.1874794E+001
1.2871166E+003	2.0513857E+002	4.0220789E+002	4.5150085E+002	-6.2977001E+001	1.122221791968332E+001	-1.0841421E-002	8.4963605E-005	3.0743384E-001	2.4396957E-001	1.000000000000000E+000	12	9.8877205E-003	2.1899672E-005	1.0063063E-003	1.9730290E-003	2.2148353E-003	6.2977001E+001
8.6306641E+002	2.6063925E+002	5.5121973E+002	6.0973438E+002	-6.4693298E+001	1.168920343517675E+001	-1.0841067E-002	-3.5752244E-005	3.3454239E-001	2.7341309E-001	1.000000000000000E+000	12	9.6727964E-003	1.5863950E-005	7.0106529E-004	1.4826662E-003	1.6400585E-003	6.4693298E+001
5.8369244E+002	3.4049127E+002	7.3956470E+002	8.1418073E+002	-6.5278931E+001	1.215618857738446E+001	-1.0844347E-002	8.9327215E-005	3.6868876E-001	3.0420798E-001	1.000000000000000E+000	12	9.5662875E-003	1.1749587E-005	5.1364658E-004	1.1156669E-003	1.2282286E-003	6.5278931E+001
3.9411707E+002	4.5931592E+002	1.0033833E+003	1.1035167E+003	-6.5403252E+001	1.262317811956746E+001	-1.0838644E-002	8.2669387E-005	4.0246490E-001	3.3273917E-001	1.000000000000000E+000	12	9.5091872E-003	8.6171667E-006	3.7718430E-004	8.2396553E-004	9.0619380E-004	6.5403252E+001
2.6644943E+002	5.9013568E+002	1.3426510E+003	1.4666191E+003	-6.6273056E+001	1.308668544827378E+001	-1.0841030E-002	1.0497295E-005	4.4487932E-001	3.7284970E-001	1.000000000000000E+000	12	9.4862850E-003	6.4681312E-006	2.7435776E-004	6.2420667E-004	6.8184029E-004	6.6273056E+001
1.8005759E+002	8.5480823E+002	1.7900776E+003	1.9837024E+003	-6.4474319E+001	1.355170723036281E+001	-1.0843937E-002	-1.0445692E-005	4.9378377E-001	4.0209395E-001	1.000000000000000E+000	12	9.4695482E-003	4.7736739E-006	2.1722793E-004	4.5490303E-004	5.0410785E-004	6.4474319E+001
1.2159529E+002	1.1769020E+003	2.3773843E+003	2.6527446E+003	-6.3662720E+001	1.426110937070916E+001	-1.0834877E-002	-1.8507344E-005	5.5055916E-001	4.4219300E-001	1.000000000000000E+000	13	9.5228348E-003	3.5898047E-006	1.6724355E-004	3.3783799E-004	3.7696806E-004	6.3662720E+001
8.2236801E+001	1.6725972E+003	3.1342607E+003	3.5526289E+003	-6.1913403E+001	1.471629579228465E+001	-1.0827179E-002	-9.8649043E-006	6.1747420E-001	4.8060620E-001	1.000000000000000E+000	13	9.4876736E-003	2.6706064E-006	1.3252313E-004	2.4833356E-004	2.8148168E-004	6.1913403E+001
5.5515171E+001	2.4237988E+003	4.0625200E+003	4.7306309E+003	-5.9178665E+001	1.517788280092645E+001	-1.0835977E-002	-1.6452150E-005	7.0568830E-001	5.2043420E-001	1.000000000000000E+000	13	9.4657969E-003	2.0009586E-006	1.0830747E-004	1.8153375E-004	2.1138829E-004	5.9178665E+001
3.7560089E+001	3.5489551E+003	5.1401377E+003	6.2462866E+003	-5.5377262E+001	1.566876021091593E+001	-1.0831047E-002	-2.2995568E-005	8.2436353E-001	5.5824453E-001	1.000000000000000E+000	13	9.4634322E-003	1.5150493E-006	9.0961301E-005	1.3174403E-004	1.6009512E-004	5.5377262E+001
2.5365252E+001	5.0937939E+003	6.1715908E+003	8.0022041E+003	-5.0465042E+001	1.612786220604903E+001	-1.0836033E-002	-1.3667704E-005	1.0166789E+000	6.0472625E-001	1.000000000000000E+000	13	9.4595142E-003	1.1821136E-006	7.9546699E-005	9.6377997E-005	1.2496558E-004	5.0465042E+001
1.7132671E+001	7.1678223E+003	6.9203145E+003	9.9633545E+003	-4.3993500E+001	1.654184825238190E+001	-1.0839389E-002	-1.4409986E-005	1.3423606E+000	6.4760429E-001	1.000000000000000E+000	13	9.4610052E-003	9.4958034E-007	7.2206465E-005	6.9713147E-005	1.0036780E-004	4.3993500E+001
1.1591243E+001	9.5940576E+003	7.2942529E+003	1.2052057E+004	-3.7245316E+001	1.695128640512121E+001	-1.0840153E-002	-1.4948980E-005	1.8823886E+000	6.8952280E-001	1.000000000000000E+000	13	9.4525684E-003	7.8431162E-007	6.6051092E-005	5.0217895E-005	8.2973391E-005	3.7245316E+001
7.8281527E+000	1.1940294E+004	7.1075835E+003	1.3895624E+004	-3.0763660E+001	1.784025346065755E+001	-1.0835754E-002	-1.5603506E-005	2.8604798E+000	7.4838781E-001	1.000000000000000E+000	14	9.4630364E-003	6.8100837E-007	6.1838495E-005	3.6810001E-005	7.1965100E-005	3.0763660E+001
5.2930207E+000	1.4050672E+004	6.4522100E+003	1.5461319E+004	-2.4665064E+001	1.867667776711460E+001	-1.0840284E-002	-1.4457783E-005	4.6602373E+000	8.1158108E-001	1.000000000000000E+000	14	9.4561614E-003	6.1160119E-007	5.8776539E-005	2.6990780E-005	6.4677537E-005	2.4665064E+001
3.5755143E+000	1.5680554E+004	5.5488774E+003	1.6633395E+004	-1.9487343E+001	1.989130553140421E+001	-1.0832607E-002	-1.3483384E-005	8.0218859E+000	8.9273995E-001	1.000000000000000E+000	14	9.4579216E-003	5.6861046E-007	5.6676057E-005	2.0055955E-005	6.0120019E-005	1.9487343E+001
2.4172332E+000	1.6932963E+004	4.6128633E+003	1.7550035E+004	-1.5238685E+001	2.166852718914743E+001	-1.0832345E-002	-1.2122305E-005	1.4273517E+001	9.8608911E-001	1.000000000000000E+000	14	9.4576608E-003	5.3889698E-007	5.4976485E-005	1.4976647E-005	5.6979941E-005	1.5238685E+001
1.6327059E+000	1.7866951E+004	3.8337498E+003	1.8273631E+004	-1.2110446E+001	2.427941821984132E+001	-1.0831907E-002	-1.1412287E-005	2.5426607E+001	1.1191447E+000	1.000000000000000E+000	14	9.4553856E-003	5.1743331E-007	5.3505788E-005	1.1480851E-005	5.4723663E-005	1.2110446E+001
1.1020596E+000	1.8559166E+004	3.1615688E+003	1.8826527E+004	-9.6675797E+000	2.812843968268135E+001	-1.0832564E-002	-1.0806245E-005	4.5678562E+001	1.2881821E+000	1.000000000000000E+000	14	9.4558420E-003	5.0226163E-007	5.2362211E-005	8.9199457E-006	5.3116539E-005	9.6675797E+000
7.4560940E-001	1.9114955E+004	2.6352871E+003	1.9295758E+004	-7.8496113E+000	3.380020139206317E+001	-1.0831718E-002	-1.0626753E-005	8.0999214E+001	1.5108210E+000	1.000000000000000E+000	14	9.4562685E-003	4.9006979E-007	5.1339262E-005	7.0778974E-006	5.1824863E-005	7.8496113E+000
5.0390220E-001	1.9552809E+004	2.2526277E+003	1.9682141E+004	-6.5719228E+000	4.217606040326064E+001	-1.0830211E-002	-1.0133007E-005	1.4021176E+002	1.8366171E+000	1.000000000000000E+000	14	9.4565218E-003	4.8046206E-007	5.0473624E-005	5.8149335E-006	5.0807481E-005	6.5719228E+000
3.4010270E-001	1.9913746E+004	1.9659008E+003	2.0010549E+004	-5.6380162E+000	5.456955464518978E+001	-1.0828700E-002	-8.5194970E-006	2.3803918E+002	2.2974901E+000	1.000000000000000E+000	14	9.4566634E-003	4.7258391E-007	4.9731891E-005	4.9095715E-006	4.9973642E-005	5.6380162E+000
2.3021273E-001	2.0206043E+004	1.8085585E+003	2.0286820E+004	-5.1146760E+000	7.286291018081829E+001	-1.0827429E-002	-8.6250593E-006	3.8225943E+002	3.0380530E+000	1.000000000000000E+000	14	9.4563933E-003	4.6613482E-007	4.9096816E-005	4.3944506E-006	4.9293089E-005	5.1146760E+000
1.5547264E-001	2.0482451E+004	1.8139940E+003	2.0562621E+004	-5.0611000E+000	9.993424951992347E+001	-1.0819903E-002	-9.6136673E-006	5.6432635E+002	4.3918257E+000	1.000000000000000E+000	14	9.4562629E-003	4.5987636E-007	4.8442325E-005	4.2902134E-006	4.8631933E-005	5.0611000E+000
1.0504906E-001	2.0739379E+004	1.9435460E+003	2.0830248E+004	-5.3537140E+000	1.399837137688883E+002	-1.0824264E-002	-9.7759939E-006	7.7953052E+002	6.7863135E+000	1.000000000000000E+000	14	9.4565926E-003	4.5398366E-007	4.7797686E-005	4.4792564E-006	4.8007110E-005	5.3537140E+000
7.1022727E-002	2.1050463E+004	2.2399939E+003	2.1169307E+004	-6.0740256E+000	1.992046594884050E+002	-1.0823501E-002	-8.4012654E-006	1.0004052E+003	1.1200989E+001	1.000000000000000E+000	14	9.4560878E-003	4.4668860E-007	4.6973008E-005	4.9984296E-006	4.7238202E-005	6.0740256E+000
4.7988325E-002	2.1415557E+004	2.7673330E+003	2.1593615E+004	-7.3629985E+000	2.868357466906455E+002	-1.0824519E-002	-8.7835815E-006	1.1984589E+003	1.9683180E+001	1.000000000000000E+000	14	9.4565358E-003	4.3793204E-007	4.5928118E-005	5.9348631E-006	4.6309986E-005	7.3629985E+000
3.2443926E-002	2.1995584E+004	3.4418442E+003	2.2263244E+004	-8.8934593E+000	4.164363026863139E+002	-1.0823529E-002	-9.5770001E-006	1.4252648E+003	3.4064426E+001	1.000000000000000E+000	14	9.4562992E-003	4.2474937E-007	4.4377070E-005	6.9440734E-006	4.4917084E-005	8.8934593E+000
2.1920588E-002	2.2806018E+004	4.3836753E+003	2.3223502E+004	-1.0880445E+001	6.082377843830909E+002	-1.0817550E-002	-1.0546843E-005	1.6562639E+003	5.9013432E+001	1.000000000000000E+000	14	9.4556296E-003	4.0715778E-007	4.2285748E-005	8.1279859E-006	4.3059827E-005	1.0880445E+001
1.4807615E-002	2.3915154E+004	5.3479185E+003	2.4505813E+004	-1.2605129E+001	8.921569051751867E+002	-1.0816758E-002	-1.1384443E-005	2.0097878E+003	9.5715347E+001	1.000000000000000E+000	14	9.4562275E-003	3.8587692E-007	3.9823091E-005	8.9052592E-006	4.0806644E-005	1.2605129E+001
1.0000636E-002	2.5523439E+004	6.4473882E+003	2.6325174E+004	-1.4176717E+001	1.312530688341889E+003	-1.0809627E-002	-1.2126665E-005	2.4683611E+003	1.4805867E+002	1.000000000000000E+000	14	9.4559491E-003	3.5919797E-007	3.6829573E-005	9.3033923E-006	3.7986454E-005	1.4176717E+001