EC-Lab ASCII FILE
Nb header lines : 62                          

Potentio Electrochemical Impedance Spectroscopy

Run on channel : 1 (SN 35512)
User : 
CE vs. WE compliance from -10 V to 10 V
Electrode connection : standard
Ewe ctrl range : min = -5.00 V, max = 5.00 V
Safety Limits :
	Do not start on E overload
Acquisition started on : 07/09/2023 15:25:37
Technique started on : 07/09/2023 15:25:39
Saved on :
	File : 0708_01_EIS_0.5MTFSI_Blocking_InsideGB_day_2_40C_C01.mpr
	Directory : C:\Users\CESL\Documents\EC-Lab\Data\PhD\Leifer\Results\Zn Ion GPE\2023\0708\
	Host : 10.110.196.171
Device : VSP (SN 1724172417241724)
Address : USB
EC-Lab for windows v11.16 (software)
Internet server v11.16 (firmware)
Command interpretor v11.16 (firmware)
Electrode material : Au/Pd
Initial state : 
Electrolyte : NaCl (0.2M)
Comments : Fe(CN)63-/Fe(CN)64- 5.10-3 M
Reference electrode : SCE Saturated Calomel Electrode (0.241 V)
Electrode surface area : 0.001 cm²
Characteristic mass : 0.001 g
Equivalent Weight : 0.000 g/eq.
Density : 0.000 g/cm3
Cycle Definition : Charge/Discharge alternance
Mode                Single sine         
E (V)               0.0000              
vs.                 Eoc                 
tE (h:m:s)          0:00:0.0000         
record              0                   
dI                  0.000               
unit dI             mA                  
dt (s)              0.000               
fi                  1.000               
unit fi             MHz                 
ff                  10.000              
unit ff             mHz                 
Nd                  6                   
Points              per decade          
spacing             Logarithmic         
Va (mV)             10.0                
pw                  0.10                
Na                  2                   
corr                1                   
E range min (V)     -5.000              
E range max (V)     5.000               
I Range             Auto                
Bandwidth           5                   
nc cycles           0                   
goto Ns'            0                   
nr cycles           0                   
inc. cycle          0                   

freq/Hz	Re(Z)/Ohm	-Im(Z)/Ohm	|Z|/Ohm	Phase(Z)/deg	time/s	<Ewe>/V	<I>/mA	Cs/µF	Cp/µF	cycle number	I Range	|Ewe|/V	|I|/A	Re(Y)/Ohm-1	Im(Y)/Ohm-1	|Y|/Ohm-1	Phase(Y)/deg	
1.0000193E+006	-1.8009094E+001	1.8784637E+001	2.6022877E+001	-1.3379250E+002	2.307081896258751E+000	5.0196022E-002	3.6096948E-003	8.4724482E-003	4.4147279E-003	1.000000000000000E+000	10	1.9433523E-004	7.4678610E-006	-2.6593855E-002	2.7739087E-002	3.8427725E-002	1.3379250E+002
6.7575181E+005	1.7837017E+001	-1.0084588E+001	2.0490438E+001	2.9482697E+001	2.716078182333149E+000	4.9614616E-002	4.4935821E-003	-2.3354724E-002	-5.6570312E-003	1.000000000000000E+000	10	1.0311800E-003	5.0324936E-005	4.2483445E-002	-2.4019042E-002	4.8803251E-002	-2.9482697E+001
4.5664050E+005	1.0025868E+001	-3.5596690E+000	1.0639045E+001	1.9547329E+001	3.125099935074104E+000	4.9709644E-002	3.9994381E-003	-9.7912036E-002	-1.0960996E-002	1.000000000000000E+000	10	3.5973887E-003	3.3813081E-004	8.8576131E-002	-3.1448822E-002	9.3993403E-002	-1.9547329E+001
3.0857416E+005	8.4002323E+000	-1.7901033E+000	8.5888519E+000	1.2029878E+001	3.402100081584649E+000	4.9512446E-002	5.6161783E-003	-2.8812602E-001	-1.2516083E-002	1.000000000000000E+000	10	9.4347987E-003	1.0984936E-003	1.1387309E-001	-2.4266543E-002	1.1643000E-001	-1.2029878E+001
2.0852534E+005	7.8120685E+000	-8.8494188E-001	7.8620315E+000	6.4628477E+000	3.943095680588158E+000	4.9475785E-002	5.7784095E-003	-8.6247504E-001	-1.0927139E-002	1.000000000000000E+000	10	1.0099729E-002	1.2846207E-003	1.2638527E-001	-1.4316774E-002	1.2719359E-001	-6.4628477E+000
1.4090817E+005	7.5932064E+000	-2.5698552E-001	7.5975537E+000	1.9383863E+000	4.483089546236442E+000	4.9499523E-002	7.0296442E-003	-4.3951664E+000	-5.0285766E-003	1.000000000000000E+000	10	1.0155551E-002	1.3366870E-003	1.3154601E-001	-4.4520609E-003	1.3162132E-001	-1.9383863E+000
9.5214820E+004	7.5093102E+000	2.8437436E-001	7.5146928E+000	-2.1687303E+000	5.023097705241526E+000	4.9495328E-002	7.6599251E-003	5.8779402E+000	8.4175076E-003	1.000000000000000E+000	10	1.0099127E-002	1.3439175E-003	1.3297732E-001	5.0357943E-003	1.3307264E-001	2.1687303E+000
6.4345688E+004	7.4873352E+000	8.6042535E-001	7.5366120E+000	-6.5555277E+000	5.431082151306327E+000	4.9503330E-002	8.7489281E-003	2.8746667E+000	3.7468091E-002	1.000000000000000E+000	10	1.0687433E-002	1.4180687E-003	1.3181807E-001	1.5148195E-002	1.3268562E-001	6.5555277E+000
4.3476547E+004	7.5068555E+000	1.5231444E+000	7.6598206E+000	-1.1469634E+001	5.840078864042880E+000	4.9515691E-002	8.1223771E-003	2.4033887E+000	9.5031805E-002	1.000000000000000E+000	10	1.0625797E-002	1.3872123E-003	1.2794429E-001	2.5959952E-002	1.3055137E-001	1.1469634E+001
2.9384758E+004	7.5685863E+000	2.4048753E+000	7.9414687E+000	-1.7627359E+001	6.249088003474753E+000	4.9508531E-002	7.8221550E-003	2.2521923E+000	2.0653275E-001	1.000000000000000E+000	10	1.0499328E-002	1.3220890E-003	1.2000880E-001	3.8132116E-002	1.2592129E-001	1.7627359E+001
1.9853508E+004	7.6677718E+000	3.6121204E+000	8.4759741E+000	-2.5224104E+001	6.658100369531894E+000	4.9513400E-002	8.1130518E-003	2.2193239E+000	4.0305644E-001	1.000000000000000E+000	10	1.0259042E-002	1.2103673E-003	1.0673084E-001	5.0278574E-002	1.1798054E-001	2.5224104E+001
1.3417967E+004	7.8099971E+000	5.2935104E+000	9.4348984E+000	-3.4128887E+001	7.066080468939617E+000	4.9516458E-002	8.5232919E-003	2.2407305E+000	7.0534688E-001	1.000000000000000E+000	10	1.0207825E-002	1.0819221E-003	8.7735720E-002	5.9466079E-002	1.0598949E-001	3.4128887E+001
9.0820293E+003	8.0100756E+000	7.7186174E+000	1.1123775E+001	-4.3938412E+001	7.363338349707192E+000	4.9520113E-002	9.3083419E-003	2.2703755E+000	1.0931314E+000	1.000000000000000E+000	10	1.0263129E-002	9.2263008E-004	6.4733967E-002	6.2378533E-002	8.9897543E-002	4.3938412E+001
6.1409590E+003	8.3506460E+000	1.1207114E+001	1.3976148E+001	-5.3309467E+001	7.766639915589622E+000	4.9527403E-002	9.5619364E-003	2.3125446E+000	1.4869719E+000	1.000000000000000E+000	10	9.9794995E-003	7.1403792E-004	4.2750884E-002	5.7374492E-002	7.1550474E-002	5.3309467E+001
4.1413242E+003	8.8535357E+000	1.6224968E+001	1.8483362E+001	-6.1379871E+001	8.232692684388894E+000	4.9555745E-002	1.3627047E-002	2.3686292E+000	1.8251679E+000	1.000000000000000E+000	10	9.6931104E-003	5.2442355E-004	2.5915213E-002	4.7492158E-002	5.4102711E-002	6.1379871E+001
2.7973140E+003	9.6442223E+000	2.3452023E+001	2.5357611E+001	-6.7645966E+001	8.698942093178630E+000	4.9558375E-002	1.3067622E-002	2.4260435E+000	2.0751169E+000	1.000000000000000E+000	10	9.5143449E-003	3.7520667E-004	1.4998595E-002	3.6472343E-002	3.9435893E-002	6.7645966E+001
1.8906046E+003	1.0828807E+001	3.3967197E+001	3.5651558E+001	-7.2317619E+001	9.415678473909793E+000	4.9535401E-002	8.5066241E-004	2.4783330E+000	2.2496870E+000	1.000000000000000E+000	11	1.0227346E-002	2.8686953E-004	8.5196868E-003	2.6724076E-002	2.8049266E-002	7.2317619E+001
1.2871166E+003	1.2441718E+001	4.8699955E+001	5.0264122E+001	-7.5668793E+001	9.882193642697530E+000	4.9534693E-002	9.1796299E-004	2.5390642E+000	2.3834970E+000	1.000000000000000E+000	11	9.7517800E-003	1.9401075E-004	4.9245222E-003	1.9275799E-002	1.9894907E-002	7.5668793E+001
8.6306641E+002	1.4997293E+001	7.0618904E+001	7.2193825E+001	-7.8010262E+001	1.034918185151764E+001	4.9537528E-002	7.5837359E-004	2.6112890E+000	2.4986002E+000	1.000000000000000E+000	11	9.5238760E-003	1.3192093E-004	2.8774829E-003	1.3549425E-002	1.3851600E-002	7.8010262E+001
5.8369244E+002	1.8733080E+001	1.0159997E+002	1.0331255E+002	-7.9553093E+001	1.081617432707571E+001	4.9535066E-002	8.0143887E-004	2.6837528E+000	2.5955148E+000	1.000000000000000E+000	11	9.4218059E-003	9.1197115E-005	1.7551046E-003	9.5189158E-003	9.6793668E-003	7.9553093E+001
3.9411707E+002	2.4290916E+001	1.4627977E+002	1.4828290E+002	-8.0571617E+001	1.128320880254614E+001	4.9539112E-002	7.8130298E-004	2.7606454E+000	2.6865630E+000	1.000000000000000E+000	11	9.3778260E-003	6.3242805E-005	1.1047442E-003	6.6527640E-003	6.7438660E-003	8.0571617E+001
2.6644943E+002	3.2734795E+001	2.0943806E+002	2.1198082E+002	-8.1116646E+001	1.174664498462880E+001	4.9535643E-002	4.9792317E-004	2.8520014E+000	2.7839909E+000	1.000000000000000E+000	11	9.3466863E-003	4.4092132E-005	7.2847790E-004	4.6608215E-003	4.7174077E-003	8.1116646E+001
1.8005759E+002	4.6628334E+001	3.0247229E+002	3.0604523E+002	-8.1236420E+001	1.246469051206077E+001	4.9545154E-002	-1.8390425E-005	2.9222887E+000	2.8544540E+000	1.000000000000000E+000	12	9.4238045E-003	3.0792195E-005	4.9782725E-004	3.2293445E-003	3.2674910E-003	8.1236420E+001
1.2159529E+002	7.0679527E+001	4.3399020E+002	4.3970798E+002	-8.0750038E+001	1.292514669391676E+001	4.9547523E-002	1.9153392E-004	3.0159452E+000	2.9380190E+000	1.000000000000000E+000	12	9.3716551E-003	2.1313361E-005	3.6556515E-004	2.2446637E-003	2.2742366E-003	8.0750038E+001
8.2236801E+001	1.0640486E+002	6.1655823E+002	6.2567249E+002	-8.0208412E+001	1.338031732881791E+001	4.9542114E-002	-1.7775392E-005	3.1389170E+000	3.0481331E+000	1.000000000000000E+000	12	9.3487259E-003	1.4941884E-005	2.7181124E-004	1.5749979E-003	1.5982803E-003	8.0208412E+001
5.5515171E+001	1.6524457E+002	8.8357709E+002	8.9889612E+002	-7.9407043E+001	1.384190708413371E+001	4.9539056E-002	3.1404572E-005	3.2446213E+000	3.1349735E+000	1.000000000000000E+000	12	9.3369391E-003	1.0387117E-005	2.0450697E-004	1.0935168E-003	1.1124756E-003	7.9407043E+001
3.7560089E+001	2.4718842E+002	1.2247439E+003	1.2494398E+003	-7.8589355E+001	1.433374857416493E+001	4.9547523E-002	7.8122148E-006	3.4597781E+000	3.3243606E+000	1.000000000000000E+000	12	9.3300836E-003	7.4674131E-006	1.5834252E-004	7.8453909E-004	8.0035866E-004	7.8589355E+001
2.5365252E+001	3.7800638E+002	1.7415980E+003	1.7821483E+003	-7.7754135E+001	1.504286154118017E+001	4.9538553E-002	-7.6858587E-006	3.6027410E+000	3.4406555E+000	1.000000000000000E+000	13	9.3529932E-003	5.2481564E-006	1.1901767E-004	5.4835301E-004	5.6112051E-004	7.7754135E+001
1.7132671E+001	5.6501410E+002	2.4195483E+003	2.4846438E+003	-7.6855812E+001	1.545682172084344E+001	4.9537007E-002	-3.5684889E-007	3.8393767E+000	3.6408355E+000	1.000000000000000E+000	13	9.3332054E-003	3.7563557E-006	9.1523136E-005	3.9192778E-004	4.0247219E-004	7.6855812E+001
1.1591243E+001	8.3281274E+002	3.3408352E+003	3.4430737E+003	-7.6002441E+001	1.586625904691755E+001	4.9533054E-002	1.3233944E-006	4.1099362E+000	3.8694794E+000	1.000000000000000E+000	13	9.3304459E-003	2.7099175E-006	7.0251343E-005	2.8181390E-004	2.9043815E-004	7.6002441E+001
7.8281527E+000	1.1765475E+003	4.5828799E+003	4.7314956E+003	-7.5601593E+001	1.644725864785141E+001	4.9538180E-002	8.0873497E-006	4.4363151E+000	4.1620035E+000	1.000000000000000E+000	13	9.3306601E-003	1.9720319E-006	5.2554831E-005	2.0471118E-004	2.1134966E-004	7.5601593E+001
5.2930207E+000	1.5565104E+003	6.3213525E+003	6.5101631E+003	-7.6167206E+001	1.728368722095183E+001	4.9542990E-002	4.2668203E-006	4.7567081E+000	4.4847970E+000	1.000000000000000E+000	13	9.3280803E-003	1.4328490E-006	3.6725542E-005	1.4915105E-004	1.5360599E-004	7.6167206E+001
3.5755143E+000	1.9672653E+003	8.8014658E+003	9.0186436E+003	-7.7400589E+001	1.910636096083908E+001	4.9541604E-002	-1.5110926E-006	5.0573916E+000	4.8167510E+000	1.000000000000000E+000	14	9.3326038E-003	1.0348124E-006	2.4186920E-005	1.0821128E-004	1.1088142E-004	7.7400589E+001
2.4172332E+000	2.4091035E+003	1.2351986E+004	1.2584727E+004	-7.8963707E+001	2.088356971190660E+001	4.9546845E-002	1.7640400E-006	5.3304610E+000	5.1351223E+000	1.000000000000000E+000	14	9.3305279E-003	7.4141684E-007	1.5211356E-005	7.7991856E-005	7.9461402E-005	7.8963707E+001
1.6327059E+000	2.9041423E+003	1.7646043E+004	1.7883424E+004	-8.0654182E+001	2.349440034254803E+001	4.9545996E-002	1.6681407E-006	5.5241423E+000	5.3784628E+000	1.000000000000000E+000	14	9.3282163E-003	5.2161244E-007	9.0806388E-006	5.5175460E-005	5.5917702E-005	8.0654182E+001
1.1020596E+000	3.7121050E+003	2.5435889E+004	2.5705334E+004	-8.1696892E+001	2.734340967205935E+001	4.9539328E-002	1.2814318E-006	5.6776438E+000	5.5592403E+000	1.000000000000000E+000	14	9.3268817E-003	3.6283839E-007	5.6178956E-006	3.8494654E-005	3.8902432E-005	8.1696892E+001
7.4560940E-001	4.7529336E+003	3.6659293E+004	3.6966121E+004	-8.2612724E+001	3.301515628813650E+001	4.9542330E-002	1.0723634E-006	5.8227034E+000	5.7264447E+000	1.000000000000000E+000	14	9.3275495E-003	2.5232697E-007	3.4781947E-006	2.6827262E-005	2.7051798E-005	8.2612724E+001
5.0390220E-001	6.6548828E+003	5.2955023E+004	5.3371547E+004	-8.2837166E+001	4.139099241929944E+001	4.9540419E-002	1.4448373E-006	5.9643989E+000	5.8716674E+000	1.000000000000000E+000	14	9.3282387E-003	1.7477925E-007	2.3362570E-006	1.8590350E-005	1.8736575E-005	8.2837166E+001
3.4010270E-001	9.2885615E+003	7.6732164E+004	7.7292320E+004	-8.3097832E+001	5.378444330123602E+001	4.9541134E-002	9.4118724E-007	6.0986342E+000	6.0105581E+000	1.000000000000000E+000	14	9.3276659E-003	1.2068037E-007	1.5548039E-006	1.2844132E-005	1.2937896E-005	8.3097832E+001
2.3021273E-001	1.3671918E+004	1.1024493E+005	1.1108945E+005	-8.2930611E+001	7.207773171685403E+001	4.9531940E-002	7.1246131E-007	6.2709327E+000	6.1759496E+000	1.000000000000000E+000	14	9.3269581E-003	8.3958987E-008	1.1078577E-006	8.9333216E-006	9.0017547E-006	8.2930611E+001
1.5547264E-001	2.0558324E+004	1.5922556E+005	1.6054727E+005	-8.2642990E+001	9.914900305599440E+001	4.9538124E-002	6.6524217E-007	6.4291472E+000	6.3237271E+000	1.000000000000000E+000	14	9.3271397E-003	5.8095914E-008	7.9759371E-007	6.1774176E-006	6.2286954E-006	8.2642990E+001
1.0504906E-001	3.0834689E+004	2.2821489E+005	2.3028855E+005	-8.2305222E+001	1.391984305048536E+002	4.9533460E-002	6.7805382E-007	6.6387143E+000	6.5196948E+000	1.000000000000000E+000	14	9.3281660E-003	4.0506425E-008	5.8142655E-007	4.3032769E-006	4.3423784E-006	8.2305222E+001
7.1022727E-002	4.6713305E+004	3.2561453E+005	3.2894825E+005	-8.1835938E+001	1.984192293443775E+002	4.9530223E-002	6.9187593E-007	6.8820691E+000	6.7432833E+000	1.000000000000000E+000	14	9.3255993E-003	2.8349746E-008	4.3170346E-007	3.0091830E-006	3.0399920E-006	8.1835938E+001
4.7988325E-002	7.4274422E+004	4.6847628E+005	4.7432766E+005	-8.0991043E+001	2.860500964933017E+002	4.9536653E-002	7.4699801E-007	7.0794077E+000	6.9058199E+000	1.000000000000000E+000	14	9.3276259E-003	1.9664942E-008	3.3012807E-007	2.0822397E-006	2.1082474E-006	8.0991043E+001
3.2443926E-002	1.1671405E+005	6.6999794E+005	6.8008781E+005	-8.0118202E+001	4.156501732623146E+002	4.9531240E-002	5.8724413E-007	7.3217225E+000	7.1060820E+000	1.000000000000000E+000	14	9.3267970E-003	1.3714106E-008	2.5234408E-007	1.4485834E-006	1.4703984E-006	8.0118202E+001
2.1920588E-002	1.8916111E+005	9.4705144E+005	9.6575794E+005	-7.8704567E+001	6.074510669856973E+002	4.9531713E-002	7.0492348E-007	7.6664505E+000	7.3723326E+000	1.000000000000000E+000	14	9.3266517E-003	9.6573389E-009	2.0281271E-007	1.0153997E-006	1.0354562E-006	7.8704567E+001
1.4807615E-002	3.2804800E+005	1.3306738E+006	1.3705139E+006	-7.6151154E+001	8.913693256977422E+002	4.9529463E-002	6.2885329E-007	8.0772476E+000	7.6144710E+000	1.000000000000000E+000	14	9.3273632E-003	6.8057413E-009	1.7465076E-007	7.0844271E-007	7.2965332E-007	7.6151154E+001
1.0000636E-002	5.4022413E+005	1.8490109E+006	1.9263134E+006	-7.3713257E+001	1.311741798891075E+003	4.9526408E-002	6.1126076E-007	8.6070251E+000	7.9300895E+000	1.000000000000000E+000	14	9.3269823E-003	4.8418820E-009	1.4558618E-007	4.9829390E-007	5.1912633E-007	7.3713257E+001