EC-Lab ASCII FILE
Nb header lines : 62                          

Potentio Electrochemical Impedance Spectroscopy

Run on channel : 4 (SN 35517)
User : 
CE vs. WE compliance from -10 V to 10 V
Electrode connection : standard
Ewe ctrl range : min = -5.00 V, max = 5.00 V
Safety Limits :
	Do not start on E overload
Acquisition started on : 07/09/2023 15:26:11
Technique started on : 07/09/2023 15:26:13
Saved on :
	File : 0708_01_EIS_0.5MTFSI_SymCell_OutsideGB_sanded_40C_C04.mpr
	Directory : C:\Users\CESL\Documents\EC-Lab\Data\PhD\Leifer\Results\Zn Ion GPE\2023\0708\
	Host : 10.110.196.171
Device : VSP (SN 1724172417241724)
Address : USB
EC-Lab for windows v11.16 (software)
Internet server v11.16 (firmware)
Command interpretor v11.16 (firmware)
Electrode material : Au/Pd
Initial state : 
Electrolyte : NaCl (0.2M)
Comments : Fe(CN)63-/Fe(CN)64- 5.10-3 M
Reference electrode : SCE Saturated Calomel Electrode (0.241 V)
Electrode surface area : 0.001 cm²
Characteristic mass : 0.001 g
Equivalent Weight : 0.000 g/eq.
Density : 0.000 g/cm3
Cycle Definition : Charge/Discharge alternance
Mode                Single sine         
E (V)               0.0000              
vs.                 Eoc                 
tE (h:m:s)          0:00:0.0000         
record              0                   
dI                  0.000               
unit dI             mA                  
dt (s)              0.000               
fi                  1.000               
unit fi             MHz                 
ff                  10.000              
unit ff             mHz                 
Nd                  6                   
Points              per decade          
spacing             Logarithmic         
Va (mV)             10.0                
pw                  0.10                
Na                  2                   
corr                1                   
E range min (V)     -5.000              
E range max (V)     5.000               
I Range             Auto                
Bandwidth           5                   
nc cycles           0                   
goto Ns'            0                   
nr cycles           0                   
inc. cycle          0                   

freq/Hz	Re(Z)/Ohm	-Im(Z)/Ohm	|Z|/Ohm	Phase(Z)/deg	time/s	<Ewe>/V	<I>/mA	Cs/µF	Cp/µF	cycle number	I Range	|Ewe|/V	|I|/A	Re(Y)/Ohm-1	Im(Y)/Ohm-1	|Y|/Ohm-1	Phase(Y)/deg	
1.0000193E+006	3.3646533E+002	-9.3816442E+000	3.3659610E+002	1.5971612E+000	2.488087851495948E+000	1.1522641E-003	-1.5228755E-004	-1.6964177E-002	-1.3178699E-005	1.000000000000000E+000	11	1.1896214E-003	3.5342696E-006	2.9697656E-003	-8.2805804E-005	2.9709197E-003	-1.5971612E+000
6.7575181E+005	8.8697281E+001	-2.5136788E+000	8.8732895E+001	1.6233264E+000	2.897090724232839E+000	1.0756255E-003	-4.9977494E-005	-9.3696445E-002	-7.5192300E-005	1.000000000000000E+000	11	4.6189586E-003	5.2054638E-005	1.1265256E-002	-3.1925703E-004	1.1269778E-002	-1.6233264E+000
4.5664050E+005	6.7238358E+001	1.8249190E-001	6.7238602E+001	-1.5550633E-001	3.306085223710397E+000	1.2899714E-003	2.5358782E-004	1.9098625E+000	1.4068634E-005	1.000000000000000E+000	11	9.8796543E-003	1.4693427E-004	1.4872354E-002	4.0365117E-005	1.4872409E-002	1.5550633E-001
3.0857416E+005	6.1001690E+001	2.2435513E+000	6.1042934E+001	-2.1063039E+000	3.847083409404149E+000	1.2366599E-003	3.9062041E-004	2.2989237E-001	3.1054587E-004	1.000000000000000E+000	11	1.0084700E-002	1.6520667E-004	1.6370844E-002	6.0209521E-004	1.6381912E-002	2.1063039E+000
2.0852534E+005	5.9041325E+001	4.1086464E+000	5.9184113E+001	-3.9807572E+000	4.256097028817749E+000	1.2665136E-003	4.4793510E-004	1.8576440E-001	8.9526124E-004	1.000000000000000E+000	11	1.0903523E-002	1.8423058E-004	1.6855663E-002	1.1729742E-003	1.6896427E-002	3.9807572E+000
1.4090817E+005	5.8903053E+001	6.1308455E+000	5.9221252E+001	-5.9421587E+000	4.665079181577312E+000	1.2887407E-003	4.4849524E-004	1.8423137E-001	1.9744637E-003	1.000000000000000E+000	11	1.0781676E-002	1.8205754E-004	1.6795101E-002	1.7480957E-003	1.6885830E-002	5.9421587E+000
9.5214820E+004	5.9847328E+001	8.1504135E+000	6.0399769E+001	-7.7552161E+000	5.074091440968914E+000	1.2873608E-003	1.7293580E-004	2.0508596E-001	3.7344329E-003	1.000000000000000E+000	11	1.0654431E-002	1.7639853E-004	1.6404923E-002	2.2341332E-003	1.6556354E-002	7.7552161E+000
6.4345688E+004	6.1374844E+001	1.0419126E+001	6.2252949E+001	-9.6348000E+000	5.483095433766721E+000	1.2951179E-003	3.4543997E-004	2.3739383E-001	6.6498541E-003	1.000000000000000E+000	11	1.0609922E-002	1.7043244E-004	1.5836913E-002	2.6885085E-003	1.6063496E-002	9.6348000E+000
4.3476547E+004	6.3433105E+001	1.2994192E+001	6.4750351E+001	-1.1576810E+001	5.892089106520871E+000	1.2958265E-003	3.6616268E-004	2.8171879E-001	1.1345670E-002	1.000000000000000E+000	11	1.0496203E-002	1.6210265E-004	1.5129749E-002	3.0993102E-003	1.5443931E-002	1.1576810E+001
2.9384758E+004	6.5795738E+001	1.6082502E+001	6.7732758E+001	-1.3735527E+001	6.301085019280436E+000	1.3073316E-003	4.0555361E-004	3.3677855E-001	1.8986903E-002	1.000000000000000E+000	11	1.0396751E-002	1.5349664E-004	1.4341688E-002	3.5055492E-003	1.4763905E-002	1.3735527E+001
1.9853508E+004	6.8645172E+001	1.9983519E+001	7.1494759E+001	-1.6230978E+001	6.710076105373446E+000	1.3166737E-003	4.8807173E-004	4.0115383E-001	3.1340536E-002	1.000000000000000E+000	11	1.0298140E-002	1.4404049E-004	1.3429553E-002	3.9095213E-003	1.3987039E-002	1.6230978E+001
1.3417967E+004	7.1607933E+001	2.5235891E+001	7.5924606E+001	-1.9413353E+001	7.119088631443447E+000	1.3063806E-003	3.4338477E-004	4.7001833E-001	5.1926252E-002	1.000000000000000E+000	11	1.0264385E-002	1.3519180E-004	1.2422129E-002	4.3777763E-003	1.3170960E-002	1.9413353E+001
9.0820293E+003	7.5024605E+001	3.2473022E+001	8.1750771E+001	-2.3404488E+001	7.416348405560711E+000	1.3043667E-003	3.3965075E-004	5.3965288E-001	8.5148349E-002	1.000000000000000E+000	11	1.0818936E-002	1.3234047E-004	1.1225870E-002	4.8589115E-003	1.2232301E-002	2.3404488E+001
6.1409590E+003	7.9033432E+001	4.2691860E+001	8.9826935E+001	-2.8376795E+001	7.819651571440772E+000	1.3087675E-003	3.3330329E-004	6.0707009E-001	1.3712475E-001	1.000000000000000E+000	11	1.0967004E-002	1.2209038E-004	9.7948480E-003	5.2909288E-003	1.1132519E-002	2.8376795E+001
4.1413242E+003	8.4092209E+001	5.7109646E+001	1.0165142E+002	-3.4181652E+001	8.285662286907609E+000	1.3456882E-003	7.0183491E-004	6.7293245E-001	2.1240439E-001	1.000000000000000E+000	11	1.0933874E-002	1.0756243E-004	8.1382096E-003	5.5269124E-003	9.8375408E-003	3.4181652E+001
2.7973140E+003	9.0481087E+001	7.7226616E+001	1.1895704E+002	-4.0481125E+001	8.751960069028428E+000	1.3473105E-003	7.4962812E-004	7.3673600E-001	3.1050286E-001	1.000000000000000E+000	11	1.0838781E-002	9.1115093E-005	6.3940720E-003	5.4574115E-003	8.4063960E-003	4.0481125E+001
1.8906046E+003	9.9017365E+001	1.0564837E+002	1.4479646E+002	-4.6855690E+001	9.216667157794291E+000	1.3447559E-003	8.2691800E-004	7.9681337E-001	4.2419574E-001	1.000000000000000E+000	11	1.0752148E-002	7.4256983E-005	4.7227549E-003	5.0390293E-003	6.9062458E-003	4.6855690E+001
1.2871166E+003	1.1014235E+002	1.4429265E+002	1.8152605E+002	-5.2644562E+001	9.683180486579658E+000	1.3389940E-003	7.2348973E-004	8.5695505E-001	5.4146272E-001	1.000000000000000E+000	11	1.0680494E-002	5.8837253E-005	3.3425384E-003	4.3789130E-003	5.5088513E-003	5.2644562E+001
8.6306641E+002	1.2647804E+002	1.9999307E+002	2.3663036E+002	-5.7690243E+001	1.015021986878128E+001	1.3447745E-003	7.1844872E-004	9.2206377E-001	6.5864283E-001	1.000000000000000E+000	11	1.0638933E-002	4.4960136E-005	2.2587816E-003	3.5716924E-003	4.2260005E-003	5.7690243E+001
5.8369244E+002	1.4860751E+002	2.7612872E+002	3.1357816E+002	-6.1711662E+001	1.086919224957819E+001	1.3218948E-003	-3.1361626E-005	9.8747128E-001	7.6569539E-001	1.000000000000000E+000	12	1.0893040E-002	3.4737881E-005	1.5112946E-003	2.8081480E-003	3.1889977E-003	6.1711662E+001
3.9411707E+002	1.8254955E+002	3.8070596E+002	4.2221008E+002	-6.4382156E+001	1.133617939174292E+001	1.3239459E-003	2.4820780E-005	1.0607309E+000	8.6243701E-001	1.000000000000000E+000	12	1.0741529E-002	2.5441195E-005	1.0240555E-003	2.1356617E-003	2.3684890E-003	6.4382156E+001
2.6644943E+002	2.3094766E+002	5.2927838E+002	5.7747070E+002	-6.6426216E+001	1.179966578714084E+001	1.3259972E-003	-3.7446935E-005	1.1285510E+000	9.4804639E-001	1.000000000000000E+000	12	1.0654160E-002	1.8449698E-005	6.9255411E-004	1.5871729E-003	1.7316896E-003	6.6426216E+001
1.8005759E+002	3.0234396E+002	7.2397473E+002	7.8457074E+002	-6.7333771E+001	1.226468178256619E+001	1.3255496E-003	-6.8543581E-005	1.2209146E+000	1.0396038E+000	1.000000000000000E+000	12	1.0610050E-002	1.3523381E-005	4.9117586E-004	1.1761405E-003	1.2745823E-003	6.7333771E+001
1.2159529E+002	4.0540292E+002	9.8819299E+002	1.0681184E+003	-6.7694275E+001	1.272514628441422E+001	1.3151446E-003	9.9814270E-006	1.3245294E+000	1.1337215E+000	1.000000000000000E+000	12	1.0599291E-002	9.9233293E-006	3.5534319E-004	8.6616969E-004	9.3622581E-004	6.7694275E+001
8.2236801E+001	5.8032550E+002	1.3660896E+003	1.4842434E+003	-6.6983833E+001	1.318028574602795E+001	1.3232001E-003	-1.6127316E-004	1.4166898E+000	1.2001150E+000	1.000000000000000E+000	12	1.0588064E-002	7.1336440E-006	2.6342770E-004	6.2011025E-004	6.7374395E-004	6.6983833E+001
5.5515171E+001	8.4951184E+002	1.8444305E+003	2.0306636E+003	-6.5270042E+001	1.389286839321721E+001	1.3225661E-003	-4.9363407E-005	1.5543404E+000	1.2823153E+000	1.000000000000000E+000	13	1.0626920E-002	5.2332257E-006	2.0601247E-004	4.4728705E-004	4.9244985E-004	6.5270042E+001
3.7560089E+001	1.2716908E+003	2.4334790E+003	2.7457271E+003	-6.2409267E+001	1.438372777654149E+001	1.3312649E-003	-5.3244163E-005	1.7412692E+000	1.3677490E+000	1.000000000000000E+000	13	1.0597354E-002	3.8595804E-006	1.6868125E-004	3.2278462E-004	3.6420225E-004	6.2409267E+001
2.5365252E+001	1.9285829E+003	3.1385203E+003	3.6837129E+003	-5.8429775E+001	1.484287705167662E+001	1.3232001E-003	-4.8730672E-005	1.9991990E+000	1.4512237E+000	1.000000000000000E+000	13	1.0581128E-002	2.8724085E-006	1.4212378E-004	2.3128816E-004	2.7146525E-004	5.8429775E+001
1.7132671E+001	2.8825337E+003	3.8549905E+003	4.8135176E+003	-5.3213036E+001	1.525683021801524E+001	1.3211117E-003	-5.6488425E-005	2.4097486E+000	1.5455862E+000	1.000000000000000E+000	13	1.0584328E-002	2.1988760E-006	1.2440827E-004	1.6637887E-004	2.0774828E-004	5.3213036E+001
1.1591243E+001	4.1941450E+003	4.3872412E+003	6.0694922E+003	-4.6289040E+001	1.566628789078095E+001	1.3203471E-003	-5.0272545E-005	3.1296706E+000	1.6352228E+000	1.000000000000000E+000	13	1.0574993E-002	1.7423192E-006	1.1385149E-004	1.1909315E-004	1.6475843E-004	4.6289040E+001
7.8281527E+000	5.7568623E+003	4.6835918E+003	7.4214214E+003	-3.9130657E+001	1.624828010503552E+001	1.3298850E-003	-4.4051059E-005	4.3409200E+000	1.7288834E+000	1.000000000000000E+000	13	1.0573255E-002	1.4246940E-006	1.0452294E-004	8.5036401E-005	1.3474507E-004	3.9130657E+001
5.2930207E+000	7.4275674E+003	4.5907451E+003	8.7317637E+003	-3.1718903E+001	1.708474587816454E+001	1.3268054E-003	-4.7118530E-005	6.5498800E+000	1.8104885E+000	1.000000000000000E+000	13	1.0574558E-002	1.2110449E-006	9.7418771E-005	6.0211471E-005	1.1452440E-004	3.1718903E+001
3.5755143E+000	8.8314053E+003	4.0012798E+003	9.6955635E+003	-2.4374044E+001	1.890837513809674E+001	1.3338701E-003	-4.7301943E-005	1.1124557E+001	1.8946737E+000	1.000000000000000E+000	14	1.0583239E-002	1.0915547E-006	9.3947165E-005	4.2565018E-005	1.0313996E-004	2.4374044E+001
2.4172332E+000	9.9058916E+003	3.2248262E+003	1.0417591E+004	-1.8032467E+001	2.068547682245844E+001	1.3328661E-003	-4.6232857E-005	2.0417158E+001	1.9564705E+000	1.000000000000000E+000	14	1.0580475E-002	1.0156355E-006	9.1276503E-005	2.9714727E-005	9.5991483E-005	1.8032467E+001
1.6327059E+000	1.0617821E+004	2.4066680E+003	1.0887156E+004	-1.2771047E+001	2.329624649314792E+001	1.3316865E-003	-4.8015103E-005	4.0503822E+001	1.9792445E+000	1.000000000000000E+000	14	1.0579528E-002	9.7174393E-007	8.9579051E-005	2.0304264E-005	9.1851347E-005	1.2771047E+001
1.1020596E+000	1.1037666E+004	1.6757072E+003	1.1164142E+004	-8.6325636E+000	2.714558814259362E+001	1.3290533E-003	-4.8620430E-005	8.6182068E+001	1.9416122E+000	1.000000000000000E+000	14	1.0581304E-002	9.4779381E-007	8.8557746E-005	1.3444587E-005	8.9572495E-005	8.6325636E+000
7.4560940E-001	1.1232509E+004	1.0666968E+003	1.1283045E+004	-5.4248328E+000	3.281797718544840E+001	1.3314782E-003	-4.9732324E-005	2.0010953E+002	1.7885336E+000	1.000000000000000E+000	14	1.0580122E-002	9.3770097E-007	8.8231594E-005	8.3789255E-006	8.8628556E-005	5.4248328E+000
5.0390220E-001	1.1297604E+004	6.2179633E+002	1.1314702E+004	-3.1502609E+000	4.119371776995104E+001	1.3321730E-003	-5.1803581E-005	5.0795554E+002	1.5340368E+000	1.000000000000000E+000	14	1.0579349E-002	9.3500898E-007	8.8247027E-005	4.8569309E-006	8.8380584E-005	3.1502609E+000
3.4010270E-001	1.1293926E+004	3.1450198E+002	1.1298304E+004	-1.5951036E+000	5.358714273190708E+001	1.3304070E-003	-5.5599539E-005	1.4879442E+003	1.1529406E+000	1.000000000000000E+000	14	1.0579843E-002	9.3640983E-007	8.8474560E-005	2.4637516E-006	8.8508859E-005	1.5951036E+000
2.3021273E-001	1.1280333E+004	1.2309556E+002	1.1281005E+004	-6.2520993E-001	7.188037176078069E+001	1.3291783E-003	-6.0171100E-005	5.6162754E+003	6.6870964E-001	1.000000000000000E+000	14	1.0578974E-002	9.3776879E-007	8.8639310E-005	9.6726797E-007	8.8644585E-005	6.2520993E-001
1.5547264E-001	1.1289980E+004	-2.5255260E+000	1.1289980E+004	1.2816850E-002	9.895157768655918E+001	1.3287505E-003	-6.6397857E-005	-4.0533519E+005	-2.0282974E-002	1.000000000000000E+000	14	1.0578967E-002	9.3702255E-007	8.8574110E-005	-1.9813696E-008	8.8574110E-005	-1.2816850E-002
1.0504906E-001	1.1376884E+004	-9.2715561E+001	1.1377262E+004	4.6691984E-001	1.390009274022013E+002	1.3292041E-003	-7.6185715E-005	-1.6340876E+004	-1.0851883E+000	1.000000000000000E+000	14	1.0578278E-002	9.2977365E-007	8.7891691E-005	-7.1627062E-007	8.7894608E-005	-4.6691984E-001
7.1022727E-002	1.1541852E+004	-1.4303722E+002	1.1542738E+004	7.1002549E-001	1.982215772016498E+002	1.3296641E-003	-9.1212547E-005	-1.5666563E+004	-2.4057703E+000	1.000000000000000E+000	14	1.0578352E-002	9.1645086E-007	8.6627908E-005	-1.0735724E-006	8.6634558E-005	-7.1002549E-001
4.7988325E-002	1.1800226E+004	-2.0811717E+002	1.1802061E+004	1.0104043E+000	2.858521268305776E+002	1.3261294E-003	-1.1283715E-004	-1.5935900E+004	-4.9553781E+000	1.000000000000000E+000	14	1.0579336E-002	8.9639735E-007	8.4717787E-005	-1.4941431E-006	8.4730964E-005	-1.0104043E+000
3.2443926E-002	1.2193247E+004	-2.8956091E+002	1.2196685E+004	1.3603841E+000	4.154519660529040E+002	1.3296482E-003	-1.4240449E-004	-1.6941303E+004	-9.5486746E+000	1.000000000000000E+000	14	1.0579476E-002	8.6740590E-007	8.1966384E-005	-1.9465085E-006	8.1989492E-005	-1.3603841E+000
2.1920588E-002	1.2807167E+004	-4.7205545E+002	1.2815863E+004	2.1108921E+000	6.072524099095899E+002	1.3314279E-003	-1.8735760E-004	-1.5380657E+004	-2.0867249E+001	1.000000000000000E+000	14	1.0578519E-002	8.2542380E-007	7.7975354E-005	-2.8740697E-006	7.8028301E-005	-2.1108921E+000
1.4807615E-002	1.3956574E+004	-7.3880664E+002	1.3976115E+004	3.0301869E+000	8.911699235549604E+002	1.3308193E-003	-2.5148148E-004	-1.4548030E+004	-4.0653023E+001	1.000000000000000E+000	14	1.0578979E-002	7.5693271E-007	7.1450602E-005	-3.7823161E-006	7.1550639E-005	-3.0301869E+000
1.0000636E-002	1.5587900E+004	-8.8624280E+002	1.5613073E+004	3.2540216E+000	1.311540402001439E+003	1.3290844E-003	-3.1677814E-004	-1.7957248E+004	-5.7858669E+001	1.000000000000000E+000	14	1.0579078E-002	6.7757816E-007	6.3945619E-005	-3.6355984E-006	6.4048887E-005	-3.2540216E+000