EC-Lab ASCII FILE
Nb header lines : 62                          

Potentio Electrochemical Impedance Spectroscopy

Run on channel : 1 (SN 35512)
User : 
CE vs. WE compliance from -10 V to 10 V
Electrode connection : standard
Ewe ctrl range : min = -5.00 V, max = 5.00 V
Safety Limits :
	Do not start on E overload
Acquisition started on : 07/09/2023 10:45:09
Technique started on : 07/09/2023 10:45:11
Saved on :
	File : 0708_01_EIS_0.5MTFSI_Blocking_InsideGB_day_2_C01.mpr
	Directory : C:\Users\CESL\Documents\EC-Lab\Data\PhD\Leifer\Results\Zn Ion GPE\2023\0708\
	Host : 10.110.196.171
Device : VSP (SN 1724172417241724)
Address : USB
EC-Lab for windows v11.16 (software)
Internet server v11.16 (firmware)
Command interpretor v11.16 (firmware)
Electrode material : Au/Pd
Initial state : 
Electrolyte : NaCl (0.2M)
Comments : Fe(CN)63-/Fe(CN)64- 5.10-3 M
Reference electrode : SCE Saturated Calomel Electrode (0.241 V)
Electrode surface area : 0.001 cm²
Characteristic mass : 0.001 g
Equivalent Weight : 0.000 g/eq.
Density : 0.000 g/cm3
Cycle Definition : Charge/Discharge alternance
Mode                Single sine         
E (V)               0.0000              
vs.                 Eoc                 
tE (h:m:s)          0:00:0.0000         
record              0                   
dI                  0.000               
unit dI             mA                  
dt (s)              0.000               
fi                  1.000               
unit fi             MHz                 
ff                  10.000              
unit ff             mHz                 
Nd                  6                   
Points              per decade          
spacing             Logarithmic         
Va (mV)             10.0                
pw                  0.10                
Na                  2                   
corr                1                   
E range min (V)     -5.000              
E range max (V)     5.000               
I Range             Auto                
Bandwidth           5                   
nc cycles           0                   
goto Ns'            0                   
nr cycles           0                   
inc. cycle          0                   

freq/Hz	Re(Z)/Ohm	-Im(Z)/Ohm	|Z|/Ohm	Phase(Z)/deg	time/s	<Ewe>/V	<I>/mA	Cs/µF	Cp/µF	cycle number	I Range	|Ewe|/V	|I|/A	Re(Y)/Ohm-1	Im(Y)/Ohm-1	|Y|/Ohm-1	Phase(Y)/deg	
1.0000193E+006	-3.0819427E+001	2.0086195E+001	3.6787121E+001	-1.4690617E+002	2.306076802866301E+000	7.1423948E-002	8.6799003E-003	7.9234457E-003	2.3622063E-003	1.000000000000000E+000	10	2.5207779E-004	6.8523382E-006	-2.2773664E-002	1.4842468E-002	2.7183427E-002	1.4690617E+002
6.7575181E+005	2.4748503E+001	-1.0698126E+001	2.6961794E+001	2.3377558E+001	2.715086128970142E+000	7.0796795E-002	6.8506030E-003	-2.2015329E-002	-3.4661156E-003	1.000000000000000E+000	10	1.3416354E-003	4.9760612E-005	3.4044843E-002	-1.4716690E-002	3.7089519E-002	-2.3377558E+001
4.5664050E+005	1.3704539E+001	-3.5795794E+000	1.4164314E+001	1.4638417E+001	3.124097161722602E+000	7.0906259E-002	6.4869905E-003	-9.7367428E-002	-6.2185135E-003	1.000000000000000E+000	10	4.7113886E-003	3.3262384E-004	6.8308279E-002	-1.7841892E-002	7.0599958E-002	-1.4638417E+001
3.0857416E+005	1.1426446E+001	-1.7722799E+000	1.1563072E+001	8.8165150E+000	3.533099234482506E+000	7.0715122E-002	7.6077092E-003	-2.9102364E-001	-6.8366979E-003	1.000000000000000E+000	10	1.0065391E-002	8.7047718E-004	8.5460350E-002	-1.3255186E-002	8.6482204E-002	-8.8165150E+000
2.0852534E+005	1.0603523E+001	-8.3621013E-001	1.0636444E+001	4.5091014E+000	4.074087686836720E+000	7.0678741E-002	7.1508489E-003	-9.1273743E-001	-5.6413598E-003	1.000000000000000E+000	10	1.0121615E-002	9.5159758E-004	9.3725383E-002	-7.3913285E-003	9.4016381E-002	-4.5091014E+000
1.4090817E+005	1.0287609E+001	-2.1027195E-001	1.0289758E+001	1.1709249E+000	4.615093899163185E+000	7.0680402E-002	7.9191159E-003	-5.3715868E+000	-2.2431330E-003	1.000000000000000E+000	10	1.0146501E-002	9.8607771E-004	9.7163722E-002	-1.9859625E-003	9.7184017E-002	-1.1709249E+000
9.5214820E+004	1.0171767E+001	3.6022106E-001	1.0178144E+001	-2.0282145E+000	5.156091258191736E+000	7.0684262E-002	7.4809045E-003	4.6403046E+000	5.8122934E-003	1.000000000000000E+000	10	1.0109310E-002	9.9323713E-004	9.8188199E-002	3.4772186E-003	9.8249748E-002	2.0282145E+000
6.4345688E+004	1.0131770E+001	9.4939792E-001	1.0176154E+001	-5.3532720E+000	5.565085890993942E+000	7.0702501E-002	8.9260731E-003	2.6052680E+000	2.2676792E-002	1.000000000000000E+000	10	1.0565232E-002	1.0382342E-003	9.7840339E-002	9.1681331E-003	9.8268948E-002	5.3532720E+000
4.3476547E+004	1.0153758E+001	1.6703234E+000	1.0290228E+001	-9.3416595E+000	5.974088657094399E+000	7.0690766E-002	8.4841298E-003	2.1916165E+000	5.7745174E-002	1.000000000000000E+000	10	1.0521438E-002	1.0224689E-003	9.5890775E-002	1.5774317E-002	9.7179577E-002	9.3416595E+000
2.9384758E+004	1.0208010E+001	2.6011620E+000	1.0534206E+001	-1.4295641E+001	6.383076729835011E+000	7.0691705E-002	9.1423774E-003	2.0822392E+000	1.2695850E-001	1.000000000000000E+000	10	1.0336627E-002	9.8124403E-004	9.1989323E-002	2.3440331E-002	9.4928838E-002	1.4295641E+001
1.9853508E+004	1.0298949E+001	3.8865910E+000	1.1007904E+001	-2.0675373E+001	6.792099762620637E+000	7.0706338E-002	8.6407680E-003	2.0625954E+000	2.5712392E-001	1.000000000000000E+000	10	1.0191648E-002	9.2584820E-004	8.4993094E-002	3.2074474E-002	9.0843812E-002	2.0675373E+001
1.3417967E+004	1.0461537E+001	5.7001290E+000	1.1913657E+001	-2.8584436E+001	7.069082362431800E+000	7.0706747E-002	8.8738585E-003	2.0808883E+000	4.7635192E-001	1.000000000000000E+000	10	1.0990872E-002	9.2254393E-004	7.3706411E-002	4.0160071E-002	8.3937280E-002	2.8584436E+001
9.0820293E+003	1.0677928E+001	8.2971888E+000	1.3522629E+001	-3.7848675E+001	7.506328676507110E+000	7.0704497E-002	9.4127571E-003	2.1120601E+000	7.9514426E-001	1.000000000000000E+000	10	1.0208790E-002	7.5494125E-004	5.8393531E-002	4.5374174E-002	7.3950119E-002	3.7848675E+001
6.1409590E+003	1.1016828E+001	1.2061278E+001	1.6335388E+001	-4.7591278E+001	7.909627442380952E+000	7.0707910E-002	8.7228054E-003	2.1487732E+000	1.1714354E+000	1.000000000000000E+000	10	1.0075695E-002	6.1680167E-004	4.1285507E-002	4.5199580E-002	6.1216787E-002	4.7591278E+001
4.1413242E+003	1.1496964E+001	1.7503504E+001	2.0941652E+001	-5.6701576E+001	8.375691517845553E+000	7.0746131E-002	1.1697050E-002	2.1956136E+000	1.5338540E+000	1.000000000000000E+000	10	9.8835249E-003	4.7195534E-004	2.6215689E-002	3.9911963E-002	4.7751725E-002	5.6701576E+001
2.7973140E+003	1.2331934E+001	2.5404785E+001	2.8239683E+001	-6.4107239E+001	8.841933913296089E+000	7.0740879E-002	1.1154408E-002	2.2395635E+000	1.8124865E+000	1.000000000000000E+000	10	9.7496212E-003	3.4524541E-004	1.5463633E-002	3.1856339E-002	3.5411160E-002	6.4107239E+001
1.8906046E+003	1.3464885E+001	3.6809303E+001	3.9194744E+001	-6.9907425E+001	9.559687307417335E+000	7.0715368E-002	8.7732205E-004	2.2869771E+000	2.0170717E+000	1.000000000000000E+000	11	1.0397239E-002	2.6527126E-004	8.7648993E-003	2.3960834E-002	2.5513625E-002	6.9907425E+001
1.2871166E+003	1.5230432E+001	5.2809063E+001	5.4961472E+001	-7.3912140E+001	1.002620554287569E+001	7.0712231E-002	8.8962505E-004	2.3414979E+000	2.1616929E+000	1.000000000000000E+000	11	9.9719251E-003	1.8143482E-004	5.0419150E-003	1.7482026E-002	1.8194564E-002	7.3912140E+001
8.6306641E+002	1.7786257E+001	7.6798416E+001	7.8831131E+001	-7.6960381E+001	1.049319407172152E+001	7.0719674E-002	8.9577492E-004	2.4011741E+000	2.2789388E+000	1.000000000000000E+000	11	9.7587826E-003	1.2379351E-004	2.8621277E-003	1.2358243E-002	1.2685344E-002	7.6960381E+001
5.8369244E+002	2.1353720E+001	1.1057220E+002	1.1261524E+002	-7.9069588E+001	1.096018166720751E+001	7.0713483E-002	8.3108165E-004	2.4659832E+000	2.3773201E+000	1.000000000000000E+000	11	9.6673900E-003	8.5844418E-005	1.6837565E-003	8.7186974E-003	8.8797929E-003	7.9069588E+001
3.9411707E+002	2.7099051E+001	1.5956348E+002	1.6184827E+002	-8.0361290E+001	1.142721710275509E+001	7.0708394E-002	1.0685975E-003	2.5308208E+000	2.4598706E+000	1.000000000000000E+000	11	9.6190311E-003	5.9432401E-005	1.0345175E-003	6.0914038E-003	6.1786268E-003	8.0361290E+001
2.6644943E+002	3.4882313E+001	2.2981712E+002	2.3244933E+002	-8.1369354E+001	1.189067376479943E+001	7.0710950E-002	8.2884310E-004	2.5990996E+000	2.5405698E+000	1.000000000000000E+000	11	9.5910979E-003	4.1261028E-005	6.4557802E-004	4.2532980E-003	4.3020127E-003	8.1369354E+001
1.8005759E+002	4.9114723E+001	3.3193793E+002	3.3555185E+002	-8.1583382E+001	1.260770219885308E+001	7.0716873E-002	1.6247728E-004	2.6628814E+000	2.6058314E+000	1.000000000000000E+000	12	9.6655162E-003	2.8804838E-005	4.3620667E-004	2.9480688E-003	2.9801654E-003	8.1583382E+001
1.2159529E+002	6.9589539E+001	4.7832285E+002	4.8335852E+002	-8.1722313E+001	1.306811347402981E+001	7.0718683E-002	1.1915613E-005	2.7364168E+000	2.6796973E+000	1.000000000000000E+000	12	9.6177962E-003	1.9897852E-005	2.9785518E-004	2.0473041E-003	2.0688577E-003	8.1722313E+001
8.2236801E+001	9.9860001E+001	6.7916840E+002	6.8647046E+002	-8.1635574E+001	1.352329394899425E+001	7.0717700E-002	1.0412106E-004	2.8495512E+000	2.7892516E+000	1.000000000000000E+000	12	9.5941685E-003	1.3976084E-005	2.1190828E-004	1.4412315E-003	1.4567269E-003	8.1635574E+001
5.5515171E+001	1.6714047E+002	9.7645233E+002	9.9065387E+002	-8.0286751E+001	1.398586855761823E+001	7.0719227E-002	3.6589263E-005	2.9360092E+000	2.8524342E+000	1.000000000000000E+000	12	9.5799631E-003	9.6703434E-006	1.7030905E-004	9.9496357E-004	1.0094343E-003	8.0286751E+001
3.7560089E+001	2.5601367E+002	1.3786058E+003	1.4021758E+003	-7.9479744E+001	1.447774562099949E+001	7.0724584E-002	1.3378370E-004	3.0736430E+000	2.9711783E+000	1.000000000000000E+000	12	9.5738843E-003	6.8278773E-006	1.3021415E-004	7.0118910E-004	7.1317732E-004	7.9479744E+001
2.5365252E+001	3.9082547E+002	1.9711700E+003	2.0095413E+003	-7.8785362E+001	1.518685277467011E+001	7.0720121E-002	1.9174229E-005	3.1831484E+000	3.0627475E+000	1.000000000000000E+000	13	9.5964018E-003	4.7754193E-006	9.6780779E-005	4.8812412E-004	4.9762602E-004	7.8785362E+001
1.7132671E+001	6.0602997E+002	2.7466589E+003	2.8127224E+003	-7.7557465E+001	1.559983234097308E+001	7.0713893E-002	-7.3241063E-006	3.3821299E+000	3.2251210E+000	1.000000000000000E+000	13	9.5920861E-003	3.4102497E-006	7.6602060E-005	3.4717703E-004	3.5552745E-004	7.7557465E+001
1.1591243E+001	9.0285419E+002	3.8333474E+003	3.9382354E+003	-7.6746872E+001	1.600927020036033E+001	7.0708953E-002	4.2251650E-006	3.5818877E+000	3.3936338E+000	1.000000000000000E+000	13	9.5859403E-003	2.4340700E-006	5.8212245E-005	2.4715808E-004	2.5392082E-004	7.6746872E+001
7.8281527E+000	1.3213916E+003	5.2225278E+003	5.3871025E+003	-7.5801147E+001	1.659127574801096E+001	7.0720583E-002	-1.0517791E-005	3.8929610E+000	3.6587365E+000	1.000000000000000E+000	13	9.5758447E-003	1.7775501E-006	4.5532448E-005	1.7995764E-004	1.8562854E-004	7.5801147E+001
5.2930207E+000	1.8480415E+003	7.1731802E+003	7.4074131E+003	-7.5552940E+001	1.742770400112931E+001	7.0725217E-002	3.6470474E-006	4.1918411E+000	3.9309285E+000	1.000000000000000E+000	13	9.5760440E-003	1.2927650E-006	3.3680495E-005	1.3073100E-004	1.3499989E-004	7.5552940E+001
3.5755143E+000	2.4375022E+003	9.9154199E+003	1.0210630E+004	-7.6188873E+001	1.925134096769034E+001	7.0729889E-002	-9.0256134E-007	4.4892159E+000	4.2333841E+000	1.000000000000000E+000	14	9.5792003E-003	9.3815959E-007	2.3379758E-005	9.5105592E-005	9.7937154E-005	7.6188873E+001
2.4172332E+000	3.0246409E+003	1.3738042E+004	1.4067063E+004	-7.7583542E+001	2.102855022545555E+001	7.0726357E-002	1.3608519E-006	4.7926612E+000	4.5710878E+000	1.000000000000000E+000	14	9.5769037E-003	6.8080340E-007	1.5285059E-005	6.9425339E-005	7.1088049E-005	7.7583542E+001
1.6327059E+000	3.6638479E+003	1.9408475E+004	1.9751270E+004	-7.9309753E+001	2.363943378944532E+001	7.0723526E-002	1.1518608E-006	5.0225096E+000	4.8496852E+000	1.000000000000000E+000	14	9.5765544E-003	4.8485765E-007	9.3917679E-006	4.9750946E-005	5.0629656E-005	7.9309753E+001
1.1020596E+000	4.5007090E+003	2.7838502E+004	2.8199975E+004	-8.0816338E+001	2.748844519894919E+001	7.0727557E-002	3.2135699E-007	5.1876326E+000	5.0554924E+000	1.000000000000000E+000	14	9.5760413E-003	3.3957625E-007	5.6595691E-006	3.5006477E-005	3.5461024E-005	8.0816338E+001
7.4560940E-001	5.5783110E+003	4.0028230E+004	4.0415055E+004	-8.2066391E+001	3.316018701498979E+001	7.0723981E-002	7.3953697E-007	5.3326411E+000	5.2310491E+000	1.000000000000000E+000	14	9.5745847E-003	2.3690639E-007	3.4152010E-006	2.4506429E-005	2.4743254E-005	8.2066391E+001
5.0390220E-001	7.0474688E+003	5.7673250E+004	5.8102242E+004	-8.3033195E+001	4.153601306618657E+001	7.0724517E-002	7.4397610E-007	5.4764538E+000	5.3958826E+000	1.000000000000000E+000	14	9.5730545E-003	1.6476223E-007	2.0876005E-006	1.7083963E-005	1.7211039E-005	8.3033195E+001
3.4010270E-001	9.5171299E+003	8.3664211E+004	8.4203773E+004	-8.3510277E+001	5.392939050812856E+001	7.0725530E-002	9.8701048E-007	5.5933285E+000	5.5218759E+000	1.000000000000000E+000	14	9.5755551E-003	1.1371883E-007	1.3422796E-006	1.1799853E-005	1.1875953E-005	8.3510277E+001
2.3021273E-001	1.3058502E+004	1.2098515E+005	1.2168784E+005	-8.3839645E+001	7.222266353708255E+001	7.0721537E-002	8.7422120E-007	5.7142429E+000	5.6484389E+000	1.000000000000000E+000	14	9.5742764E-003	7.8678987E-008	8.8185828E-007	8.1702938E-006	8.2177476E-006	8.3839645E+001
1.5547264E-001	1.8596713E+004	1.7535967E+005	1.7634300E+005	-8.3946465E+001	9.929393218288897E+001	7.0723735E-002	8.2005039E-007	5.8376284E+000	5.7727060E+000	1.000000000000000E+000	14	9.5734904E-003	5.4289032E-008	5.9802585E-007	5.6391455E-006	5.6707668E-006	8.3946465E+001
1.0504906E-001	2.6926988E+004	2.5317956E+005	2.5460745E+005	-8.3929115E+001	1.393433738450694E+002	7.0719890E-002	7.4485968E-007	5.9841065E+000	5.9171748E+000	1.000000000000000E+000	14	9.5744468E-003	3.7604739E-008	4.1537973E-007	3.9055881E-006	3.9276147E-006	8.3929115E+001
7.1022727E-002	3.8940109E+004	3.6510916E+005	3.6717984E+005	-8.3912224E+001	1.985641753779200E+002	7.0720233E-002	7.8960386E-007	6.1376209E+000	6.0685906E+000	1.000000000000000E+000	14	9.5730396E-003	2.6071801E-008	2.8882829E-007	2.7081023E-006	2.7234610E-006	8.3912224E+001
4.7988325E-002	5.7405109E+004	5.2848531E+005	5.3159388E+005	-8.3800728E+001	2.861950237801939E+002	7.0719272E-002	5.3505937E-007	6.2755475E+000	6.2023678E+000	1.000000000000000E+000	14	9.5741870E-003	1.8010342E-008	2.0313765E-007	1.8701351E-006	1.8811353E-006	8.3800728E+001
3.2443926E-002	8.7966273E+004	7.6524481E+005	7.7028419E+005	-8.3442528E+001	4.157951815091947E+002	7.0717067E-002	6.4445828E-007	6.4104180E+000	6.3268156E+000	1.000000000000000E+000	14	9.5737120E-003	1.2428806E-008	1.4825670E-007	1.2897290E-006	1.2982222E-006	8.3442528E+001
2.1920588E-002	1.4607444E+005	1.1030848E+006	1.1127146E+006	-8.2456581E+001	6.075959958459425E+002	7.0723355E-002	8.5482901E-007	6.5820179E+000	6.4685836E+000	1.000000000000000E+000	14	9.5740752E-003	8.6042506E-009	1.1797947E-007	8.9092538E-007	8.9870304E-007	8.2456581E+001
1.4807615E-002	2.2066158E+005	1.5779538E+006	1.5933078E+006	-8.2039360E+001	8.915142650379858E+002	7.0716634E-002	6.7208134E-007	6.8114681E+000	6.6808224E+000	1.000000000000000E+000	14	9.5725833E-003	6.0079941E-009	8.6921553E-008	6.2157699E-007	6.2762513E-007	8.2039360E+001
1.0000636E-002	3.8589006E+005	2.2578433E+006	2.2905823E+006	-8.0301239E+001	1.311886770871301E+003	7.0711330E-002	7.9780392E-007	7.0485330E+000	6.8484850E+000	1.000000000000000E+000	14	9.5737185E-003	4.1796002E-009	7.3548136E-008	4.3033037E-007	4.3657022E-007	8.0301239E+001