EC-Lab ASCII FILE
Nb header lines : 62                          

Potentio Electrochemical Impedance Spectroscopy

Run on channel : 3 (SN 35515)
User : 
CE vs. WE compliance from -10 V to 10 V
Electrode connection : standard
Ewe ctrl range : min = -5.00 V, max = 5.00 V
Safety Limits :
	Do not start on E overload
Acquisition started on : 07/09/2023 15:26:00
Technique started on : 07/09/2023 15:26:02
Saved on :
	File : 0708_01_EIS_0.5MTFSI_Blocking_OutsideGB_24hr_40C_C03.mpr
	Directory : C:\Users\CESL\Documents\EC-Lab\Data\PhD\Leifer\Results\Zn Ion GPE\2023\0708\
	Host : 10.110.196.171
Device : VSP (SN 1724172417241724)
Address : USB
EC-Lab for windows v11.16 (software)
Internet server v11.16 (firmware)
Command interpretor v11.16 (firmware)
Electrode material : Au/Pd
Initial state : 
Electrolyte : NaCl (0.2M)
Comments : Fe(CN)63-/Fe(CN)64- 5.10-3 M
Reference electrode : SCE Saturated Calomel Electrode (0.241 V)
Electrode surface area : 0.001 cm²
Characteristic mass : 0.001 g
Equivalent Weight : 0.000 g/eq.
Density : 0.000 g/cm3
Cycle Definition : Charge/Discharge alternance
Mode                Single sine         
E (V)               0.0000              
vs.                 Eoc                 
tE (h:m:s)          0:00:0.0000         
record              0                   
dI                  0.000               
unit dI             mA                  
dt (s)              0.000               
fi                  1.000               
unit fi             MHz                 
ff                  10.000              
unit ff             mHz                 
Nd                  6                   
Points              per decade          
spacing             Logarithmic         
Va (mV)             10.0                
pw                  0.10                
Na                  2                   
corr                1                   
E range min (V)     -5.000              
E range max (V)     5.000               
I Range             Auto                
Bandwidth           5                   
nc cycles           0                   
goto Ns'            0                   
nr cycles           0                   
inc. cycle          0                   

freq/Hz	Re(Z)/Ohm	-Im(Z)/Ohm	|Z|/Ohm	Phase(Z)/deg	time/s	<Ewe>/V	<I>/mA	Cs/µF	Cp/µF	cycle number	I Range	|Ewe|/V	|I|/A	Re(Y)/Ohm-1	Im(Y)/Ohm-1	|Y|/Ohm-1	Phase(Y)/deg	
1.0000193E+006	-8.9424919E+001	9.2249537E+000	8.9899475E+001	-1.7411028E+002	2.488087558187544E+000	-2.2939313E-002	-2.4019084E-003	1.7252322E-002	1.8166097E-004	1.000000000000000E+000	11	4.1123093E-004	4.5743418E-006	-1.1064816E-002	1.1414321E-003	1.1123535E-002	1.7411028E+002
6.7575181E+005	5.7181305E+001	-1.2351023E+001	5.8499996E+001	1.2188499E+001	2.897100404283265E+000	-2.3577698E-002	-8.3872821E-004	-1.9069090E-002	-8.5001020E-004	1.000000000000000E+000	11	1.9667160E-003	3.3619079E-005	1.6708689E-002	-3.6090361E-003	1.7094018E-002	-1.2188499E+001
4.5664050E+005	3.2716290E+001	-5.2125669E+000	3.3128937E+001	9.0526390E+000	3.306088610348525E+000	-2.3567857E-002	-9.5172564E-004	-6.6864260E-002	-1.6553215E-003	1.000000000000000E+000	11	5.9451731E-003	1.7945560E-004	2.9809114E-002	-4.7493773E-003	3.0185092E-002	-9.0526390E+000
3.0857416E+005	2.7153238E+001	-2.3656902E+000	2.7256098E+001	4.9792461E+000	4.009083230426768E+000	-2.3817200E-002	3.5544960E-003	-2.1802320E-001	-1.6424460E-003	1.000000000000000E+000	10	9.1273440E-003	3.3487348E-004	3.6550581E-002	-3.1844212E-003	3.6689039E-002	-4.9792461E+000
2.0852534E+005	2.5170406E+001	-1.3269712E+000	2.5205360E+001	3.0178111E+000	4.550092536112061E+000	-2.3837125E-002	3.8733850E-003	-5.7517469E-001	-1.5941785E-003	1.000000000000000E+000	10	1.0146949E-002	4.0257105E-004	3.9619081E-002	-2.0886981E-003	3.9674100E-002	-3.0178111E+000
1.4090817E+005	2.4368961E+001	-6.6061682E-001	2.4377914E+001	1.5528477E+000	5.091092455113539E+000	-2.3825774E-002	3.2337448E-003	-1.7097569E+000	-1.2555687E-003	1.000000000000000E+000	10	1.0096284E-002	4.1415700E-004	4.1005671E-002	-1.1116205E-003	4.1020736E-002	-1.5528477E+000
9.5214820E+004	2.4026499E+001	-2.3107357E-001	2.4027611E+001	5.5102211E-001	5.500077914563008E+000	-2.3803949E-002	4.9605859E-003	-7.2337804E+000	-6.6902861E-004	1.000000000000000E+000	10	1.0670639E-002	4.4409905E-004	4.1616861E-002	-4.0024795E-004	4.1618787E-002	-5.5102211E-001
6.4345688E+004	2.3909554E+001	1.2972537E-001	2.3909906E+001	-3.1086496E-001	5.909099560667528E+000	-2.3811720E-002	4.4160523E-003	1.9066711E+001	5.6126743E-004	1.000000000000000E+000	10	1.0431557E-002	4.3628598E-004	4.1823056E-002	2.2691810E-004	4.1823670E-002	3.1086496E-001
4.3476547E+004	2.3827738E+001	4.5467663E-001	2.3832075E+001	-1.0931752E+000	6.318077500094660E+000	-2.3799103E-002	3.5582269E-003	8.0512342E+000	2.9305154E-003	1.000000000000000E+000	10	1.0373194E-002	4.3526187E-004	4.1952621E-002	8.0053241E-004	4.1960258E-002	1.0931752E+000
2.9384758E+004	2.3881357E+001	8.3791304E-001	2.3896053E+001	-2.0094836E+000	6.727081546181580E+000	-2.3795413E-002	4.0412196E-003	6.4639659E+000	7.9477578E-003	1.000000000000000E+000	10	1.0126851E-002	4.2378763E-004	4.1822180E-002	1.4673936E-003	4.1847914E-002	2.0094836E+000
1.9853508E+004	2.3873810E+001	1.2670016E+000	2.3907406E+001	-3.0378816E+000	7.004077639343450E+000	-2.3818394E-002	4.2015971E-003	6.3271146E+000	1.7770316E-002	1.000000000000000E+000	10	1.0965723E-002	4.5867471E-004	4.1769262E-002	2.2167272E-003	4.1828044E-002	3.0378816E+000
1.3417967E+004	2.3991661E+001	1.8874841E+000	2.4065794E+001	-4.4983368E+000	7.413099365396192E+000	-2.3805942E-002	3.1927184E-003	6.2842016E+000	3.8655948E-002	1.000000000000000E+000	10	1.0223166E-002	4.2480070E-004	4.1424755E-002	3.2589890E-003	4.1552752E-002	4.4983368E+000
9.0820293E+003	2.4054979E+001	2.7239163E+000	2.4208712E+001	-6.4604888E+000	7.710329779511085E+000	-2.3807732E-002	2.9036682E-003	6.4334431E+000	8.1449352E-002	1.000000000000000E+000	10	1.0422178E-002	4.3051352E-004	4.1045129E-002	4.6478319E-003	4.1307446E-002	6.4604888E+000
6.1409590E+003	2.4285805E+001	3.9139619E+000	2.4599174E+001	-9.1552114E+000	8.113656252069632E+000	-2.3821302E-002	3.6189304E-004	6.6216669E+000	1.6763297E-001	1.000000000000000E+000	10	1.0521021E-002	4.2769813E-004	4.0133908E-002	6.4680828E-003	4.0651772E-002	9.1552114E+000
4.1413242E+003	2.4571529E+001	5.5853934E+000	2.5198347E+001	-1.2806383E+001	8.579663500866445E+000	-2.3793232E-002	2.2864060E-003	6.8806133E+000	3.3805749E-001	1.000000000000000E+000	10	1.0565628E-002	4.1929848E-004	3.8697962E-002	8.7964945E-003	3.9685141E-002	1.2806383E+001
2.7973140E+003	2.5031296E+001	8.0084553E+000	2.6281193E+001	-1.7741436E+001	9.045956109650433E+000	-2.3795879E-002	2.3106479E-003	7.1044450E+000	6.5968639E-001	1.000000000000000E+000	10	1.0570769E-002	4.0221802E-004	3.6240414E-002	1.1594676E-002	3.8050022E-002	1.7741436E+001
1.8906046E+003	2.5807590E+001	1.1350311E+001	2.8193285E+001	-2.3740139E+001	9.510708185087424E+000	-2.3792412E-002	2.5362924E-003	7.4167161E+000	1.2020868E+000	1.000000000000000E+000	10	1.0564008E-002	3.7469942E-004	3.2468043E-002	1.4279611E-002	3.5469439E-002	2.3740139E+001
1.2871166E+003	2.6836224E+001	1.5971596E+001	3.1229389E+001	-3.0759020E+001	9.977176260523265E+000	-2.3792021E-002	2.8999350E-003	7.7420135E+000	2.0249932E+000	1.000000000000000E+000	10	1.0558778E-002	3.3810391E-004	2.7516577E-002	1.6376510E-002	3.2021120E-002	3.0759020E+001
8.6306641E+002	2.8582893E+001	2.2588358E+001	3.6430973E+001	-3.8318451E+001	1.069619040135876E+001	-2.3807453E-002	2.8979199E-004	8.1637793E+000	3.1384776E+000	1.000000000000000E+000	11	1.0784794E-002	2.9603366E-004	2.1535980E-002	1.7019356E-002	2.7449170E-002	3.8318451E+001
5.8369244E+002	3.1150814E+001	3.1517984E+001	4.4314293E+001	-4.5335690E+001	1.116317618355970E+001	-2.3813417E-002	3.4573206E-004	8.6512260E+000	4.3762975E+000	1.000000000000000E+000	11	1.0692583E-002	2.4128972E-004	1.5862867E-002	1.6049843E-002	2.2566082E-002	4.5335690E+001
3.9411707E+002	3.4915546E+001	4.3764637E+001	5.5986061E+001	-5.1417038E+001	1.163019745904603E+001	-2.3814647E-002	2.6536247E-004	9.2272348E+000	5.6384325E+000	1.000000000000000E+000	11	1.0620280E-002	1.8969507E-004	1.1139329E-002	1.3962510E-002	1.7861588E-002	5.1417038E+001
2.6644943E+002	4.0408104E+001	6.0251369E+001	7.2546829E+001	-5.6151878E+001	1.209365169444209E+001	-2.3816865E-002	3.1179137E-004	9.9137602E+000	6.8380990E+000	1.000000000000000E+000	11	1.0575788E-002	1.4577877E-004	7.6777078E-003	1.1448012E-002	1.3784200E-002	5.6151878E+001
1.8005759E+002	4.8107647E+001	8.2602638E+001	9.5590492E+001	-5.9783546E+001	1.255867280986422E+001	-2.3815971E-002	4.2479203E-004	1.0700765E+001	7.9904866E+000	1.000000000000000E+000	11	1.0551123E-002	1.1037837E-004	5.2648345E-003	9.0399189E-003	1.0461291E-002	5.9783546E+001
1.2159529E+002	5.8880676E+001	1.1290292E+002	1.2733421E+002	-6.2457237E+001	1.301811277828529E+001	-2.3816846E-002	2.5417094E-004	1.1593063E+001	9.1141949E+000	1.000000000000000E+000	11	1.0535334E-002	8.2737657E-005	3.6314710E-003	6.9632968E-003	7.8533487E-003	6.2457237E+001
8.2236801E+001	7.3862473E+001	1.5318626E+002	1.7006380E+002	-6.4257835E+001	1.347329311995418E+001	-2.3814367E-002	2.7281762E-004	1.2633803E+001	1.0250617E+001	1.000000000000000E+000	11	1.0524500E-002	6.1885599E-005	2.5538774E-003	5.2965865E-003	5.8801463E-003	6.4257835E+001
5.5515171E+001	9.4858017E+001	2.0854193E+002	2.2910211E+002	-6.5540962E+001	1.418586990045151E+001	-2.3819027E-002	-5.5617740E-005	1.3747226E+001	1.1390523E+001	1.000000000000000E+000	12	1.0560863E-002	4.6096749E-005	1.8072403E-003	3.9731520E-003	4.3648658E-003	6.5540962E+001
3.7560089E+001	1.2284047E+002	2.8226672E+002	3.0783807E+002	-6.6481667E+001	1.467675139046332E+001	-2.3812477E-002	-4.0020790E-005	1.5011837E+001	1.2621429E+001	1.000000000000000E+000	12	1.0540766E-002	3.4241268E-005	1.2962740E-003	2.9786194E-003	3.2484611E-003	6.6481667E+001
2.5365252E+001	1.6162881E+002	3.8069986E+002	4.1358948E+002	-6.6996010E+001	1.513585114557645E+001	-2.3824023E-002	-5.4796951E-006	1.6481558E+001	1.3964478E+001	1.000000000000000E+000	12	1.0530080E-002	2.5460222E-005	9.4488682E-004	2.2255830E-003	2.4178566E-003	6.6996010E+001
1.7132671E+001	2.1612845E+002	5.1639551E+002	5.5979980E+002	-6.7289093E+001	1.554883300521760E+001	-2.3831626E-002	-3.3314290E-004	1.7989231E+001	1.5307773E+001	1.000000000000000E+000	12	1.0521748E-002	1.8795556E-005	6.8967807E-004	1.6478472E-003	1.7863528E-003	6.7289093E+001
1.1591243E+001	2.8106204E+002	6.8957843E+002	7.4465717E+002	-6.7824913E+001	1.595826835793559E+001	-2.3832634E-002	-1.2453357E-004	1.9911613E+001	1.7075014E+001	1.000000000000000E+000	12	1.0524374E-002	1.4133181E-005	5.0686166E-004	1.2435720E-003	1.3428999E-003	6.7824913E+001
7.8281527E+000	3.6684323E+002	9.3579193E+002	1.0051271E+003	-6.8594139E+001	1.654027217227849E+001	-2.3823613E-002	-5.0733466E-005	2.1726089E+001	1.8832075E+001	1.000000000000000E+000	12	1.0521356E-002	1.0467687E-005	3.6311033E-004	9.2626945E-004	9.9489908E-004	6.8594139E+001
5.2930207E+000	4.9631085E+002	1.2630648E+003	1.3570767E+003	-6.8548065E+001	1.780367231232231E+001	-2.3820350E-002	1.3700161E-005	2.3806246E+001	2.0622124E+001	1.000000000000000E+000	13	1.0527768E-002	7.7576815E-006	2.6949146E-004	6.8583060E-004	7.3687802E-004	6.8548065E+001
3.5755143E+000	6.5490747E+002	1.7060411E+003	1.8274244E+003	-6.8999428E+001	1.901829511663527E+001	-2.3818789E-002	-7.0377491E-006	2.6091084E+001	2.2740095E+001	1.000000000000000E+000	13	1.0529010E-002	5.7616662E-006	1.9611059E-004	5.1087030E-004	5.4721825E-004	6.8999428E+001
2.4172332E+000	8.5564844E+002	2.3109292E+003	2.4642500E+003	-6.9682343E+001	2.079553224102710E+001	-2.3815773E-002	-5.9483551E-007	2.8491476E+001	2.5056400E+001	1.000000000000000E+000	13	1.0525159E-002	4.2711408E-006	1.4090481E-004	3.8055470E-004	4.0580297E-004	6.9682343E+001
1.6327059E+000	1.1298087E+003	3.1537800E+003	3.3500442E+003	-7.0290466E+001	2.340641497840988E+001	-2.3814851E-002	4.8345150E-006	3.0908701E+001	2.7393183E+001	1.000000000000000E+000	13	1.0525114E-002	3.1417835E-006	1.0067088E-004	2.8101553E-004	2.9850352E-004	7.0290466E+001
1.1020596E+000	1.4967482E+003	4.2963516E+003	4.5496035E+003	-7.0792862E+001	2.911971844980144E+001	-2.3815688E-002	-1.6276947E-007	3.3613617E+001	2.9975592E+001	1.000000000000000E+000	14	1.0531377E-002	2.3147900E-006	7.2310540E-005	2.0756433E-004	2.1979937E-004	7.0792862E+001
7.4560940E-001	1.9788556E+003	5.8748525E+003	6.1991743E+003	-7.1384674E+001	3.479144733250723E+001	-2.3822259E-002	-3.3288310E-007	3.6333881E+001	3.2631573E+001	1.000000000000000E+000	14	1.0525996E-002	1.6979674E-006	5.1492796E-005	1.5287247E-004	1.6131181E-004	7.1384674E+001
5.0390220E-001	2.6399617E+003	8.0476367E+003	8.4695840E+003	-7.1838348E+001	4.316724855700159E+001	-2.3814127E-002	1.6515447E-007	3.9246914E+001	3.5433826E+001	1.000000000000000E+000	14	1.0527232E-002	1.2429456E-006	3.6802165E-005	1.1218744E-004	1.1806955E-004	7.1838348E+001
3.4010270E-001	3.5238704E+003	1.1086384E+004	1.1632952E+004	-7.2366844E+001	5.556070255901432E+001	-2.3813922E-002	1.2883409E-006	4.2210468E+001	3.8337173E+001	1.000000000000000E+000	14	1.0524781E-002	9.0473861E-007	2.6039945E-005	8.1923790E-005	8.5962703E-005	7.2366844E+001
2.3021273E-001	4.6889785E+003	1.5212078E+004	1.5918350E+004	-7.2868584E+001	7.385399414788117E+001	-2.3813413E-002	-1.2461226E-007	4.5446690E+001	4.1503361E+001	1.000000000000000E+000	14	1.0527844E-002	6.6136528E-007	1.8504705E-005	6.0033337E-005	6.2820582E-005	7.2868584E+001
1.5547264E-001	6.3237534E+003	2.1027221E+004	2.1957547E+004	-7.3261795E+001	1.009252443403529E+002	-2.3818275E-002	-2.1492839E-007	4.8683781E+001	4.4645779E+001	1.000000000000000E+000	14	1.0524682E-002	4.7931957E-007	1.3116180E-005	4.3612825E-005	4.5542427E-005	7.3261795E+001
1.0504906E-001	8.5139131E+003	2.9079707E+004	3.0300430E+004	-7.3681107E+001	1.409736120825828E+002	-2.3820838E-002	-2.1221108E-007	5.2100025E+001	4.7986649E+001	1.000000000000000E+000	14	1.0526208E-002	3.4739469E-007	9.2732407E-006	3.1673237E-005	3.3002831E-005	7.3681107E+001
7.1022727E-002	1.1743673E+004	4.0300762E+004	4.1976961E+004	-7.3753838E+001	2.001954279087659E+002	-2.3815783E-002	-3.7271525E-007	5.5604450E+001	5.1252384E+001	1.000000000000000E+000	14	1.0526693E-002	2.5077313E-007	6.6647203E-006	2.2871322E-005	2.3822591E-005	7.3753838E+001
4.7988325E-002	1.6380490E+004	5.5980125E+004	5.8327480E+004	-7.3689857E+001	2.878262071376375E+002	-2.3814669E-002	2.4656910E-007	5.9244858E+001	5.4572262E+001	1.000000000000000E+000	14	1.0525921E-002	1.8046248E-007	4.8148249E-006	1.6454604E-005	1.7144577E-005	7.3689857E+001
3.2443926E-002	2.3258369E+004	7.7211969E+004	8.0638945E+004	-7.3236252E+001	4.174262793200032E+002	-2.3813229E-002	-1.5728575E-007	6.3533401E+001	5.8248089E+001	1.000000000000000E+000	14	1.0524733E-002	1.3051675E-007	3.5767584E-006	1.1873942E-005	1.2400956E-005	7.3236252E+001
2.1920588E-002	3.3486125E+004	1.0669000E+005	1.1182163E+005	-7.2574814E+001	6.092270321900724E+002	-2.3812510E-002	-6.5076466E-007	6.8052521E+001	6.1949818E+001	1.000000000000000E+000	14	1.0526250E-002	9.4134300E-008	2.6780172E-006	8.5324173E-006	8.9428140E-006	7.2574814E+001
1.4807615E-002	4.8739629E+004	1.4631781E+005	1.5422209E+005	-7.1576675E+001	8.931452104754571E+002	-2.3813549E-002	-7.0325638E-007	7.3457787E+001	6.6120941E+001	1.000000000000000E+000	14	1.0528044E-002	6.8265471E-008	2.0492218E-006	6.1518258E-006	6.4841552E-006	7.1576675E+001
1.0000636E-002	7.1375703E+004	2.0050703E+005	2.1283223E+005	-7.0405487E+001	1.313517585135385E+003	-2.3807250E-002	-7.0142380E-007	7.9371193E+001	7.0444534E+001	1.000000000000000E+000	14	1.0527320E-002	4.9462997E-008	1.5757075E-006	4.4264420E-006	4.6985365E-006	7.0405487E+001