EC-Lab ASCII FILE
Nb header lines : 62                          

Potentio Electrochemical Impedance Spectroscopy

Run on channel : 2 (SN 35514)
User : 
CE vs. WE compliance from -10 V to 10 V
Electrode connection : standard
Ewe ctrl range : min = -5.00 V, max = 5.00 V
Safety Limits :
	Do not start on E overload
Acquisition started on : 07/09/2023 16:26:43
Technique started on : 07/09/2023 16:26:44
Saved on :
	File : 0708_01_EIS_0.5MTFSI_Blocking_OutsideGB_Day_2_60C_t2_C02.mpr
	Directory : C:\Users\CESL\Documents\EC-Lab\Data\PhD\Leifer\Results\Zn Ion GPE\2023\0708\
	Host : 10.110.196.171
Device : VSP (SN 1724172417241724)
Address : USB
EC-Lab for windows v11.16 (software)
Internet server v11.16 (firmware)
Command interpretor v11.16 (firmware)
Electrode material : Au/Pd
Initial state : 
Electrolyte : NaCl (0.2M)
Comments : Fe(CN)63-/Fe(CN)64- 5.10-3 M
Reference electrode : SCE Saturated Calomel Electrode (0.241 V)
Electrode surface area : 0.001 cm²
Characteristic mass : 0.001 g
Equivalent Weight : 0.000 g/eq.
Density : 0.000 g/cm3
Cycle Definition : Charge/Discharge alternance
Mode                Single sine         
E (V)               0.0000              
vs.                 Eoc                 
tE (h:m:s)          0:00:0.0000         
record              0                   
dI                  0.000               
unit dI             mA                  
dt (s)              0.000               
fi                  1.000               
unit fi             MHz                 
ff                  10.000              
unit ff             mHz                 
Nd                  6                   
Points              per decade          
spacing             Logarithmic         
Va (mV)             10.0                
pw                  0.10                
Na                  2                   
corr                1                   
E range min (V)     -5.000              
E range max (V)     5.000               
I Range             Auto                
Bandwidth           5                   
nc cycles           0                   
goto Ns'            0                   
nr cycles           0                   
inc. cycle          0                   

freq/Hz	Re(Z)/Ohm	-Im(Z)/Ohm	|Z|/Ohm	Phase(Z)/deg	time/s	<Ewe>/V	<I>/mA	Cs/µF	Cp/µF	cycle number	I Range	|Ewe|/V	|I|/A	Re(Y)/Ohm-1	Im(Y)/Ohm-1	|Y|/Ohm-1	Phase(Y)/deg	
1.0000193E+006	-7.0369445E-002	3.7416763E+000	3.7423379E+000	-9.1077431E+001	1.974097373749828E+000	-2.2277379E-002	-3.8040502E-003	4.2534910E-002	4.2519875E-002	1.000000000000000E+000	9	1.0771504E-004	2.8782819E-005	-5.0245607E-003	2.6716539E-001	2.6721263E-001	9.1077431E+001
6.7575181E+005	1.7761351E+001	-9.5968943E+000	2.0188263E+001	2.8383444E+001	2.677093087142566E+000	-2.3055689E-002	-8.8578928E-003	-2.4541561E-002	-5.5458192E-003	1.000000000000000E+000	10	5.9544045E-004	2.9494387E-005	4.3579083E-002	-2.3546850E-002	4.9533732E-002	-2.8383444E+001
4.5664050E+005	6.8800020E+000	-2.6050091E+000	7.3566637E+000	2.0738417E+001	3.086088013253175E+000	-2.3068463E-002	-8.0468282E-003	-1.3379394E-001	-1.6776182E-002	1.000000000000000E+000	10	2.2510430E-003	3.0598693E-004	1.2712376E-001	-4.8133500E-002	1.3593118E-001	-2.0738417E+001
3.0857416E+005	5.4895964E+000	-1.2409606E+000	5.6281128E+000	1.2738002E+001	3.495088299328927E+000	-2.3298251E-002	-7.2283028E-003	-4.1562590E-001	-2.0206587E-002	1.000000000000000E+000	10	6.1084083E-003	1.0853386E-003	1.7330649E-001	-3.9177109E-002	1.7767945E-001	-1.2738002E+001
2.0852534E+005	5.0081024E+000	-5.8591264E-001	5.0422597E+000	6.6728678E+000	3.904077545419568E+000	-2.3374541E-002	-4.8957914E-003	-1.3026520E+000	-1.7589105E-002	1.000000000000000E+000	10	1.0426355E-002	2.0677941E-003	1.9698030E-001	-2.3045305E-002	1.9832379E-001	-6.6728678E+000
1.4090817E+005	4.8251152E+000	-1.4941889E-001	4.8274283E+000	1.7737062E+000	4.445089251123136E+000	-2.3326389E-002	-4.2767851E-003	-7.5592456E+000	-7.2419881E-003	1.000000000000000E+000	10	1.0158514E-002	2.1043324E-003	2.0705037E-001	-6.4117094E-003	2.0714962E-001	-1.7737062E+000
9.5214820E+004	4.7772841E+000	2.2738035E-001	4.7826924E+000	-2.7250021E+000	4.986083383497316E+000	-2.3304740E-002	-3.0219853E-003	7.3512745E+000	1.6615890E-002	1.000000000000000E+000	10	1.0126750E-002	2.1173742E-003	2.0885082E-001	9.9404948E-003	2.0908725E-001	2.7250021E+000
6.4345688E+004	4.7909555E+000	6.0612893E-001	4.8291454E+000	-7.2104821E+000	5.395097776228795E+000	-2.3308059E-002	-2.5241629E-003	4.0807095E+000	6.4287290E-002	1.000000000000000E+000	10	1.0765985E-002	2.2293767E-003	2.0543836E-001	2.5991086E-002	2.0707597E-001	7.2104821E+000
4.3476547E+004	4.8496733E+000	1.0251830E+000	4.9568467E+000	-1.1936155E+001	5.804089502344141E+000	-2.3302166E-002	-4.1984799E-003	3.5707850E+000	1.5274096E-001	1.000000000000000E+000	10	1.0691915E-002	2.1569992E-003	1.9737925E-001	4.1724432E-002	2.0174116E-001	1.1936155E+001
2.9384758E+004	4.9345965E+000	1.5615171E+000	5.1757684E+000	-1.7559597E+001	6.213099948450690E+000	-2.3286222E-002	-2.7758754E-003	3.4685764E+000	3.1571493E-001	1.000000000000000E+000	10	1.0646129E-002	2.0569176E-003	1.8420523E-001	5.8290407E-002	1.9320802E-001	1.7559597E+001
1.9853508E+004	5.0424690E+000	2.2659400E+000	5.5281982E+000	-2.4197773E+001	6.622097914543701E+000	-2.3295304E-002	-3.0891132E-003	3.5378098E+000	5.9437984E-001	1.000000000000000E+000	10	1.0508693E-002	1.9009255E-003	1.6499700E-001	7.4144877E-002	1.8089077E-001	2.4197773E+001
1.3417967E+004	5.1676817E+000	3.2563665E+000	6.1080976E+000	-3.2216698E+001	7.031086627277546E+000	-2.3287153E-002	-2.5241799E-003	3.6425049E+000	1.0352727E+000	1.000000000000000E+000	10	1.0216679E-002	1.6726451E-003	1.3851085E-001	8.7281324E-002	1.6371709E-001	3.2216698E+001
9.0820293E+003	5.3161478E+000	4.6722980E+000	7.0775557E+000	-4.1311848E+001	7.327325467980700E+000	-2.3275405E-002	1.1507154E-003	3.7506511E+000	1.6345612E+000	1.000000000000000E+000	10	1.0571178E-002	1.4936199E-003	1.0612812E-001	9.3274720E-002	1.4129172E-001	4.1311848E+001
6.1409590E+003	5.5284886E+000	6.7316723E+000	8.7108898E+000	-5.0604927E+001	7.730631033879035E+000	-2.3286855E-002	2.7253715E-004	3.8500021E+000	2.2992270E+000	1.000000000000000E+000	10	1.0231068E-002	1.1745148E-003	7.2858699E-002	8.8715181E-002	1.1479884E-001	5.0604927E+001
4.1413242E+003	5.8296189E+000	9.7327518E+000	1.1345083E+001	-5.9079689E+001	8.196705909344018E+000	-2.3249073E-002	5.5751414E-003	3.9486194E+000	2.9060373E+000	1.000000000000000E+000	10	9.8123262E-003	8.6489681E-004	4.5292340E-002	7.5617142E-002	8.8143907E-002	5.9079689E+001
2.7973140E+003	6.2480664E+000	1.4059284E+001	1.5385117E+001	-6.6039230E+001	8.662933238141704E+000	-2.3245791E-002	6.6453512E-003	4.0468369E+000	3.3794072E+000	1.000000000000000E+000	10	9.5358975E-003	6.1981316E-004	2.6396358E-002	5.9396606E-002	6.4997882E-002	6.6039230E+001
1.8906046E+003	6.8608279E+000	2.0302490E+001	2.1430401E+001	-7.1328331E+001	9.127703606900468E+000	-2.3256402E-002	5.9834509E-003	4.1463895E+000	3.7214153E+000	1.000000000000000E+000	10	9.3789436E-003	4.3764667E-004	1.4938806E-002	4.4206768E-002	4.6662685E-002	7.1328331E+001
1.2871166E+003	7.7859025E+000	2.9061081E+001	3.0085989E+001	-7.5001823E+001	9.594211629038909E+000	-2.3245176E-002	6.2276958E-003	4.2549109E+000	3.9699535E+000	1.000000000000000E+000	10	9.2987558E-003	3.0907264E-004	8.6016227E-003	3.2105777E-002	3.3238064E-002	7.5001823E+001
8.6306641E+002	9.1866198E+000	4.2328907E+001	4.3314320E+001	-7.7755020E+001	1.031318491647835E+001	-2.3264254E-002	-1.8422202E-004	4.3565116E+000	4.1605425E+000	1.000000000000000E+000	11	9.5355986E-003	2.2014887E-004	4.8965802E-003	2.2561815E-002	2.3087053E-002	7.7755020E+001
5.8369244E+002	1.1203389E+001	6.1126644E+001	6.2144852E+001	-7.9614014E+001	1.078019645865425E+001	-2.3263657E-002	-2.2749137E-004	4.4607258E+000	4.3157501E+000	1.000000000000000E+000	11	9.3694059E-003	1.5076721E-004	2.9009415E-003	1.5827790E-002	1.6091438E-002	7.9614014E+001
3.9411707E+002	1.4334445E+001	8.8346558E+001	8.9501900E+001	-8.0783936E+001	1.124722197421943E+001	-2.3261381E-002	-2.0007743E-004	4.5709372E+000	4.4536905E+000	1.000000000000000E+000	11	9.2906877E-003	1.0380436E-004	1.7894364E-003	1.1028720E-002	1.1172947E-002	8.0783936E+001
2.6644943E+002	1.9172703E+001	1.2735217E+002	1.2878729E+002	-8.1438492E+001	1.170967810286675E+001	-2.3254612E-002	-2.3103665E-004	4.6902828E+000	4.5863338E+000	1.000000000000000E+000	11	9.2567261E-003	7.1876086E-005	1.1559452E-003	7.6782159E-003	7.7647413E-003	8.1438492E+001
1.8005759E+002	2.6409977E+001	1.8342305E+002	1.8531461E+002	-8.1806641E+001	1.217469892495865E+001	-2.3268878E-002	-1.3014325E-004	4.8189759E+000	4.7211013E+000	1.000000000000000E+000	11	9.2385653E-003	4.9853410E-005	7.6903932E-004	5.3411480E-003	5.3962287E-003	8.1806641E+001
1.2159529E+002	3.9106483E+001	2.6437335E+002	2.6725003E+002	-8.1585739E+001	1.288414194530924E+001	-2.3261288E-002	-7.0471084E-005	4.9509177E+000	4.8449078E+000	1.000000000000000E+000	12	9.2895459E-003	3.4759756E-005	5.4753688E-004	3.7015371E-003	3.7418143E-003	8.1585739E+001
8.2236801E+001	5.9030891E+001	3.7864944E+002	3.8322324E+002	-8.1139000E+001	1.333928380688303E+001	-2.3263527E-002	-9.9932011E-005	5.1111264E+000	4.9898510E+000	1.000000000000000E+000	12	9.2539368E-003	2.4147641E-005	4.0195335E-004	2.5783011E-003	2.6094450E-003	8.1139000E+001
5.5515171E+001	9.2609070E+001	5.4359918E+002	5.5143134E+002	-8.0331757E+001	1.380089945549844E+001	-2.3264105E-002	-5.7400859E-005	5.2738729E+000	5.1251240E+000	1.000000000000000E+000	12	9.2348158E-003	1.6746992E-005	3.0455837E-004	1.7877053E-003	1.8134625E-003	8.0331757E+001
3.7560089E+001	1.4259171E+002	7.7244879E+002	7.8549951E+002	-7.9541115E+001	1.429277070554963E+001	-2.3254929E-002	-6.7628258E-005	5.4855962E+000	5.3048291E+000	1.000000000000000E+000	12	9.2296023E-003	1.1749979E-005	2.3110122E-004	1.2519236E-003	1.2730752E-003	7.9541115E+001
2.5365252E+001	2.3535759E+002	1.0901726E+003	1.1152889E+003	-7.7817375E+001	1.475187227400602E+001	-2.3269381E-002	-1.2879632E-004	5.7555351E+000	5.4992242E+000	1.000000000000000E+000	12	9.2247939E-003	8.2712140E-006	1.8921410E-004	8.7643653E-004	8.9662866E-004	7.7817375E+001
1.7132671E+001	3.6842633E+002	1.5254756E+003	1.5693354E+003	-7.6422180E+001	1.539385851784027E+001	-2.3269065E-002	-2.1563317E-005	6.0896144E+000	5.7539849E+000	1.000000000000000E+000	13	9.2396177E-003	5.8875989E-006	1.4959571E-004	6.1940355E-004	6.3721242E-004	7.6422180E+001
1.1591243E+001	5.8351807E+002	2.1127661E+003	2.1918655E+003	-7.4560555E+001	1.580329349727253E+001	-2.3273373E-002	-5.2087539E-006	6.4988832E+000	6.0382872E+000	1.000000000000000E+000	13	9.2302654E-003	4.2111460E-006	1.2145808E-004	4.3976802E-004	4.5623237E-004	7.4560555E+001
7.8281527E+000	9.0925720E+002	2.8815720E+003	3.0216230E+003	-7.2487320E+001	1.638530227154843E+001	-2.3265008E-002	-1.0441849E-005	7.0555582E+000	6.4166708E+000	1.000000000000000E+000	13	9.2260167E-003	3.0533315E-006	9.9587829E-005	3.1560866E-004	3.3094798E-004	7.2487320E+001
5.2930207E+000	1.3845851E+003	3.8935188E+003	4.1323799E+003	-7.0423965E+001	1.722170412467676E+001	-2.3261530E-002	-8.9659570E-006	7.7227907E+000	6.8558030E+000	1.000000000000000E+000	13	9.2251124E-003	2.2323970E-006	8.1081002E-005	2.2800364E-004	2.4199131E-004	7.0423965E+001
3.5755143E+000	2.0716685E+003	5.2051104E+003	5.6022305E+003	-6.8297119E+001	1.843638348896638E+001	-2.3256999E-002	-2.6065168E-006	8.5516853E+000	7.3822651E+000	1.000000000000000E+000	13	9.2268307E-003	1.6469924E-006	6.6008259E-005	1.6584714E-004	1.7850033E-004	6.8297119E+001
2.4172332E+000	3.0425664E+003	6.8465713E+003	7.4921792E+003	-6.6039986E+001	2.108860828168372E+001	-2.3253964E-002	1.8968638E-006	9.6167526E+000	8.0307922E+000	1.000000000000000E+000	14	9.2276214E-003	1.2316339E-006	5.4203054E-005	1.2197106E-004	1.3347251E-004	6.6039986E+001
1.6327059E+000	4.3541245E+003	8.9297285E+003	9.9347090E+003	-6.4006195E+001	2.369940280562150E+001	-2.3254769E-002	9.4882552E-008	1.0916262E+001	8.8194218E+000	1.000000000000000E+000	14	9.2244633E-003	9.2850865E-007	4.4115430E-005	9.0474859E-005	1.0065720E-004	6.4006195E+001
1.1020596E+000	6.1749634E+003	1.1565056E+004	1.3110327E+004	-6.1900776E+001	2.754836600177805E+001	-2.3255419E-002	-2.3944904E-007	1.2487265E+001	9.7170792E+000	1.000000000000000E+000	14	9.2236558E-003	7.0354122E-007	3.5925874E-005	6.7285371E-005	7.6275748E-005	6.1900776E+001
7.4560940E-001	8.6245547E+003	1.4742908E+004	1.7080289E+004	-5.9672501E+001	3.322011928449501E+001	-2.3254560E-002	1.8755954E-007	1.4478568E+001	1.0787020E+001	1.000000000000000E+000	14	9.2229182E-003	5.3997434E-007	2.9562847E-005	5.0535051E-005	5.8547019E-005	5.9672501E+001
5.0390220E-001	1.1974514E+004	1.8618646E+004	2.2136914E+004	-5.7253052E+001	4.159595869571785E+001	-2.3258880E-002	1.7416005E-006	1.6963902E+001	1.2000181E+001	1.000000000000000E+000	14	9.2243906E-003	4.1669722E-007	2.4435642E-005	3.7993908E-005	4.5173416E-005	5.7253052E+001
3.4010270E-001	1.6152824E+004	2.2989186E+004	2.8096555E+004	-5.4907085E+001	5.398941600436228E+001	-2.3259962E-002	8.8653758E-007	2.0355721E+001	1.3627854E+001	1.000000000000000E+000	14	9.2227831E-003	3.2825318E-007	2.0461728E-005	2.9121748E-005	3.5591551E-005	5.4907085E+001
2.3021273E-001	2.1432480E+004	2.8063975E+004	3.5312008E+004	-5.2631001E+001	7.228270983326365E+001	-2.3282085E-002	5.6244409E-007	2.4634378E+001	1.5559482E+001	1.000000000000000E+000	14	9.2178732E-003	2.6104075E-007	1.7188089E-005	2.2506314E-005	2.8318978E-005	5.2631001E+001
1.5547264E-001	2.7767631E+004	3.3902016E+004	4.3822230E+004	-5.0680622E+001	9.935401567906956E+001	-2.3281854E-002	3.6053510E-007	3.0195391E+001	1.8071856E+001	1.000000000000000E+000	14	9.2223873E-003	2.1044998E-007	1.4459386E-005	1.7653732E-005	2.2819468E-005	5.0680622E+001
1.0504906E-001	3.5350992E+004	4.0714766E+004	5.3920172E+004	-4.9033531E+001	1.394034949146153E+002	-2.3285452E-002	3.0872502E-007	3.7211403E+001	2.1216677E+001	1.000000000000000E+000	14	9.2244726E-003	1.7107646E-007	1.2159036E-005	1.4003914E-005	1.8545936E-005	4.9033531E+001
7.1022727E-002	4.3893566E+004	4.8971262E+004	6.5763438E+004	-4.8129719E+001	1.986234009540931E+002	-2.3289764E-002	7.3657611E-007	4.5759525E+001	2.5374359E+001	1.000000000000000E+000	14	9.2233475E-003	1.4025039E-007	1.0149201E-005	1.1323280E-005	1.5206017E-005	4.8129719E+001
4.7988325E-002	5.3883020E+004	5.9003160E+004	7.9904648E+004	-4.7596966E+001	2.862542282096401E+002	-2.3287727E-002	4.8979018E-007	5.6209438E+001	3.0648958E+001	1.000000000000000E+000	14	9.2224237E-003	1.1541786E-007	8.4393278E-006	9.2412602E-006	1.2514916E-005	4.7596966E+001
3.2443926E-002	6.5262281E+004	7.2167156E+004	9.7299867E+004	-4.7876297E+001	4.158545584186504E+002	-2.3276366E-002	-5.3811529E-008	6.7974678E+001	3.7393993E+001	1.000000000000000E+000	14	9.2214132E-003	9.4773135E-008	6.8934683E-006	7.6228102E-006	1.0277507E-005	4.7876297E+001
2.1920588E-002	7.9185227E+004	8.9131188E+004	1.1922529E+005	-4.8381725E+001	6.076547033154056E+002	-2.3271080E-002	-7.7409697E-007	8.1458839E+001	4.5526142E+001	1.000000000000000E+000	14	9.2235887E-003	7.7362685E-008	5.5706696E-006	6.2703666E-006	8.3874820E-006	4.8381725E+001
1.4807615E-002	9.6167438E+004	1.1258093E+005	1.4806297E+005	-4.9495808E+001	8.915733461874479E+002	-2.3269393E-002	-6.0071358E-007	9.5470711E+001	5.5195915E+001	1.000000000000000E+000	14	9.2243012E-003	6.2299854E-008	4.3866721E-006	5.1353722E-006	6.7538831E-006	4.9495808E+001
1.0000636E-002	1.1643330E+005	1.4097383E+005	1.8283964E+005	-5.0445972E+001	1.311946365540760E+003	-2.3270270E-002	-1.5059107E-006	1.1288962E+002	6.7110474E+001	1.000000000000000E+000	14	9.2219189E-003	5.0437198E-008	3.4828638E-006	4.2169436E-006	5.4692737E-006	5.0445972E+001