EC-Lab ASCII FILE
Nb header lines : 62                          

Potentio Electrochemical Impedance Spectroscopy

Run on channel : 3 (SN 35515)
User : 
CE vs. WE compliance from -10 V to 10 V
Electrode connection : standard
Ewe ctrl range : min = -5.00 V, max = 5.00 V
Safety Limits :
	Do not start on E overload
Acquisition started on : 07/09/2023 10:52:15
Technique started on : 07/09/2023 10:52:17
Saved on :
	File : 0708_01_EIS_0.5MTFSI_Blocking_OutsideGB_24hr_C01_C02_C03.mpr
	Directory : C:\Users\CESL\Documents\EC-Lab\Data\PhD\Leifer\Results\Zn Ion GPE\2023\0708\
	Host : 10.110.196.171
Device : VSP (SN 1724172417241724)
Address : USB
EC-Lab for windows v11.16 (software)
Internet server v11.16 (firmware)
Command interpretor v11.16 (firmware)
Electrode material : Au/Pd
Initial state : 
Electrolyte : NaCl (0.2M)
Comments : Fe(CN)63-/Fe(CN)64- 5.10-3 M
Reference electrode : SCE Saturated Calomel Electrode (0.241 V)
Electrode surface area : 0.001 cm²
Characteristic mass : 0.001 g
Equivalent Weight : 0.000 g/eq.
Density : 0.000 g/cm3
Cycle Definition : Charge/Discharge alternance
Mode                Single sine         
E (V)               0.0000              
vs.                 Eoc                 
tE (h:m:s)          0:00:0.0000         
record              0                   
dI                  0.000               
unit dI             mA                  
dt (s)              0.000               
fi                  1.000               
unit fi             MHz                 
ff                  10.000              
unit ff             mHz                 
Nd                  6                   
Points              per decade          
spacing             Logarithmic         
Va (mV)             10.0                
pw                  0.10                
Na                  2                   
corr                1                   
E range min (V)     -5.000              
E range max (V)     5.000               
I Range             Auto                
Bandwidth           5                   
nc cycles           0                   
goto Ns'            0                   
nr cycles           0                   
inc. cycle          0                   

freq/Hz	Re(Z)/Ohm	-Im(Z)/Ohm	|Z|/Ohm	Phase(Z)/deg	time/s	<Ewe>/V	<I>/mA	Cs/µF	Cp/µF	cycle number	I Range	|Ewe|/V	|I|/A	Re(Y)/Ohm-1	Im(Y)/Ohm-1	|Y|/Ohm-1	Phase(Y)/deg	
1.0000193E+006	-8.8334824E+001	3.6924519E+001	9.5741638E+001	-1.5731476E+002	2.488079798175022E+000	-1.4129075E-001	-1.4598621E-003	4.3101949E-003	6.4109871E-004	1.000000000000000E+000	11	3.7607108E-004	3.9279785E-006	-9.6367421E-003	4.0282202E-003	1.0444776E-002	1.5731476E+002
6.7575181E+005	5.2791683E+001	-1.1512753E+001	5.4032448E+001	1.2302388E+001	2.897079337592004E+000	-1.4195074E-001	-7.5780018E-004	-2.0457553E-002	-9.2875853E-004	1.000000000000000E+000	11	1.8316982E-003	3.3899967E-005	1.8082406E-002	-3.9433916E-003	1.8507397E-002	-1.2302388E+001
4.5664050E+005	3.0699335E+001	-3.9897873E+000	3.0957512E+001	7.4048452E+000	3.600078117655357E+000	-1.4191182E-001	3.6197687E-003	-8.7356642E-002	-1.4509864E-003	1.000000000000000E+000	10	9.9618752E-003	3.2179186E-004	3.2032944E-002	-4.1631078E-003	3.2302339E-002	-7.4048452E+000
3.0857416E+005	2.5472685E+001	-2.0189686E+000	2.5552572E+001	4.5317974E+000	4.141093849990284E+000	-1.4219820E-001	3.7876037E-003	-2.5546476E-001	-1.5948538E-003	1.000000000000000E+000	10	1.0110613E-002	3.9567889E-004	3.9012652E-002	-3.0921481E-003	3.9135002E-002	-4.5317974E+000
2.0852534E+005	2.3618328E+001	-1.1050961E+000	2.3644167E+001	2.6789026E+000	4.682099715719232E+000	-1.4218467E-001	4.2705964E-003	-6.9065511E-001	-1.5087362E-003	1.000000000000000E+000	10	1.0108430E-002	4.2752319E-004	4.2247511E-002	-1.9767515E-003	4.2293731E-002	-2.6789026E+000
1.4090817E+005	2.2893560E+001	-4.9511182E-001	2.2898914E+001	1.2389246E+000	5.223083528078860E+000	-1.4218578E-001	4.4887816E-003	-2.2812910E+000	-1.0664917E-003	1.000000000000000E+000	10	1.0136249E-002	4.4265197E-004	4.3659985E-002	-9.4422069E-004	4.3670192E-002	-1.2389246E+000
9.5214820E+004	2.2628101E+001	-8.4780499E-002	2.2628260E+001	2.1466857E-001	5.632093494146829E+000	-1.4218284E-001	4.6752663E-003	-1.9716036E+001	-2.7676378E-004	1.000000000000000E+000	10	1.0679367E-002	4.7194821E-004	4.4192217E-002	-1.6557457E-004	4.4192526E-002	-2.1466857E-001
6.4345688E+004	2.2481693E+001	2.6385882E-001	2.2483242E+001	-6.7242724E-001	6.040097513556248E+000	-1.4217405E-001	4.8617497E-003	9.3740892E+000	1.2910839E-003	1.000000000000000E+000	10	1.0457708E-002	4.6513343E-004	4.4474509E-002	5.2197988E-004	4.4477571E-002	6.7242724E-001
4.3476547E+004	2.2468184E+001	6.0823274E-001	2.2476416E+001	-1.5506663E+000	6.449086999637075E+000	-1.4217590E-001	4.0113833E-003	6.0185976E+000	4.4073830E-003	1.000000000000000E+000	10	1.0302701E-002	4.5837829E-004	4.4474784E-002	1.2039699E-003	4.4491079E-002	1.5506663E+000
2.9384758E+004	2.2532612E+001	9.8388332E-001	2.2554083E+001	-2.5002239E+000	6.858097552409163E+000	-1.4217317E-001	4.4384310E-003	5.5049629E+000	1.0475898E-002	1.000000000000000E+000	10	1.0193156E-002	4.5194285E-004	4.4295661E-002	1.9341637E-003	4.4337869E-002	2.5002239E+000
1.9853508E+004	2.2531218E+001	1.4669807E+000	2.2578924E+001	-3.7252018E+000	7.267081438505556E+000	-1.4216638E-001	3.9274646E-003	5.4646015E+000	2.3067513E-002	1.000000000000000E+000	10	1.0149336E-002	4.4950488E-004	4.4195514E-002	2.8775171E-003	4.4289090E-002	3.7252018E+000
1.3417967E+004	2.2687216E+001	2.1146107E+000	2.2785551E+001	-5.3249912E+000	7.544096864963649E+000	-1.4217785E-001	3.1460980E-003	5.6092267E+000	4.8310861E-002	1.000000000000000E+000	10	1.0594732E-002	4.6497589E-004	4.3698058E-002	4.0729712E-003	4.3887462E-002	5.3249912E+000
9.0820293E+003	2.2857754E+001	3.0184608E+000	2.3056192E+001	-7.5226183E+000	7.841334612428909E+000	-1.4217421E-001	3.7820083E-003	5.8056612E+000	9.9505611E-002	1.000000000000000E+000	10	1.0815370E-002	4.6908742E-004	4.2999003E-002	5.6781955E-003	4.3372296E-002	7.5226183E+000
6.1409590E+003	2.3071423E+001	4.3294573E+000	2.3474129E+001	-1.0628210E+001	8.244638258292980E+000	-1.4219618E-001	1.6971189E-003	5.9861894E+000	2.0362842E-001	1.000000000000000E+000	10	1.0914554E-002	4.6496099E-004	4.1869272E-002	7.8569604E-003	4.2600092E-002	1.0628210E+001
4.1413242E+003	2.3424978E+001	6.0898356E+000	2.4203630E+001	-1.4572707E+001	8.710697000424261E+000	-1.4216135E-001	3.0304778E-003	6.3106685E+000	3.9950797E-001	1.000000000000000E+000	10	1.0949935E-002	4.5240877E-004	3.9986938E-002	1.0395479E-002	4.1316114E-002	1.4572707E+001
2.7973140E+003	2.3990328E+001	8.6279602E+000	2.5494658E+001	-1.9780781E+001	9.176947022555396E+000	-1.4215879E-001	2.7302380E-003	6.5943317E+000	7.5524640E-001	1.000000000000000E+000	10	1.0963027E-002	4.3001273E-004	3.6909472E-002	1.3274244E-002	3.9223906E-002	1.9780781E+001
1.8906046E+003	2.4887836E+001	1.2157007E+001	2.7698326E+001	-2.6034204E+001	9.642709418025333E+000	-1.4216349E-001	3.4370101E-003	6.9245691E+000	1.3339484E+000	1.000000000000000E+000	10	1.0958829E-002	3.9564949E-004	3.2439943E-002	1.5845997E-002	3.6103263E-002	2.6034204E+001
1.2871166E+003	2.6204197E+001	1.6921383E+001	3.1192837E+001	-3.2852386E+001	1.010917408016394E+001	-1.4215839E-001	3.0248798E-003	7.3074594E+000	2.1504450E+000	1.000000000000000E+000	10	1.0942184E-002	3.5079158E-004	2.6931534E-002	1.7391060E-002	3.2058641E-002	3.2852386E+001
8.6306641E+002	2.8250071E+001	2.3757664E+001	3.6911964E+001	-4.0063068E+001	1.105021577814478E+001	-1.4217618E-001	5.0329923E-004	7.7619743E+000	3.2154765E+000	1.000000000000000E+000	11	1.0019965E-002	2.7145576E-004	2.0734102E-002	1.7436905E-002	2.7091486E-002	4.0063068E+001
5.8369244E+002	3.1324419E+001	3.2785568E+001	4.5344379E+001	-4.6305618E+001	1.151617825365975E+001	-1.4218767E-001	4.1603105E-004	8.3167439E+000	4.3478231E+000	1.000000000000000E+000	11	9.9279797E-003	2.1894621E-004	1.5234778E-002	1.5945414E-002	2.2053450E-002	4.6305618E+001
3.9411707E+002	3.5813652E+001	4.5071136E+001	5.7567570E+001	-5.1529247E+001	1.198320211583632E+001	-1.4218862E-001	5.4749096E-004	8.9597607E+000	5.4920897E+000	1.000000000000000E+000	11	9.8602436E-003	1.7128122E-004	1.0806693E-002	1.3600119E-002	1.7370891E-002	5.1529247E+001
2.6644943E+002	4.2326244E+001	6.1240196E+001	7.4443756E+001	-5.5349659E+001	1.244665315121165E+001	-1.4218131E-001	6.2804425E-004	9.7536860E+000	6.6006293E+000	1.000000000000000E+000	11	9.8126661E-003	1.3181315E-004	7.6375343E-003	1.1050452E-002	1.3432960E-002	5.5349659E+001
1.8005759E+002	5.1495781E+001	8.2737190E+001	9.7453880E+001	-5.8101791E+001	1.291167599995970E+001	-1.4218178E-001	5.4525136E-004	1.0683361E+001	7.7003632E+000	1.000000000000000E+000	11	9.7955903E-003	1.0051514E-004	5.4221726E-003	8.7116919E-003	1.0261264E-002	5.8101791E+001
1.2159529E+002	6.4088181E+001	1.1110011E+002	1.2825961E+002	-6.0021469E+001	1.337212754177745E+001	-1.4219005E-001	4.1621274E-004	1.1781183E+001	8.8397093E+000	1.000000000000000E+000	11	9.7906347E-003	7.6334509E-005	3.8958129E-003	6.7535890E-003	7.7966866E-003	6.0021469E+001
8.2236801E+001	8.1363068E+001	1.4801387E+002	1.6890250E+002	-6.1202450E+001	1.382732681676862E+001	-1.4218856E-001	4.4809942E-004	1.3075295E+001	1.0041167E+001	1.000000000000000E+000	11	9.7765885E-003	5.7883030E-005	2.8520371E-003	5.1883617E-003	5.9205755E-003	6.1202450E+001
5.5515171E+001	1.0436572E+002	1.9758675E+002	2.2345631E+002	-6.2156895E+001	1.453989439728321E+001	-1.4218566E-001	-3.7823124E-006	1.4509439E+001	1.1344386E+001	1.000000000000000E+000	12	9.8031312E-003	4.3870459E-005	2.0901265E-003	3.9570588E-003	4.4751475E-003	6.2156895E+001
3.7560089E+001	1.3511403E+002	2.6153613E+002	2.9437552E+002	-6.2678352E+001	1.503072514060477E+001	-1.4217836E-001	4.5404966E-005	1.6201746E+001	1.2788566E+001	1.000000000000000E+000	12	9.7880065E-003	3.3250071E-005	1.5591829E-003	3.0180630E-003	3.3970217E-003	6.2678352E+001
2.5365252E+001	1.7613005E+002	3.4663745E+002	3.8881784E+002	-6.3064407E+001	1.548987577573280E+001	-1.4218897E-001	8.5437350E-005	1.8101122E+001	1.4386796E+001	1.000000000000000E+000	12	9.7869933E-003	2.5171154E-005	1.1650408E-003	2.2928894E-003	2.5718985E-003	6.3064407E+001
1.7132671E+001	2.3107901E+002	4.6121585E+002	5.1586584E+002	-6.3388149E+001	1.590382846207649E+001	-1.4219953E-001	-2.1671836E-004	2.0141455E+001	1.6099995E+001	1.000000000000000E+000	12	9.7781494E-003	1.8954830E-005	8.6833432E-004	1.7331281E-003	1.9384885E-003	6.3388149E+001
1.1591243E+001	3.0423352E+002	6.0795825E+002	6.7983179E+002	-6.3415771E+001	1.631329605481005E+001	-1.4219858E-001	-4.1149458E-005	2.2584808E+001	1.8061796E+001	1.000000000000000E+000	12	9.7717512E-003	1.4373778E-005	6.5827009E-004	1.3154392E-003	1.4709521E-003	6.3415771E+001
7.8281527E+000	3.9507605E+002	8.0188312E+002	8.9392487E+002	-6.3771210E+001	1.689429056239896E+001	-1.4218859E-001	-1.2779879E-005	2.5354193E+001	2.0401865E+001	1.000000000000000E+000	12	9.7694751E-003	1.0928743E-005	4.9440027E-004	1.0034809E-003	1.1186623E-003	6.3771210E+001
5.2930207E+000	5.2681116E+002	1.0646764E+003	1.1878829E+003	-6.3673393E+001	1.815770686246833E+001	-1.4218821E-001	2.3074270E-005	2.8242226E+001	2.2687511E+001	1.000000000000000E+000	13	9.7827036E-003	8.2354109E-006	3.7334271E-004	7.5451925E-004	8.4183377E-004	6.3673393E+001
3.5755143E+000	6.9044702E+002	1.4072980E+003	1.5675474E+003	-6.3866558E+001	1.937334270685096E+001	-1.4218488E-001	4.2467633E-005	3.1629734E+001	2.5493317E+001	1.000000000000000E+000	13	9.7785452E-003	6.2381177E-006	2.8098881E-004	5.7272316E-004	6.3793926E-004	6.3866558E+001
2.4172332E+000	9.0581110E+002	1.8623121E+003	2.0709177E+003	-6.4062149E+001	2.115055863125599E+001	-1.4218187E-001	5.0573010E-005	3.5354858E+001	2.8590935E+001	1.000000000000000E+000	13	9.7743878E-003	4.7198341E-006	2.1120877E-004	4.3423698E-004	4.8287772E-004	6.4062149E+001
1.6327059E+000	1.1966522E+003	2.4636597E+003	2.7389041E+003	-6.4093163E+001	2.376144707525964E+001	-1.4218608E-001	4.9005477E-005	3.9566849E+001	3.2013950E+001	1.000000000000000E+000	13	9.7741038E-003	3.5686185E-006	1.5951970E-004	3.2841807E-004	3.6510953E-004	6.4093163E+001
1.1020596E+000	1.5675739E+003	3.2619834E+003	3.6190916E+003	-6.4332993E+001	2.947439385324833E+001	-1.4218371E-001	5.2163272E-005	4.4272423E+001	3.5966457E+001	1.000000000000000E+000	14	9.7790342E-003	2.7020687E-006	1.1968201E-004	2.4904773E-004	2.7631244E-004	6.4332993E+001
7.4560940E-001	2.0557725E+003	4.3284585E+003	4.7918423E+003	-6.4594933E+001	3.514614158935728E+001	-1.4217903E-001	4.9803140E-005	4.9314598E+001	4.0238056E+001	1.000000000000000E+000	14	9.7803008E-003	2.0410314E-006	8.9530287E-005	1.8850731E-004	2.0868800E-004	6.4594933E+001
5.0390220E-001	2.6794385E+003	5.7606948E+003	6.3533452E+003	-6.5055725E+001	4.352193521385198E+001	-1.4218381E-001	4.5149376E-005	5.4827572E+001	4.5075840E+001	1.000000000000000E+000	14	9.7746868E-003	1.5385102E-006	6.6380242E-005	1.4271511E-004	1.5739740E-004	6.5055725E+001
3.4010270E-001	3.5317578E+003	7.7021567E+003	8.4732832E+003	-6.5366585E+001	5.591537540245918E+001	-1.4217445E-001	3.7463898E-005	6.0757195E+001	5.0201759E+001	1.000000000000000E+000	14	9.7747538E-003	1.1535969E-006	4.9191203E-005	1.0727756E-004	1.1801800E-004	6.5366585E+001
2.3021273E-001	4.5772866E+003	1.0385612E+004	1.1349560E+004	-6.6215309E+001	7.420859491129522E+001	-1.4217967E-001	3.8193575E-005	6.6566948E+001	5.5739731E+001	1.000000000000000E+000	14	9.7775934E-003	8.6149538E-007	3.5534489E-005	8.0625810E-005	8.8109147E-005	6.6215309E+001
1.5547264E-001	5.9862080E+003	1.4143728E+004	1.5358376E+004	-6.7059914E+001	1.012798709972121E+002	-1.4217508E-001	4.7861133E-005	7.2377281E+001	6.1381779E+001	1.000000000000000E+000	14	9.7727086E-003	6.3631131E-007	2.5378227E-005	5.9961611E-005	6.5111053E-005	6.7059914E+001
1.0504906E-001	7.7829624E+003	1.9703023E+004	2.1184514E+004	-6.8445305E+001	1.413292981260747E+002	-1.4217378E-001	3.1974858E-005	7.6894470E+001	6.6515648E+001	1.000000000000000E+000	14	9.7740870E-003	4.6137887E-007	1.7342349E-005	4.3903168E-005	4.7204292E-005	6.8445305E+001
7.1022727E-002	1.0444510E+004	2.7702018E+004	2.9605566E+004	-6.9342018E+001	2.005500783256139E+002	-1.4217302E-001	2.0166159E-005	8.0893089E+001	7.0825142E+001	1.000000000000000E+000	14	9.7763054E-003	3.3021848E-007	1.1916298E-005	3.1605647E-005	3.3777433E-005	6.9342018E+001
4.7988325E-002	1.4579947E+004	3.9593266E+004	4.2192434E+004	-6.9784119E+001	2.881808766745380E+002	-1.4216408E-001	1.5044403E-005	8.3765121E+001	7.3762680E+001	1.000000000000000E+000	14	9.7753722E-003	2.3168543E-007	8.1900544E-006	2.2240889E-005	2.3700932E-005	6.9784119E+001
3.2443926E-002	2.0469504E+004	5.7739676E+004	6.1260680E+004	-7.0479889E+001	4.177799450434977E+002	-1.4216749E-001	6.2332324E-006	8.4959587E+001	7.5474014E+001	1.000000000000000E+000	14	9.7755203E-003	1.5957251E-007	5.4543584E-006	1.5385467E-005	1.6323684E-005	7.0479889E+001
2.1920588E-002	2.9361564E+004	8.4222781E+004	8.9194047E+004	-7.0780533E+001	6.095807985002175E+002	-1.4217399E-001	1.1104157E-006	8.6206169E+001	7.6864494E+001	1.000000000000000E+000	14	9.7734323E-003	1.0957494E-007	3.6906890E-006	1.0586632E-005	1.1211510E-005	7.0780533E+001
1.4807615E-002	4.3569453E+004	1.2178409E+005	1.2934319E+005	-7.0314827E+001	8.934989879856003E+002	-1.4216352E-001	-1.0845501E-005	8.8256042E+001	7.8241730E+001	1.000000000000000E+000	14	9.7754560E-003	7.5577667E-008	2.6043244E-006	7.2795310E-006	7.7313698E-006	7.0314827E+001
1.0000636E-002	6.4400191E+004	1.7522291E+005	1.8668275E+005	-6.9819954E+001	1.313871384618833E+003	-1.4217198E-001	-1.4821239E-005	9.0824211E+001	8.0015663E+001	1.000000000000000E+000	14	9.7763250E-003	5.2368659E-008	1.8479016E-006	5.0278518E-006	5.3566814E-006	6.9819954E+001