EC-Lab ASCII FILE
Nb header lines : 62                          

Potentio Electrochemical Impedance Spectroscopy

Run on channel : 4 (SN 35517)
User : 
CE vs. WE compliance from -10 V to 10 V
Electrode connection : standard
Ewe ctrl range : min = -5.00 V, max = 5.00 V
Safety Limits :
	Do not start on E overload
Acquisition started on : 07/09/2023 14:49:02
Technique started on : 07/09/2023 14:49:04
Saved on :
	File : 0708_01_EIS_0.5MTFSI_SymCell_OutsideGB_sanded_RT_C04.mpr
	Directory : C:\Users\CESL\Documents\EC-Lab\Data\PhD\Leifer\Results\Zn Ion GPE\2023\0708\
	Host : 10.110.196.171
Device : VSP (SN 1724172417241724)
Address : USB
EC-Lab for windows v11.16 (software)
Internet server v11.16 (firmware)
Command interpretor v11.16 (firmware)
Electrode material : Au/Pd
Initial state : 
Electrolyte : NaCl (0.2M)
Comments : Fe(CN)63-/Fe(CN)64- 5.10-3 M
Reference electrode : SCE Saturated Calomel Electrode (0.241 V)
Electrode surface area : 0.001 cm²
Characteristic mass : 0.001 g
Equivalent Weight : 0.000 g/eq.
Density : 0.000 g/cm3
Cycle Definition : Charge/Discharge alternance
Mode                Single sine         
E (V)               0.0000              
vs.                 Eoc                 
tE (h:m:s)          0:00:0.0000         
record              0                   
dI                  0.000               
unit dI             mA                  
dt (s)              0.000               
fi                  1.000               
unit fi             MHz                 
ff                  10.000              
unit ff             mHz                 
Nd                  6                   
Points              per decade          
spacing             Logarithmic         
Va (mV)             10.0                
pw                  0.10                
Na                  2                   
corr                1                   
E range min (V)     -5.000              
E range max (V)     5.000               
I Range             Auto                
Bandwidth           5                   
nc cycles           0                   
goto Ns'            0                   
nr cycles           0                   
inc. cycle          0                   

freq/Hz	Re(Z)/Ohm	-Im(Z)/Ohm	|Z|/Ohm	Phase(Z)/deg	time/s	<Ewe>/V	<I>/mA	Cs/µF	Cp/µF	cycle number	I Range	|Ewe|/V	|I|/A	Re(Y)/Ohm-1	Im(Y)/Ohm-1	|Y|/Ohm-1	Phase(Y)/deg	
1.0000193E+006	3.9663950E+002	2.9418911E+001	3.9772900E+002	-4.2418838E+000	2.488086864846991E+000	3.2999305E-004	-9.4412775E-005	5.4098493E-003	2.9598099E-005	1.000000000000000E+000	11	1.4690722E-003	3.6936513E-006	2.5073874E-003	1.8597393E-004	2.5142748E-003	4.2418838E+000
6.7575181E+005	1.1530275E+002	-1.0166715E+000	1.1530723E+002	5.0518727E-001	2.897096724278526E+000	3.0170585E-004	4.6100112E-004	-2.3166062E-001	-1.8009452E-005	1.000000000000000E+000	11	5.6400136E-003	4.8912923E-005	8.6721461E-003	-7.6465869E-005	8.6724833E-003	-5.0518727E-001
4.5664050E+005	8.6575516E+001	6.8921429E-001	8.6578262E+001	-4.5611319E-001	3.306097970373230E+000	4.9242616E-004	5.2933162E-004	5.0569820E-001	3.2046621E-005	1.000000000000000E+000	11	1.0207259E-002	1.1789633E-004	1.1549877E-002	9.1946778E-005	1.1550243E-002	4.5611319E-001
3.0857416E+005	7.8036583E+001	2.3598568E+000	7.8072258E+001	-1.7321188E+000	3.847081542713568E+000	4.7215700E-004	6.2025065E-004	2.1856214E-001	1.9968837E-004	1.000000000000000E+000	11	1.0068564E-002	1.2896468E-004	1.2802795E-002	3.8716150E-004	1.2808647E-002	1.7321188E+000
2.0852534E+005	7.5194252E+001	4.2376304E+000	7.5313568E+001	-3.2255359E+000	4.256079482147470E+000	4.9981032E-004	6.1875710E-004	1.8011017E-001	5.7021406E-004	1.000000000000000E+000	11	1.0827001E-002	1.4375897E-004	1.3256785E-002	7.4709632E-004	1.3277820E-002	3.2255359E+000
1.4090817E+005	7.4372917E+001	6.4821095E+000	7.4654861E+001	-4.9811325E+000	4.665082674910082E+000	5.1097979E-004	6.3686620E-004	1.7424792E-001	1.3136636E-003	1.000000000000000E+000	11	1.0794971E-002	1.4459837E-004	1.3344387E-002	1.1630547E-003	1.3394975E-002	4.9811325E+000
9.5214820E+004	7.4891342E+001	8.8543720E+000	7.5412949E+001	-6.7427549E+000	5.074097681004787E+000	5.2459200E-004	5.5789488E-004	1.8878078E-001	2.6024445E-003	1.000000000000000E+000	11	1.0635094E-002	1.4102476E-004	1.3168605E-002	1.5569186E-003	1.3260323E-002	6.7427549E+000
6.4345688E+004	7.6288284E+001	1.1741362E+001	7.7186539E+001	-8.7496128E+000	5.483095060422784E+000	5.2636344E-004	4.1806194E-004	2.1066007E-001	4.8745666E-003	1.000000000000000E+000	11	1.0541513E-002	1.3657191E-004	1.2804856E-002	1.9707673E-003	1.2955626E-002	8.7496128E+000
4.3476547E+004	7.8164185E+001	1.5343386E+001	7.9655884E+001	-1.1105775E+001	5.892089826491429E+000	5.1614497E-004	4.5259972E-004	2.3858541E-001	8.8521875E-003	1.000000000000000E+000	11	1.0492090E-002	1.3171771E-004	1.2318905E-002	2.4181625E-003	1.2554000E-002	1.1105775E+001
2.9384758E+004	8.0710625E+001	1.9846407E+001	8.3114891E+001	-1.3814712E+001	6.301099685922964E+000	5.3270336E-004	5.6946953E-004	2.7290791E-001	1.5560453E-002	1.000000000000000E+000	11	1.0391181E-002	1.2502189E-004	1.1683502E-002	2.8729246E-003	1.2031538E-002	1.3814712E+001
1.9853508E+004	8.4127731E+001	2.5586912E+001	8.7932732E+001	-1.6916803E+001	6.710086265375139E+000	5.2722119E-004	6.5012125E-004	3.1330335E-001	2.6527703E-002	1.000000000000000E+000	11	1.0254265E-002	1.1661488E-004	1.0880229E-002	3.3091523E-003	1.1372330E-002	1.6916803E+001
1.3417967E+004	8.8299980E+001	3.3138531E+001	9.4313568E+001	-2.0570854E+001	7.119076631468488E+000	5.2999955E-004	5.2298309E-004	3.5793170E-001	4.4189423E-002	1.000000000000000E+000	11	1.0158804E-002	1.0771307E-004	9.9268686E-003	3.7255026E-003	1.0602929E-002	2.0570854E+001
9.0820293E+003	9.3075623E+001	4.2793087E+001	1.0244179E+002	-2.4691406E+001	7.416334912210004E+000	5.1696546E-004	4.8900495E-004	4.0950915E-001	7.1458936E-002	1.000000000000000E+000	11	1.0572293E-002	1.0320293E-004	8.8691432E-003	4.0777386E-003	9.7616417E-003	2.4691406E+001
6.1409590E+003	9.8788475E+001	5.6122669E+001	1.1361742E+002	-2.9601316E+001	7.819637064771086E+000	5.2224251E-004	3.5365229E-004	4.6179116E-001	1.1267626E-001	1.000000000000000E+000	11	1.0658463E-002	9.3810122E-005	7.6527316E-003	4.3475893E-003	8.8014677E-003	2.9601316E+001
4.1413242E+003	1.0569514E+002	7.4524872E+001	1.2932680E+002	-3.5187382E+001	8.285668980235641E+000	5.5642222E-004	6.9399283E-004	5.1567924E-001	1.7123996E-001	1.000000000000000E+000	11	1.0611854E-002	8.2054561E-005	6.3194311E-003	4.4557843E-003	7.7323494E-003	3.5187382E+001
2.7973140E+003	1.1427986E+002	1.0076583E+002	1.5236023E+002	-4.1404110E+001	8.751957535685506E+000	5.5849203E-004	6.6804228E-004	5.6463218E-001	2.4697269E-001	1.000000000000000E+000	11	1.0535901E-002	6.9151254E-005	4.9229618E-003	4.3408023E-003	6.5633925E-003	4.1404110E+001
1.8906046E+003	1.2490044E+002	1.3706113E+002	1.8543428E+002	-4.7657852E+001	9.216663424456783E+000	5.6473870E-004	7.7296339E-004	6.1419338E-001	3.3554724E-001	1.000000000000000E+000	11	1.0457370E-002	5.6393943E-005	3.6323187E-003	3.9859717E-003	5.3927461E-003	4.7657852E+001
1.2871166E+003	1.3915971E+002	1.8701404E+002	2.3310872E+002	-5.3346558E+001	9.683183926594211E+000	5.6030077E-004	6.3518371E-004	6.6119272E-001	4.2555866E-001	1.000000000000000E+000	11	1.0414116E-002	4.4674933E-005	2.5609226E-003	3.4415743E-003	4.2898436E-003	5.3346558E+001
8.6306641E+002	1.5929968E+002	2.6059131E+002	3.0542465E+002	-5.8562519E+001	1.015021624209476E+001	5.6218408E-004	6.9623167E-004	7.0764589E-001	5.1514286E-001	1.000000000000000E+000	11	1.0377278E-002	3.3976554E-005	1.7076810E-003	2.7935198E-003	3.2741299E-003	5.8562519E+001
5.8369244E+002	1.8939406E+002	3.5924863E+002	4.0611536E+002	-6.2202026E+001	1.086918616955518E+001	5.4101989E-004	-4.8888644E-005	7.5899851E-001	5.9392601E-001	1.000000000000000E+000	12	1.0566130E-002	2.6017558E-005	1.1483323E-003	2.1781926E-003	2.4623545E-003	6.2202026E+001
3.9411707E+002	2.3243414E+002	4.9709961E+002	5.4875647E+002	-6.4940117E+001	1.133622115178150E+001	5.4066558E-004	-6.9252666E-005	8.1236547E-001	6.6662103E-001	1.000000000000000E+000	12	1.0447095E-002	1.9037761E-005	7.7186385E-004	1.6507606E-003	1.8223020E-003	6.4940117E+001
2.6644943E+002	3.0351147E+002	6.9093066E+002	7.5465515E+002	-6.6285118E+001	1.179965714714490E+001	5.3799909E-004	2.0228781E-005	8.6451173E-001	7.2467411E-001	1.000000000000000E+000	12	1.0388914E-002	1.3766439E-005	5.3293956E-004	1.2132140E-003	1.3251086E-003	6.6285118E+001
1.8005759E+002	3.9873923E+002	9.5142963E+002	1.0316062E+003	-6.7261696E+001	1.226467887589388E+001	5.3536991E-004	6.4652209E-005	9.2903489E-001	7.9023725E-001	1.000000000000000E+000	12	1.0362489E-002	1.0045005E-005	3.7468047E-004	8.9402322E-004	9.6936215E-004	6.7261696E+001
1.2159529E+002	5.6997382E+002	1.3040303E+003	1.4231532E+003	-6.6390518E+001	1.272512815103983E+001	5.3766347E-004	3.9379265E-005	1.0037272E+000	8.4272861E-001	1.000000000000000E+000	12	1.0354970E-002	7.2760749E-006	2.8141780E-004	6.4384949E-004	7.0266501E-004	6.6390518E+001
8.2236801E+001	8.3723029E+002	1.7277997E+003	1.9199600E+003	-6.4146820E+001	1.318031403931673E+001	5.3697353E-004	-4.2860269E-005	1.1201097E+000	9.0711629E-001	1.000000000000000E+000	12	1.0336225E-002	5.3835629E-006	2.2712273E-004	4.6871518E-004	5.2084419E-004	6.4146820E+001
5.5515171E+001	1.2233048E+003	2.3066191E+003	2.6109321E+003	-6.2060963E+001	1.389289719320368E+001	5.4193358E-004	-6.2950669E-005	1.2428896E+000	9.7004789E-001	1.000000000000000E+000	13	1.0361812E-002	3.9686256E-006	1.7945003E-004	3.3836445E-004	3.8300498E-004	6.2060963E+001
3.7560089E+001	1.8277639E+003	2.9573396E+003	3.4765757E+003	-5.8282143E+001	1.438377097653574E+001	5.4898212E-004	-6.2494306E-005	1.4328223E+000	1.0367913E+000	1.000000000000000E+000	13	1.0342364E-002	2.9748710E-006	1.5122260E-004	2.4467963E-004	2.8763936E-004	5.8282143E+001
2.5365252E+001	2.7242380E+003	3.6382375E+003	4.5451343E+003	-5.3174881E+001	1.484286777165835E+001	5.4167252E-004	-5.9152109E-005	1.7246060E+000	1.1050415E+000	1.000000000000000E+000	13	1.0342292E-002	2.2754648E-006	1.3187170E-004	1.7611551E-004	2.2001550E-004	5.3174881E+001
1.7132671E+001	3.9234021E+003	4.2120605E+003	5.7562607E+003	-4.7032089E+001	1.525681795134733E+001	5.4484251E-004	-8.1068283E-005	2.2054663E+000	1.1808881E+000	1.000000000000000E+000	13	1.0331152E-002	1.7947680E-006	1.1840824E-004	1.2711994E-004	1.7372389E-004	4.7032089E+001
1.1591243E+001	5.3693452E+003	4.6146792E+003	7.0799106E+003	-4.0677383E+001	1.566629583740723E+001	5.3954677E-004	-6.8677575E-005	2.9754224E+000	1.2640845E+000	1.000000000000000E+000	13	1.0330483E-002	1.4591262E-006	1.0711882E-004	9.2063179E-005	1.4124472E-004	4.0677383E+001
7.8281527E+000	6.9390381E+003	4.5850229E+003	8.3170117E+003	-3.3455040E+001	1.624824157173862E+001	5.4349063E-004	-7.3332034E-005	4.4342413E+000	1.3476208E+000	1.000000000000000E+000	13	1.0331623E-002	1.2422279E-006	1.0031471E-004	6.6283719E-005	1.2023549E-004	3.3455040E+001
5.2930207E+000	8.3955840E+003	4.2499917E+003	9.4100088E+003	-2.6849333E+001	1.751171413844713E+001	5.4438907E-004	-6.8169589E-005	7.0750327E+000	1.4431934E+000	1.000000000000000E+000	14	1.0335132E-002	1.0983127E-006	9.4813651E-005	4.7996335E-005	1.0626983E-004	2.6849333E+001
3.5755143E+000	9.6370361E+003	3.6598599E+003	1.0308591E+004	-2.0795288E+001	1.872637704943190E+001	5.4794940E-004	-7.0122573E-005	1.2162340E+001	1.5330188E+000	1.000000000000000E+000	14	1.0333119E-002	1.0023793E-006	9.0686975E-005	3.4440214E-005	9.7006472E-005	2.0795288E+001
2.4172332E+000	1.0568361E+004	2.9369229E+003	1.0968854E+004	-1.5530488E+001	2.050353820048622E+001	5.4533896E-004	-7.2881609E-005	2.2418629E+001	1.6072061E+000	1.000000000000000E+000	14	1.0331843E-002	9.4192541E-007	8.7838540E-005	2.4410125E-005	9.1167225E-005	1.5530488E+001
1.6327059E+000	1.1219496E+004	2.2091523E+003	1.1434922E+004	-1.1139211E+001	2.311441939117503E+001	5.4476992E-004	-7.6939112E-005	4.4125183E+001	1.6469159E+000	1.000000000000000E+000	14	1.0329913E-002	9.0336545E-007	8.5803884E-005	1.6895041E-005	8.7451408E-005	1.1139211E+001
1.1020596E+000	1.1676084E+004	1.5684330E+003	1.1780956E+004	-7.6506691E+000	2.696341880064574E+001	5.4695428E-004	-8.1722646E-005	9.2076553E+001	1.6319993E+000	1.000000000000000E+000	14	1.0333815E-002	8.7716262E-007	8.4127147E-005	1.1300688E-005	8.4882755E-005	7.6506691E+000
7.4560940E-001	1.1932969E+004	1.0114576E+003	1.1975759E+004	-4.8449016E+000	3.263514712339384E+001	5.4489519E-004	-9.1388909E-005	2.1103819E+002	1.5053947E+000	1.000000000000000E+000	14	1.0331529E-002	8.6270353E-007	8.3203660E-005	7.0524761E-006	8.3502018E-005	4.8449016E+000
5.0390220E-001	1.2098941E+004	5.4637323E+002	1.2111271E+004	-2.5856500E+000	4.101095984125277E+001	5.4941326E-004	-1.0293313E-004	5.7807538E+002	1.1764779E+000	1.000000000000000E+000	14	1.0330924E-002	8.5300076E-007	8.2483653E-005	3.7248599E-006	8.2567713E-005	2.5856500E+000
3.4010270E-001	1.2243813E+004	1.7102165E+002	1.2245008E+004	-8.0025572E-001	5.340441192322760E+001	5.4883386E-004	-1.1779284E-004	2.7362700E+003	5.3375632E-001	1.000000000000000E+000	14	1.0332361E-002	8.4380190E-007	8.1657970E-005	1.1405990E-006	8.1665938E-005	8.0025572E-001
2.3021273E-001	1.2394042E+004	-7.1638130E+001	1.2394249E+004	3.3116856E-001	7.169764359214605E+001	5.4164889E-004	-1.4020338E-004	-9.6504277E+003	-3.2239968E-001	1.000000000000000E+000	14	1.0331578E-002	8.3357833E-007	8.0681231E-005	-4.6634122E-007	8.0682577E-005	-3.3116856E-001
1.5547264E-001	1.2529979E+004	-2.4263728E+002	1.2532327E+004	1.1093678E+000	9.876885042461799E+001	5.3656212E-004	-1.6537517E-004	-4.2189912E+003	-1.5814674E+000	1.000000000000000E+000	14	1.0333028E-002	8.2450987E-007	7.9778678E-005	-1.5448776E-006	7.9793637E-005	-1.1093678E+000
1.0504906E-001	1.2736579E+004	-3.7348962E+002	1.2742054E+004	1.6796699E+000	1.388181955801847E+002	5.3782848E-004	-1.8977177E-004	-4.0564807E+003	-3.4851995E+000	1.000000000000000E+000	14	1.0331769E-002	8.1084022E-007	7.8446559E-005	-2.3003804E-006	7.8480283E-005	-1.6796699E+000
7.1022727E-002	1.3034841E+004	-5.0505261E+002	1.3044622E+004	2.2188928E+000	1.980387620730180E+002	5.3799595E-004	-2.1486579E-004	-4.4369668E+003	-6.6511450E+000	1.000000000000000E+000	14	1.0331957E-002	7.9204722E-007	7.6602468E-005	-2.9680666E-006	7.6659948E-005	-2.2188928E+000
4.7988325E-002	1.3504358E+004	-6.1922162E+002	1.3518548E+004	2.6253710E+000	2.856693713552377E+002	5.3928414E-004	-2.3946613E-004	-5.3559736E+003	-1.1237522E+001	1.000000000000000E+000	14	1.0331836E-002	7.6427114E-007	7.3894800E-005	-3.3883325E-006	7.3972442E-005	-2.6253710E+000
3.2443926E-002	1.4095229E+004	-6.4094550E+002	1.4109794E+004	2.6035895E+000	4.152691375908616E+002	5.3588621E-004	-2.5973216E-004	-7.6535981E+003	-1.5793068E+001	1.000000000000000E+000	14	1.0333199E-002	7.3234230E-007	7.0799601E-005	-3.2194357E-006	7.0872760E-005	-2.6035895E+000
2.1920588E-002	1.4769132E+004	-8.0211566E+002	1.4790897E+004	3.1086957E+000	6.070695678209013E+002	5.3715444E-004	-2.6046965E-004	-9.0517168E+003	-2.6620480E+001	1.000000000000000E+000	14	1.0331374E-002	6.9849540E-007	6.7509660E-005	-3.6664685E-006	6.7609151E-005	-3.1086957E+000
1.4807615E-002	1.5748037E+004	-9.3371149E+002	1.5775693E+004	3.3931322E+000	8.909861312528665E+002	5.3880387E-004	-2.3338824E-004	-1.1511245E+004	-4.0324669E+001	1.000000000000000E+000	14	1.0331952E-002	6.5492856E-007	6.3277534E-005	-3.7517668E-006	6.3388659E-005	-3.3931322E+000
1.0000636E-002	1.6830080E+004	-9.3413818E+002	1.6855984E+004	3.1768901E+000	1.311357603459473E+003	5.3710717E-004	-1.7343556E-004	-1.7036539E+004	-5.2323334E+001	1.000000000000000E+000	14	1.0332954E-002	6.1301398E-007	5.9234939E-005	-3.2877811E-006	5.9326110E-005	-3.1768901E+000