EC-Lab ASCII FILE
Nb header lines : 62                          

Potentio Electrochemical Impedance Spectroscopy

Run on channel : 5 (SN 35518)
User : 
CE vs. WE compliance from -10 V to 10 V
Electrode connection : standard
Ewe ctrl range : min = -5.00 V, max = 5.00 V
Safety Limits :
	Do not start on E overload
Acquisition started on : 07/09/2023 15:56:20
Technique started on : 07/09/2023 15:56:21
Saved on :
	File : 0708_01_EIS_0.5MTFSI_SymCell_OutsideGB_unsanded_60C_C04_C05.mpr
	Directory : C:\Users\CESL\Documents\EC-Lab\Data\PhD\Leifer\Results\Zn Ion GPE\2023\0708\
	Host : 10.110.196.171
Device : VSP (SN 1724172417241724)
Address : USB
EC-Lab for windows v11.16 (software)
Internet server v11.16 (firmware)
Command interpretor v11.16 (firmware)
Electrode material : Au/Pd
Initial state : 
Electrolyte : NaCl (0.2M)
Comments : Fe(CN)63-/Fe(CN)64- 5.10-3 M
Reference electrode : SCE Saturated Calomel Electrode (0.241 V)
Electrode surface area : 0.001 cm²
Characteristic mass : 0.001 g
Equivalent Weight : 0.000 g/eq.
Density : 0.000 g/cm3
Cycle Definition : Charge/Discharge alternance
Mode                Single sine         
E (V)               0.0000              
vs.                 Eoc                 
tE (h:m:s)          0:00:0.0000         
record              0                   
dI                  0.000               
unit dI             mA                  
dt (s)              0.000               
fi                  1.000               
unit fi             MHz                 
ff                  10.000              
unit ff             mHz                 
Nd                  6                   
Points              per decade          
spacing             Logarithmic         
Va (mV)             10.0                
pw                  0.10                
Na                  2                   
corr                1                   
E range min (V)     -5.000              
E range max (V)     5.000               
I Range             Auto                
Bandwidth           5                   
nc cycles           0                   
goto Ns'            0                   
nr cycles           0                   
inc. cycle          0                   

freq/Hz	Re(Z)/Ohm	-Im(Z)/Ohm	|Z|/Ohm	Phase(Z)/deg	time/s	<Ewe>/V	<I>/mA	Cs/µF	Cp/µF	cycle number	I Range	|Ewe|/V	|I|/A	Re(Y)/Ohm-1	Im(Y)/Ohm-1	|Y|/Ohm-1	Phase(Y)/deg	
1.0000193E+006	-1.3317435E+000	4.3108759E+000	4.5118947E+000	-1.0716730E+002	1.974090787087334E+000	-4.8551098E-003	6.7896478E-002	3.6918689E-002	3.3702288E-002	1.000000000000000E+000	9	1.6753172E-004	3.7131122E-005	-6.5418810E-002	2.1176182E-001	2.2163638E-001	1.0716730E+002
6.7575181E+005	4.0607297E+002	1.2088477E+001	4.0625287E+002	-1.7051474E+000	2.971089127793675E+000	-5.2400511E-003	-3.5498399E-004	1.9483246E-002	1.7250894E-005	1.000000000000000E+000	11	7.9784566E-004	1.9639140E-006	2.4604313E-003	7.3245130E-005	2.4615212E-003	1.7051474E+000
4.5664050E+005	2.3707500E+001	6.0069723E+000	2.4456682E+001	-1.4218287E+001	4.262087135779439E+000	-4.9410830E-003	1.5018667E-002	5.8021646E-002	3.5003079E-003	1.000000000000000E+000	10	5.9446758E-003	2.4306959E-004	3.9636083E-002	1.0042933E-002	4.0888622E-002	1.4218287E+001
3.0857416E+005	1.7411364E+001	7.0312281E+000	1.8777479E+001	-2.1990326E+001	4.671080915199127E+000	-5.0851423E-003	1.3688492E-002	7.3354945E-002	1.0285305E-002	1.000000000000000E+000	10	1.0787105E-002	5.7447038E-004	4.9380809E-002	1.9941444E-002	5.3255286E-002	2.1990326E+001
2.0852534E+005	1.6309214E+001	9.1322908E+000	1.8691956E+001	-2.9246502E+001	5.212100727570942E+000	-5.0506373E-003	1.2826572E-002	8.3575994E-002	1.9949479E-002	1.000000000000000E+000	10	1.0222517E-002	5.4689392E-004	4.6679217E-002	2.6137874E-002	5.3498950E-002	2.9246502E+001
1.4090817E+005	1.6752892E+001	1.2219230E+001	2.0735693E+001	-3.6106274E+001	5.753086966578849E+000	-5.0338418E-003	1.2434795E-002	9.2435785E-002	3.2098942E-002	1.000000000000000E+000	10	1.0258229E-002	4.9471355E-004	3.8963027E-002	2.8418863E-002	4.8226021E-002	3.6106274E+001
9.5214820E+004	1.8058725E+001	1.6448692E+001	2.4426973E+001	-4.2328651E+001	6.162076426029671E+000	-5.0185747E-003	1.2526206E-002	1.0162117E-001	4.6079487E-002	1.000000000000000E+000	10	1.0820672E-002	4.4298047E-004	3.0265495E-002	2.7567161E-002	4.0938351E-002	4.2328651E+001
6.4345688E+004	2.0300100E+001	2.2171936E+001	3.0061419E+001	-4.7523518E+001	6.571093618782470E+000	-5.0489223E-003	1.2487022E-002	1.1155706E-001	6.0685560E-002	1.000000000000000E+000	10	1.0315844E-002	3.4315893E-004	2.2463594E-002	2.4534922E-002	3.3265229E-002	4.7523518E+001
4.3476547E+004	2.3560923E+001	2.9695868E+001	3.7907276E+001	-5.1571255E+001	6.980079131521052E+000	-5.0317910E-003	1.2787386E-002	1.2327331E-001	7.5651228E-002	1.000000000000000E+000	10	1.0226296E-002	2.6977132E-004	1.6396347E-002	2.0665735E-002	2.6380159E-002	5.1571255E+001
2.9384758E+004	2.8364531E+001	3.9710987E+001	4.8800709E+001	-5.4462765E+001	7.420087659091223E+000	-5.1074373E-003	3.5713828E-004	1.3639151E-001	9.0314284E-002	1.000000000000000E+000	11	1.0177405E-002	2.0855035E-004	1.1910317E-002	1.6674716E-002	2.0491505E-002	5.4462765E+001
1.9853508E+004	3.4681240E+001	5.2880592E+001	6.3238796E+001	-5.6741508E+001	7.829079305200139E+000	-5.1006330E-003	3.3643853E-004	1.5159559E-001	1.0600150E-001	1.000000000000000E+000	11	1.0273030E-002	1.6244822E-004	8.6721629E-003	1.3222972E-002	1.5813077E-002	5.6741508E+001
1.3417967E+004	4.3327065E+001	6.9838684E+001	8.2186836E+001	-5.8185043E+001	8.106086438347120E+000	-5.0988435E-003	4.0505733E-004	1.6983898E-001	1.2263797E-001	1.000000000000000E+000	11	9.9982060E-003	1.2165216E-004	6.4143804E-003	1.0339309E-002	1.2167399E-002	5.8185043E+001
9.0820293E+003	5.4505737E+001	9.1843369E+001	1.0679925E+002	-5.9312393E+001	8.403332345798844E+000	-5.1074373E-003	2.9373571E-004	1.9080485E-001	1.4110702E-001	1.000000000000000E+000	11	9.3111405E-003	8.7183580E-005	4.7786562E-003	8.0521414E-003	9.3633616E-003	5.9312393E+001
6.1409590E+003	6.8777496E+001	1.2058652E+002	1.3882166E+002	-6.0301376E+001	8.996652294012165E+000	-5.0783753E-003	1.0955452E-003	2.1492413E-001	1.6216914E-001	1.000000000000000E+000	11	9.9118436E-003	7.1399838E-005	3.5688798E-003	6.2572616E-003	7.2034872E-003	6.0301376E+001
4.1413242E+003	8.7112335E+001	1.5857394E+002	1.8092610E+002	-6.1217880E+001	9.462672476140142E+000	-5.0363769E-003	1.1358218E-003	2.4235339E-001	1.8617025E-001	1.000000000000000E+000	11	9.6422145E-003	5.3293661E-005	2.6611981E-003	4.8442818E-003	5.5271187E-003	6.1217880E+001
2.7973140E+003	1.1092178E+002	2.0790182E+002	2.3564127E+002	-6.1918758E+001	9.928920151607599E+000	-5.0384644E-003	1.0586237E-003	2.7366585E-001	2.1302693E-001	1.000000000000000E+000	11	9.4908653E-003	4.0276755E-005	1.9976257E-003	3.7441703E-003	4.2437389E-003	6.1918758E+001
1.8906046E+003	1.3931425E+002	2.7494156E+002	3.0822284E+002	-6.3128441E+001	1.039370812036213E+001	-5.0365073E-003	1.0424007E-003	3.0618155E-001	2.4362966E-001	1.000000000000000E+000	11	9.4216932E-003	3.0567797E-005	1.4664454E-003	2.8940814E-003	3.2444058E-003	6.3128441E+001
1.2871166E+003	1.7254857E+002	3.6369351E+002	4.0254935E+002	-6.4618744E+001	1.111221314113936E+001	-5.0685704E-003	6.0384144E-005	3.3999044E-001	2.7752337E-001	1.000000000000000E+000	12	9.8218797E-003	2.4399194E-005	1.0648125E-003	2.2443845E-003	2.4841675E-003	6.4618744E+001
8.6306641E+002	2.2441937E+002	4.9134009E+002	5.4016583E+002	-6.5451469E+001	1.157920148331323E+001	-5.0696889E-003	-6.0163831E-005	3.7531310E-001	3.1053025E-001	1.000000000000000E+000	12	9.5810955E-003	1.7737322E-005	7.6914130E-004	1.6839453E-003	1.8512834E-003	6.5451469E+001
5.8369244E+002	2.8063696E+002	6.6146710E+002	7.1853729E+002	-6.7010216E+001	1.204619337213808E+001	-5.0721681E-003	9.4158122E-006	4.1221884E-001	3.4933788E-001	1.000000000000000E+000	12	9.4578443E-003	1.3162635E-005	5.4355839E-004	1.2811784E-003	1.3917162E-003	6.7010216E+001
3.9411707E+002	3.5960571E+002	8.9261572E+002	9.6233002E+002	-6.8057106E+001	1.251320278100320E+001	-5.0711613E-003	-9.1009693E-005	4.5240811E-001	3.8923454E-001	1.000000000000000E+000	12	9.4025377E-003	9.7705961E-006	3.8830994E-004	9.6386560E-004	1.0391446E-003	6.8057106E+001
2.6644943E+002	4.5660806E+002	1.2262527E+003	1.3085055E+003	-6.9576660E+001	1.297667453638132E+001	-5.0756726E-003	3.4741148E-005	4.8710814E-001	4.2779353E-001	1.000000000000000E+000	12	9.3687847E-003	7.1599125E-006	2.6668122E-004	7.1619108E-004	7.6423067E-004	6.9576660E+001
1.8005759E+002	6.4933887E+002	1.6737295E+003	1.7952748E+003	-6.8795776E+001	1.344169495847018E+001	-5.0666314E-003	-1.4473896E-005	5.2810884E-001	4.5902053E-001	1.000000000000000E+000	12	9.3491059E-003	5.2076184E-006	2.0146961E-004	5.1930611E-004	5.5701780E-004	6.8795776E+001
1.2159529E+002	8.2662122E+002	2.3012075E+003	2.4451704E+003	-7.0241104E+001	1.415112573877559E+001	-5.0639659E-003	-1.5273406E-005	5.6878430E-001	5.0377995E-001	1.000000000000000E+000	13	9.4097471E-003	3.8482990E-006	1.3825737E-004	3.8489077E-004	4.0896944E-004	7.0241104E+001
8.2236801E+001	1.1414414E+003	3.1576763E+003	3.3576492E+003	-7.0126015E+001	1.460631485373597E+001	-5.0652334E-003	-1.7289522E-005	6.1289537E-001	5.4206443E-001	1.000000000000000E+000	13	9.3743838E-003	2.7919486E-006	1.0124720E-004	2.8008959E-004	2.9782741E-004	7.0126015E+001
5.5515171E+001	1.6320952E+003	4.3738027E+003	4.6683921E+003	-6.9536819E+001	1.506787687569158E+001	-5.0599207E-003	-1.7617782E-005	6.5546459E-001	5.7535118E-001	1.000000000000000E+000	13	9.3564149E-003	2.0042050E-006	7.4887750E-005	2.0068945E-004	2.1420652E-004	6.9536819E+001
3.7560089E+001	2.4015928E+003	5.9274531E+003	6.3954941E+003	-6.7943962E+001	1.555875500568072E+001	-5.0580380E-003	-1.2884395E-005	7.1486723E-001	6.1406374E-001	1.000000000000000E+000	13	9.3458276E-003	1.4613144E-006	5.8715283E-005	1.4491718E-004	1.5636008E-004	6.7943962E+001
2.5365252E+001	3.5956543E+003	7.9635190E+003	8.7376406E+003	-6.5700073E+001	1.601786036082194E+001	-5.0575719E-003	-5.3161730E-006	7.8790879E-001	6.5448189E-001	1.000000000000000E+000	13	9.3390243E-003	1.0688268E-006	4.7096604E-005	1.0430777E-004	1.1444737E-004	6.5700073E+001
1.7132671E+001	5.5390898E+003	1.0415498E+004	1.1796784E+004	-6.1995407E+001	1.643084504708531E+001	-5.0637792E-003	-6.9418595E-005	8.9189756E-001	6.9526088E-001	1.000000000000000E+000	13	9.3337400E-003	7.9121054E-007	3.9802570E-005	7.4843272E-005	8.4768864E-005	6.1995407E+001
1.1591243E+001	8.7932920E+003	1.3110659E+004	1.5786430E+004	-5.6150322E+001	1.706625843726215E+001	-5.0663520E-003	-1.6747792E-005	1.0472867E+000	7.2234857E-001	1.000000000000000E+000	14	9.3532586E-003	5.9248725E-007	3.5284476E-005	5.2608590E-005	6.3345542E-005	5.6150322E+001
7.8281527E+000	1.3202479E+004	1.5425551E+004	2.0304016E+004	-4.9440319E+001	1.764725043819635E+001	-5.0603217E-003	-1.8005496E-005	1.3180144E+000	7.6074243E-001	1.000000000000000E+000	14	9.3371198E-003	4.5986567E-007	3.2025182E-005	3.7417678E-005	4.9251343E-005	4.9440319E+001
5.2930207E+000	1.8621947E+004	1.6667225E+004	2.4991465E+004	-4.1829536E+001	1.848373407794861E+001	-5.0567016E-003	-1.7068834E-005	1.8040694E+000	8.0241013E-001	1.000000000000000E+000	14	9.3382876E-003	3.7365908E-007	2.9815470E-005	2.6685777E-005	4.0013660E-005	4.1829536E+001
3.5755143E+000	2.4031596E+004	1.6327483E+004	2.9053473E+004	-3.4192871E+001	1.969828234895249E+001	-5.0546299E-003	-1.5051291E-005	2.7262292E+000	8.6100322E-001	1.000000000000000E+000	14	9.3404530E-003	3.2149180E-007	2.8469934E-005	1.9342970E-005	3.4419292E-005	3.4192871E+001
2.4172332E+000	2.9192014E+004	1.5207493E+004	3.2915672E+004	-2.7517128E+001	2.147554645998753E+001	-5.0519095E-003	-1.3526033E-005	4.3295617E+000	9.2417401E-001	1.000000000000000E+000	14	9.3397759E-003	2.8374859E-007	2.6943784E-005	1.4036285E-005	3.0380665E-005	2.7517128E+001
1.6327059E+000	3.3261109E+004	1.3188473E+004	3.5780402E+004	-2.1628986E+001	2.408644327733782E+001	-5.0531756E-003	-1.7237971E-005	7.3912463E+000	1.0041908E+000	1.000000000000000E+000	14	9.3380287E-003	2.6098166E-007	2.5980427E-005	1.0301586E-005	2.7948261E-005	2.1628986E+001
1.1020596E+000	3.6223824E+004	1.0989857E+004	3.7854227E+004	-1.6877144E+001	2.793544908685726E+001	-5.0538168E-003	-1.9320578E-005	1.3140836E+001	1.1075883E+000	1.000000000000000E+000	14	9.3405684E-003	2.4675100E-007	2.5279329E-005	7.6694332E-006	2.6417129E-005	1.6877144E+001
7.4560940E-001	3.8449449E+004	8.8657031E+003	3.9458344E+004	-1.2984364E+001	3.360721391622792E+001	-5.0528678E-003	-2.0620490E-005	2.4076624E+001	1.2154700E+000	1.000000000000000E+000	14	9.3398644E-003	2.3670188E-007	2.4695193E-005	5.6942363E-006	2.5343183E-005	1.2984364E+001
5.0390220E-001	3.9910152E+004	6.6006963E+003	4.0452313E+004	-9.3910751E+000	4.198306972743012E+001	-5.0501265E-003	-2.6643065E-005	4.7850239E+001	1.2740220E+000	1.000000000000000E+000	14	9.3385279E-003	2.3085276E-007	2.4389152E-005	4.0336949E-006	2.4720466E-005	9.3910751E+000
3.4010270E-001	4.0463199E+004	4.5282280E+003	4.0715789E+004	-6.3853903E+000	5.437656146273366E+001	-5.0503337E-003	-3.5842531E-005	1.0334317E+002	1.2782407E+000	1.000000000000000E+000	14	9.3380734E-003	2.2934772E-007	2.4408131E-005	2.7315086E-006	2.4560497E-005	6.3853903E+000
2.3021273E-001	4.0588141E+004	2.4642368E+003	4.0662879E+004	-3.4743464E+000	7.266982323830598E+001	-5.0510415E-003	-4.1339885E-005	2.8054874E+002	1.0303315E+000	1.000000000000000E+000	14	9.3383547E-003	2.2965305E-007	2.4547255E-005	1.4903428E-006	2.4592455E-005	3.4743464E+000
1.5547264E-001	3.9476957E+004	4.0044308E+002	3.9478988E+004	-5.8117229E-001	9.974112268412136E+001	-5.0473302E-003	-4.8761787E-005	2.5563799E+003	2.6301163E-001	1.000000000000000E+000	14	9.3379952E-003	2.3653077E-007	2.5328627E-005	2.5692643E-007	2.5329929E-005	5.8117229E-001
1.0504906E-001	3.7118824E+004	-1.5655995E+003	3.7151828E+004	2.4151924E+000	1.397906731730545E+002	-5.0461688E-003	-7.5254327E-005	-9.6771466E+002	-1.7184949E+000	1.000000000000000E+000	14	9.3390588E-003	2.5137550E-007	2.6892665E-005	-1.1342801E-006	2.6916576E-005	-2.4151924E+000
7.1022727E-002	3.4465488E+004	-3.3617253E+003	3.4629051E+004	5.5709438E+000	1.990116637725732E+002	-5.0452854E-003	-9.1529408E-005	-6.6659271E+002	-6.2820854E+000	1.000000000000000E+000	14	9.3388231E-003	2.6968175E-007	2.8741093E-005	-2.8033739E-006	2.8877488E-005	-5.5709438E+000
4.7988325E-002	3.1686514E+004	-3.9493562E+003	3.1931686E+004	7.1046157E+000	2.866427691614808E+002	-5.0444715E-003	-1.4535755E-004	-8.3976593E+002	-1.2845978E+001	1.000000000000000E+000	14	9.3384944E-003	2.9245228E-007	3.1076404E-005	-3.8733133E-006	3.1316857E-005	-7.1046157E+000
3.2443926E-002	2.9766371E+004	-2.8948447E+003	2.9906805E+004	5.5546718E+000	4.162433188638242E+002	-5.0471579E-003	-2.2820888E-004	-1.6945776E+003	-1.5877130E+001	1.000000000000000E+000	14	9.3371971E-003	3.1220978E-007	3.3280194E-005	-3.2365715E-006	3.3437205E-005	-5.5546718E+000
2.1920588E-002	2.7962148E+004	-1.7820035E+003	2.8018873E+004	3.6464791E+000	6.080447803739225E+002	-5.0492086E-003	-3.7132643E-004	-4.0743596E+003	-1.6480680E+001	1.000000000000000E+000	14	9.3362965E-003	3.3321456E-007	3.5617970E-005	-2.2699026E-006	3.5690227E-005	-3.6464791E+000
1.4807615E-002	2.6782393E+004	-1.2054304E+003	2.6809506E+004	2.5770473E+000	8.919638198060275E+002	-5.0446722E-003	-4.8494752E-004	-8.9164678E+003	-1.8026007E+001	1.000000000000000E+000	14	9.3362946E-003	3.4824569E-007	3.7262482E-005	-1.6771215E-006	3.7300204E-005	-2.5770473E+000
1.0000636E-002	2.5711547E+004	-2.7100653E+001	2.5711561E+004	6.0391251E-002	1.312337523345981E+003	-5.0351950E-003	-5.7348958E-004	-5.8723613E+005	-6.5240216E-001	1.000000000000000E+000	14	9.3356054E-003	3.6308981E-007	3.8892988E-005	-4.0994241E-008	3.8893009E-005	-6.0391251E-002