EC-Lab ASCII FILE
Nb header lines : 62                          

Potentio Electrochemical Impedance Spectroscopy

Run on channel : 4 (SN 35517)
User : 
CE vs. WE compliance from -10 V to 10 V
Electrode connection : standard
Ewe ctrl range : min = -5.00 V, max = 5.00 V
Safety Limits :
	Do not start on E overload
Acquisition started on : 07/09/2023 15:56:09
Technique started on : 07/09/2023 15:56:11
Saved on :
	File : 0708_01_EIS_0.5MTFSI_SymCell_OutsideGB_sanded_60C_C04.mpr
	Directory : C:\Users\CESL\Documents\EC-Lab\Data\PhD\Leifer\Results\Zn Ion GPE\2023\0708\
	Host : 10.110.196.171
Device : VSP (SN 1724172417241724)
Address : USB
EC-Lab for windows v11.16 (software)
Internet server v11.16 (firmware)
Command interpretor v11.16 (firmware)
Electrode material : Au/Pd
Initial state : 
Electrolyte : NaCl (0.2M)
Comments : Fe(CN)63-/Fe(CN)64- 5.10-3 M
Reference electrode : SCE Saturated Calomel Electrode (0.241 V)
Electrode surface area : 0.001 cm²
Characteristic mass : 0.001 g
Equivalent Weight : 0.000 g/eq.
Density : 0.000 g/cm3
Cycle Definition : Charge/Discharge alternance
Mode                Single sine         
E (V)               0.0000              
vs.                 Eoc                 
tE (h:m:s)          0:00:0.0000         
record              0                   
dI                  0.000               
unit dI             mA                  
dt (s)              0.000               
fi                  1.000               
unit fi             MHz                 
ff                  10.000              
unit ff             mHz                 
Nd                  6                   
Points              per decade          
spacing             Logarithmic         
Va (mV)             10.0                
pw                  0.10                
Na                  2                   
corr                1                   
E range min (V)     -5.000              
E range max (V)     5.000               
I Range             Auto                
Bandwidth           5                   
nc cycles           0                   
goto Ns'            0                   
nr cycles           0                   
inc. cycle          0                   

freq/Hz	Re(Z)/Ohm	-Im(Z)/Ohm	|Z|/Ohm	Phase(Z)/deg	time/s	<Ewe>/V	<I>/mA	Cs/µF	Cp/µF	cycle number	I Range	|Ewe|/V	|I|/A	Re(Y)/Ohm-1	Im(Y)/Ohm-1	|Y|/Ohm-1	Phase(Y)/deg	
1.0000193E+006	2.1712862E+002	-3.3648781E+001	2.1972044E+002	8.8091478E+000	2.583089536026819E+000	3.9574993E-003	-4.5865055E-004	-4.7297962E-003	-1.1092774E-004	1.000000000000000E+000	11	8.3052902E-004	3.7799350E-006	4.4975514E-003	-6.9699303E-004	4.5512379E-003	-8.8091478E+000
6.7575181E+005	5.8129654E+001	-3.2906306E+000	5.8222717E+001	3.2399683E+000	2.992088728788076E+000	3.8830235E-003	-2.4936532E-004	-7.1573749E-002	-2.2862677E-004	1.000000000000000E+000	11	3.2661597E-003	5.6097684E-005	1.7147973E-002	-9.7072049E-004	1.7175427E-002	-3.2399683E+000
4.5664050E+005	4.4677429E+001	-3.4939507E-001	4.4678795E+001	4.4806638E-001	3.268086848547682E+000	4.1267569E-003	-1.5209494E-004	-9.9753678E-001	-6.1004175E-005	1.000000000000000E+000	11	9.0408130E-003	2.0235131E-004	2.2381298E-002	-1.7503054E-004	2.2381982E-002	-4.4806638E-001
3.0857416E+005	4.0885738E+001	1.5997975E+000	4.0917027E+001	-2.2407546E+000	3.677090894634603E+000	4.0179524E-003	-5.5407572E-006	3.2240039E-001	4.9285305E-004	1.000000000000000E+000	11	1.0725323E-002	2.6212371E-004	2.4421016E-002	9.5555763E-004	2.4439704E-002	2.2407546E+000
2.0852534E+005	3.9880238E+001	3.2655756E+000	4.0013714E+001	-4.6811957E+000	4.218092653638450E+000	4.0566446E-003	-1.3323892E-004	2.3372304E-001	1.5566942E-003	1.000000000000000E+000	11	1.0097694E-002	2.5235582E-004	2.4908066E-002	2.0395860E-003	2.4991432E-002	4.6811957E+000
1.4090817E+005	4.0093868E+001	4.9092159E+000	4.0393299E+001	-6.9807229E+000	4.627083953120746E+000	4.0877475E-003	1.2533054E-004	2.3007628E-001	3.3984231E-003	1.000000000000000E+000	11	1.0714260E-002	2.6524844E-004	2.4573062E-002	3.0088008E-003	2.4756581E-002	6.9807229E+000
9.5214820E+004	4.0912708E+001	6.4978027E+000	4.1425488E+001	-9.0244074E+000	5.036095625866437E+000	4.0997560E-003	1.5576209E-004	2.5724623E-001	6.3291709E-003	1.000000000000000E+000	11	1.0681847E-002	2.5785688E-004	2.3840917E-002	3.7864419E-003	2.4139728E-002	9.0244074E+000
6.4345688E+004	4.2196388E+001	8.2358236E+000	4.2992603E+001	-1.1044057E+001	5.445077885291539E+000	4.1117650E-003	2.1643611E-004	3.0032650E-001	1.1020981E-002	1.000000000000000E+000	11	1.0609402E-002	2.4677275E-004	2.2829046E-002	4.4557373E-003	2.3259815E-002	1.1044057E+001
4.3476547E+004	4.3725388E+001	1.0214343E+001	4.4902588E+001	-1.3148626E+001	5.854090571374400E+000	4.1138907E-003	1.2215698E-004	3.5838902E-001	1.8545255E-002	1.000000000000000E+000	11	1.0616538E-002	2.3643488E-004	2.1686574E-002	5.0660293E-003	2.2270432E-002	1.3148626E+001
2.9384758E+004	4.5387741E+001	1.2754199E+001	4.7145695E+001	-1.5695648E+001	6.263093657471472E+000	4.1165571E-003	2.1680979E-004	4.2466339E-001	3.1079007E-002	1.000000000000000E+000	11	1.0501440E-002	2.2274441E-004	2.0419940E-002	5.7381126E-003	2.1210844E-002	1.5695648E+001
1.9853508E+004	4.7447353E+001	1.6122536E+001	5.0111752E+001	-1.8767679E+001	6.672086050239159E+000	4.1154567E-003	2.0486169E-004	4.9722108E-001	5.1467974E-002	1.000000000000000E+000	11	1.0416439E-002	2.0786420E-004	1.8894387E-002	6.4202831E-003	1.9955399E-002	1.8767679E+001
1.3417967E+004	4.9535522E+001	2.0649672E+001	5.3667278E+001	-2.2629593E+001	7.081095936329803E+000	4.1077370E-003	1.5762755E-004	5.7440776E-001	8.5040815E-002	1.000000000000000E+000	11	1.0312827E-002	1.9216229E-004	1.7198779E-002	7.1695847E-003	1.8633328E-002	2.2629593E+001
9.0820293E+003	5.2043613E+001	2.7086716E+001	5.8670502E+001	-2.7495258E+001	7.518344570387853E+000	4.1083712E-003	2.3323753E-004	6.4696515E-001	1.3789673E-001	1.000000000000000E+000	11	1.0037790E-002	1.7108751E-004	1.5119166E-002	7.8689493E-003	1.7044341E-002	2.7495258E+001
6.1409590E+003	5.5128338E+001	3.6275261E+001	6.5992638E+001	-3.3345505E+001	7.921647202951135E+000	4.1128835E-003	2.3286288E-004	7.1445256E-001	2.1587557E-001	1.000000000000000E+000	11	1.0220676E-002	1.5487600E-004	1.2658549E-002	8.3295116E-003	1.5153206E-002	3.3345505E+001
4.1413242E+003	5.9040936E+001	4.9288929E+001	7.6910538E+001	-3.9856018E+001	8.387682745080383E+000	4.1465410E-003	7.2031736E-004	7.7970713E-001	3.2022747E-001	1.000000000000000E+000	11	1.0115266E-002	1.3151989E-004	9.9811722E-003	8.3325449E-003	1.3002119E-002	3.9856018E+001
2.7973140E+003	6.4220367E+001	6.7449989E+001	9.3133003E+001	-4.6405075E+001	8.853925353876548E+000	4.1506994E-003	8.1422395E-004	8.4352314E-001	4.4243917E-001	1.000000000000000E+000	11	9.9480106E-003	1.0681510E-004	7.4039856E-003	7.7763298E-003	1.0737333E-002	4.6405075E+001
1.8906046E+003	7.1450356E+001	9.2726913E+001	1.1706167E+002	-5.2384094E+001	9.318679322634125E+000	4.1465224E-003	8.3121227E-004	9.0784895E-001	5.6963384E-001	1.000000000000000E+000	11	9.8098433E-003	8.3800645E-005	5.2140476E-003	6.7666918E-003	8.5425060E-003	5.2384094E+001
1.2871166E+003	8.1111732E+001	1.2698395E+002	1.5067859E+002	-5.7431358E+001	9.785196651442675E+000	4.1513522E-003	7.9928723E-004	9.7376335E-001	6.9158888E-001	1.000000000000000E+000	11	9.7120479E-003	6.4455395E-005	3.5725688E-003	5.5930116E-003	6.6366429E-003	5.7431358E+001
8.6306641E+002	9.4820602E+001	1.7711940E+002	2.0090353E+002	-6.1837700E+001	1.025218048694660E+001	4.1438187E-003	7.9163240E-004	1.0411416E+000	8.0922055E-001	1.000000000000000E+000	11	9.6514104E-003	4.8040023E-005	2.3492407E-003	4.3882462E-003	4.9775131E-003	6.1837700E+001
5.8369244E+002	1.1419097E+002	2.4462411E+002	2.6996396E+002	-6.4976753E+001	1.071918562913197E+001	4.1416558E-003	7.5298641E-004	1.1146456E+000	9.1521633E-001	1.000000000000000E+000	11	9.6241524E-003	3.5649769E-005	1.5668238E-003	3.3565082E-003	3.7041982E-003	6.4976753E+001
3.9411707E+002	1.4433942E+002	3.4174866E+002	3.7097980E+002	-6.7102966E+001	1.143820630325354E+001	4.1351854E-003	7.3500323E-006	1.1816479E+000	1.0027697E+000	1.000000000000000E+000	12	9.7613735E-003	2.6312413E-005	1.0487802E-003	2.4831691E-003	2.6955646E-003	6.7102966E+001
2.6644943E+002	1.8573051E+002	4.7153278E+002	5.0679285E+002	-6.8501175E+001	1.190164392532461E+001	4.1367700E-003	-8.9205925E-005	1.2667574E+000	1.0966203E+000	1.000000000000000E+000	12	9.6824039E-003	1.9105250E-005	7.2313996E-004	1.8359082E-003	1.9731929E-003	6.8501175E+001
1.8005759E+002	2.5259518E+002	6.5412592E+002	7.0120258E+002	-6.8885590E+001	1.236666392074403E+001	4.1284165E-003	-3.3396744E-005	1.3512863E+000	1.1759343E+000	1.000000000000000E+000	12	9.6329162E-003	1.3737708E-005	5.1373377E-004	1.3303759E-003	1.4261215E-003	6.8885590E+001
1.2159529E+002	3.4791840E+002	8.8975208E+002	9.5535645E+002	-6.8643089E+001	1.282610663588275E+001	4.1306727E-003	-1.6784672E-005	1.4710734E+000	1.2759731E+000	1.000000000000000E+000	12	9.6125063E-003	1.0061696E-005	3.8119435E-004	9.7485079E-004	1.0467297E-003	6.8643089E+001
8.2236801E+001	5.4746454E+002	1.2068219E+003	1.3251930E+003	-6.5598984E+001	1.328032191077364E+001	4.1305237E-003	-5.7437857E-005	1.6036543E+000	1.3299608E+000	1.000000000000000E+000	12	9.5980912E-003	7.2427874E-006	3.1174373E-004	6.8720279E-004	7.5460708E-004	6.5598984E+001
5.5515171E+001	7.8133704E+002	1.6403165E+003	1.8169000E+003	-6.4529991E+001	1.374290659942199E+001	4.1319220E-003	-5.5888679E-005	1.7477559E+000	1.4245380E+000	1.000000000000000E+000	12	9.5951948E-003	5.2810801E-006	2.3668808E-004	4.9689610E-004	5.5038801E-004	6.4529991E+001
3.7560089E+001	1.1917836E+003	2.1231670E+003	2.4347866E+003	-6.0693478E+001	1.449976423538465E+001	4.1395673E-003	-3.9927585E-005	1.9957649E+000	1.5175949E+000	1.000000000000000E+000	13	9.6113607E-003	3.9475167E-006	2.0103680E-004	3.5814784E-004	4.1071360E-004	6.0693478E+001
2.5365252E+001	1.8163292E+003	2.6598242E+003	3.2208254E+003	-5.5671783E+001	1.495886439050082E+001	4.1341968E-003	-3.5770623E-005	2.3590004E+000	1.6087906E+000	1.000000000000000E+000	13	9.6057681E-003	2.9823932E-006	1.7508952E-004	2.5640032E-004	3.1047940E-004	5.5671783E+001
1.7132671E+001	2.6829736E+003	3.1493762E+003	4.1372598E+003	-4.9572113E+001	1.537285529018845E+001	4.1285655E-003	-3.8589260E-005	2.9496500E+000	1.7092044E+000	1.000000000000000E+000	13	9.6030645E-003	2.3211171E-006	1.5674396E-004	1.8399202E-004	2.4170587E-004	4.9572113E+001
1.1591243E+001	3.7774517E+003	3.4460928E+003	5.1131885E+003	-4.2373566E+001	1.578229288294096E+001	4.1172658E-003	-4.1269759E-005	3.9844022E+000	1.8098122E+000	1.000000000000000E+000	13	9.5934449E-003	1.8762157E-006	1.4448253E-004	1.3180848E-004	1.9557269E-004	4.2373566E+001
7.8281527E+000	4.9690503E+003	3.4765437E+003	6.0644717E+003	-3.4978153E+001	1.636429824391962E+001	4.1295723E-003	-4.9300965E-005	5.8480778E+000	1.9218638E+000	1.000000000000000E+000	13	9.5942095E-003	1.5820355E-006	1.3510998E-004	9.4528274E-005	1.6489482E-004	3.4978153E+001
5.2930207E+000	6.1138384E+003	3.2049883E+003	6.9029683E+003	-2.7664366E+001	1.720072383034858E+001	4.1376967E-003	-4.0541127E-005	9.3818846E+000	2.0224195E+000	1.000000000000000E+000	13	9.5944880E-003	1.3899075E-006	1.2830460E-004	6.7259658E-005	1.4486522E-004	2.7664366E+001
3.5755143E+000	7.0255708E+003	2.7208010E+003	7.5340166E+003	-2.1169949E+001	1.902429514357937E+001	4.1384003E-003	-3.4126617E-005	1.6360058E+001	2.1336603E+000	1.000000000000000E+000	14	9.5996745E-003	1.2741775E-006	1.2377373E-004	4.7933994E-005	1.3273132E-004	2.1169949E+001
2.4172332E+000	7.6653442E+003	2.1519067E+003	7.9616709E+003	-1.5681126E+001	2.080150824130396E+001	4.1356771E-003	-3.1728512E-005	3.0596951E+001	2.2352009E+000	1.000000000000000E+000	14	9.5981145E-003	1.2055402E-006	1.2092698E-004	3.3948061E-005	1.2560177E-004	1.5681126E+001
1.6327059E+000	8.0674565E+003	1.6051790E+003	8.2255977E+003	-1.1253157E+001	2.341239095202764E+001	4.1354415E-003	-3.1363787E-005	6.0727962E+001	2.3126011E+000	1.000000000000000E+000	14	9.5959660E-003	1.1665981E-006	1.1923444E-004	2.3724035E-005	1.2157171E-004	1.1253157E+001
1.1020596E+000	8.2819951E+003	1.1493820E+003	8.3613711E+003	-7.9010868E+000	2.726138972150511E+001	4.1317535E-003	-3.1557072E-005	1.2564658E+002	2.3742390E+000	1.000000000000000E+000	14	9.5968153E-003	1.1477562E-006	1.1846225E-004	1.6440286E-005	1.1959761E-004	7.9010868E+000
7.4560940E-001	8.3703115E+003	7.9687488E+002	8.4081582E+003	-5.4383125E+000	3.293312231087475E+001	4.1358024E-003	-2.8937236E-005	2.6786664E+002	2.4060085E+000	1.000000000000000E+000	14	9.5959771E-003	1.1412699E-006	1.1839678E-004	1.1271673E-005	1.1893211E-004	5.4383125E+000
5.0390220E-001	8.3680576E+003	5.4194568E+002	8.3855889E+003	-3.7055070E+000	4.130893753541750E+001	4.1377814E-003	-2.6606540E-005	5.8279803E+002	2.4342349E+000	1.000000000000000E+000	14	9.5945317E-003	1.1441691E-006	1.1900290E-004	7.7070581E-006	1.1925221E-004	3.7055070E+000
3.4010270E-001	8.3193535E+003	3.5298544E+002	8.3268389E+003	-2.4295700E+000	5.370234836402233E+001	4.1387607E-003	-2.3877996E-005	1.3257244E+003	2.3823552E+000	1.000000000000000E+000	14	9.5967120E-003	1.1525036E-006	1.1998564E-004	5.0909221E-006	1.2009359E-004	2.4295700E+000
2.3021273E-001	8.2363398E+003	2.2405566E+002	8.2393867E+003	-1.5582502E+000	7.199557560626999E+001	4.1367081E-003	-2.2177106E-005	3.0855662E+003	2.2816916E+000	1.000000000000000E+000	14	9.5978472E-003	1.1648740E-006	1.2132337E-004	3.3003967E-006	1.2136826E-004	1.5582502E+000
1.5547264E-001	8.1546938E+003	1.1883298E+002	8.1555596E+003	-8.3487451E-001	9.906679001210432E+001	4.1376767E-003	-1.5212935E-005	8.6144824E+003	1.8289238E+000	1.000000000000000E+000	14	9.5965154E-003	1.1766839E-006	1.2260272E-004	1.7866088E-006	1.2261575E-004	8.3487451E-001
1.0504906E-001	8.0796660E+003	4.0476891E+001	8.0797676E+003	-2.8703359E-001	1.391160839943332E+002	4.1368515E-003	1.0603410E-005	3.7430086E+004	9.3937147E-001	1.000000000000000E+000	14	9.5961373E-003	1.1876749E-006	1.2376437E-004	6.2002528E-007	1.2376593E-004	2.8703359E-001
7.1022727E-002	8.0102900E+003	-7.3577904E+001	8.0106279E+003	5.2627122E-001	1.983367295538410E+002	4.1370532E-003	1.1929678E-005	-3.0456178E+004	-2.5694318E+000	1.000000000000000E+000	14	9.5969178E-003	1.1980231E-006	1.2482889E-004	-1.1466063E-006	1.2483416E-004	-5.2627122E-001
4.7988325E-002	8.1213286E+003	-2.1278922E+002	8.1241157E+003	1.5008794E+000	2.859673311293882E+002	4.1352483E-003	8.0721720E-006	-1.5586009E+004	-1.0692566E+001	1.000000000000000E+000	14	9.5959119E-003	1.1811638E-006	1.2304808E-004	-3.2240175E-006	1.2309031E-004	-1.5008794E+000
3.2443926E-002	8.4447412E+003	-4.9465344E+002	8.4592158E+003	3.3522885E+000	4.155671686983842E+002	4.1390560E-003	1.1173679E-004	-9.9171230E+003	-3.3909981E+001	1.000000000000000E+000	14	9.5952740E-003	1.1342983E-006	1.1801199E-004	-6.9125904E-006	1.1821427E-004	-3.3522885E+000
2.1920588E-002	9.0504814E+003	-7.2581555E+002	9.0795391E+003	4.5850992E+000	6.073675879417278E+002	4.1375910E-003	3.0730673E-004	-1.0003263E+004	-6.3924389E+001	1.000000000000000E+000	14	9.5952637E-003	1.0568008E-006	1.0978527E-004	-8.8043780E-006	1.1013775E-004	-4.5850992E+000
1.4807615E-002	9.6051680E+003	-9.6836084E+002	9.6538584E+003	5.7569165E+000	8.912851057204243E+002	4.1385265E-003	3.8090133E-004	-1.1099356E+004	-1.1167870E+002	1.000000000000000E+000	14	9.5963199E-003	9.9403985E-007	1.0306308E-004	-1.0390474E-005	1.0358552E-004	-5.7569165E+000
1.0000636E-002	1.1122921E+004	-1.0773290E+003	1.1174973E+004	5.5322208E+000	1.311656588940328E+003	4.1313064E-003	2.2702511E-004	-1.4772165E+004	-1.3729285E+002	1.000000000000000E+000	14	9.5955590E-003	8.5866509E-007	8.9068868E-005	-8.6269119E-006	8.9485678E-005	-5.5322208E+000