EC-Lab ASCII FILE
Nb header lines : 62                          

Potentio Electrochemical Impedance Spectroscopy

Run on channel : 1 (SN 35512)
User : 
CE vs. WE compliance from -10 V to 10 V
Electrode connection : standard
Ewe ctrl range : min = -5.00 V, max = 5.00 V
Safety Limits :
	Do not start on E overload
Acquisition started on : 07/09/2023 15:55:43
Technique started on : 07/09/2023 15:55:44
Saved on :
	File : 0708_01_EIS_0.5MTFSI_Blocking_InsideGB_day_2_60C_C01.mpr
	Directory : C:\Users\CESL\Documents\EC-Lab\Data\PhD\Leifer\Results\Zn Ion GPE\2023\0708\
	Host : 10.110.196.171
Device : VSP (SN 1724172417241724)
Address : USB
EC-Lab for windows v11.16 (software)
Internet server v11.16 (firmware)
Command interpretor v11.16 (firmware)
Electrode material : Au/Pd
Initial state : 
Electrolyte : NaCl (0.2M)
Comments : Fe(CN)63-/Fe(CN)64- 5.10-3 M
Reference electrode : SCE Saturated Calomel Electrode (0.241 V)
Electrode surface area : 0.001 cm²
Characteristic mass : 0.001 g
Equivalent Weight : 0.000 g/eq.
Density : 0.000 g/cm3
Cycle Definition : Charge/Discharge alternance
Mode                Single sine         
E (V)               0.0000              
vs.                 Eoc                 
tE (h:m:s)          0:00:0.0000         
record              0                   
dI                  0.000               
unit dI             mA                  
dt (s)              0.000               
fi                  1.000               
unit fi             MHz                 
ff                  10.000              
unit ff             mHz                 
Nd                  6                   
Points              per decade          
spacing             Logarithmic         
Va (mV)             10.0                
pw                  0.10                
Na                  2                   
corr                1                   
E range min (V)     -5.000              
E range max (V)     5.000               
I Range             Auto                
Bandwidth           5                   
nc cycles           0                   
goto Ns'            0                   
nr cycles           0                   
inc. cycle          0                   

freq/Hz	Re(Z)/Ohm	-Im(Z)/Ohm	|Z|/Ohm	Phase(Z)/deg	time/s	<Ewe>/V	<I>/mA	Cs/µF	Cp/µF	cycle number	I Range	|Ewe|/V	|I|/A	Re(Y)/Ohm-1	Im(Y)/Ohm-1	|Y|/Ohm-1	Phase(Y)/deg	
1.0000193E+006	2.6330004E+000	4.3826995E+000	5.1128020E+000	-5.9003757E+001	1.975098707102006E+000	5.8482219E-002	5.2430872E-002	3.6313664E-002	2.6683051E-002	1.000000000000000E+000	9	1.6848602E-004	3.2953754E-005	1.0072400E-001	1.6765779E-001	1.9558747E-001	5.9003757E+001
6.7575181E+005	1.3178636E+001	-9.7345514E+000	1.6384075E+001	3.6451855E+001	2.678089913824806E+000	5.7989836E-002	2.5131684E-004	-2.4194516E-002	-8.5409265E-003	1.000000000000000E+000	10	8.3316898E-004	5.0852363E-005	4.9093794E-002	-3.6263697E-002	6.1034877E-002	-3.6451855E+001
4.5664050E+005	7.5354848E+000	-3.5528376E+000	8.3310375E+000	2.5242987E+001	3.087097559968242E+000	5.8096983E-002	2.3827402E-004	-9.8100297E-002	-1.7841151E-002	1.000000000000000E+000	10	2.8371233E-003	3.4054861E-004	1.0857079E-001	-5.1189065E-002	1.2003307E-001	-2.5242987E+001
3.0857416E+005	6.3724852E+000	-1.8033150E+000	6.6227269E+000	1.5800695E+001	3.496085099381162E+000	5.7907432E-002	2.0209756E-003	-2.8601509E-001	-2.1205986E-002	1.000000000000000E+000	10	7.3382515E-003	1.1080408E-003	1.4528981E-001	-4.1114777E-002	1.5099521E-001	-1.5800695E+001
2.0852534E+005	5.9463215E+000	-9.1325837E-001	6.0160437E+000	8.7314749E+000	3.904094238736434E+000	5.7855763E-002	3.2293426E-003	-8.3573318E-001	-1.9258967E-002	1.000000000000000E+000	10	1.0679704E-002	1.7752039E-003	1.6429579E-001	-2.5233164E-002	1.6622220E-001	-8.7314749E+000
1.4090817E+005	5.7774568E+000	-3.0354726E-001	5.7854257E+000	3.0075517E+000	4.445081037789350E+000	5.7894006E-002	4.4843075E-003	-3.7209826E+000	-1.0243295E-002	1.000000000000000E+000	10	1.0159739E-002	1.7560920E-003	1.7261006E-001	-9.0689231E-003	1.7284814E-001	-3.0075517E+000
9.5214820E+004	5.7188830E+000	2.2125043E-001	5.7231612E+000	-2.2155371E+000	4.986088023491902E+000	5.7887033E-002	5.6740032E-003	7.5549479E+000	1.1290878E-002	1.000000000000000E+000	10	1.0107601E-002	1.7660870E-003	1.7459799E-001	6.7547946E-003	1.7472860E-001	2.2155371E+000
6.4345688E+004	5.7037749E+000	7.5840676E-001	5.7539749E+000	-7.5739498E+000	5.395087402925128E+000	5.7890184E-002	6.2110513E-003	3.2613583E+000	5.6658745E-002	1.000000000000000E+000	10	1.0750538E-002	1.8683672E-003	1.7227666E-001	2.2906896E-002	1.7379290E-001	7.5739498E+000
4.3476547E+004	5.7288227E+000	1.3903750E+000	5.8951297E+000	-1.3641819E+001	5.804077582346508E+000	5.7909355E-002	6.4329496E-003	2.6328926E+000	1.4645708E-001	1.000000000000000E+000	10	1.0733722E-002	1.8207779E-003	1.6484609E-001	4.0007852E-002	1.6963156E-001	1.3641819E+001
2.9384758E+004	5.7868876E+000	2.2044356E+000	6.1925445E+000	-2.0853653E+001	6.213092455087462E+000	5.7895444E-002	5.5285501E-003	2.4569743E+000	3.1135595E-001	1.000000000000000E+000	10	1.0534176E-002	1.7011062E-003	1.5090610E-001	5.7485610E-002	1.6148451E-001	2.0853653E+001
1.9853508E+004	5.8836336E+000	3.3196812E+000	6.7555480E+000	-2.9432690E+001	6.622078207874438E+000	5.7905085E-002	5.7560350E-003	2.4148297E+000	5.8312023E-001	1.000000000000000E+000	10	1.0435300E-002	1.5447007E-003	1.2892124E-001	7.2740324E-002	1.4802648E-001	2.9432690E+001
1.3417967E+004	6.0256457E+000	4.8861899E+000	7.7577868E+000	-3.9038563E+001	7.031093907280592E+000	5.7892684E-002	4.1635507E-003	2.4275215E+000	9.6300399E-001	1.000000000000000E+000	10	1.0277622E-002	1.3248137E-003	1.0012163E-001	8.1188530E-002	1.2890275E-001	3.9038563E+001
9.0820293E+003	6.2492843E+000	7.1160364E+000	9.4705610E+000	-4.8710484E+001	7.328326988063054E+000	5.7907041E-002	7.7643460E-003	2.4626296E+000	1.3903495E+000	1.000000000000000E+000	10	1.0189413E-002	1.0759039E-003	6.9675304E-002	7.9339005E-002	1.0559037E-001	4.8710484E+001
6.1409590E+003	6.5674238E+000	1.0290915E+001	1.2207948E+001	-5.7454922E+001	7.731631780592579E+000	5.7912059E-002	8.9428471E-003	2.5184302E+000	1.7895859E+000	1.000000000000000E+000	10	9.7198524E-003	7.9619052E-004	4.4066619E-002	6.9050796E-002	8.1913851E-002	5.7454922E+001
4.1413242E+003	7.1044574E+000	1.4900205E+001	1.6507254E+001	-6.4508072E+001	8.197696576062299E+000	5.7951164E-002	1.4244275E-002	2.5792217E+000	2.1014714E+000	1.000000000000000E+000	10	9.3591046E-003	5.6696922E-004	2.6072413E-002	5.4681774E-002	6.0579430E-002	6.4508072E+001
2.7973140E+003	7.8273058E+000	2.1438089E+001	2.2822323E+001	-6.9942253E+001	8.663937984849326E+000	5.7946574E-002	1.3977614E-002	2.6539505E+000	2.3417757E+000	1.000000000000000E+000	10	9.1460412E-003	4.0074979E-004	1.5027702E-002	4.1159149E-002	4.3816749E-002	6.9942253E+001
1.8906046E+003	8.8900347E+000	3.0905151E+001	3.2158375E+001	-7.3951828E+001	9.128690700279549E+000	5.7955526E-002	1.3861997E-002	2.7238836E+000	2.5157187E+000	1.000000000000000E+000	10	9.0469774E-003	2.8132569E-004	8.5963747E-003	2.9884271E-002	3.1096099E-002	7.3951828E+001
1.2871166E+003	1.0546120E+001	4.4253880E+001	4.5493149E+001	-7.6595886E+001	1.006919434489100E+001	5.7923693E-002	7.8783324E-004	2.7941575E+000	2.6440010E+000	1.000000000000000E+000	11	1.0325316E-002	2.2696420E-004	5.0956630E-003	2.1382544E-002	2.1981332E-002	7.6595886E+001
8.6306641E+002	1.3056317E+001	6.4141678E+001	6.5457024E+001	-7.8494385E+001	1.053618455378455E+001	5.7927575E-002	7.3581538E-004	2.8749852E+000	2.7606015E+000	1.000000000000000E+000	11	1.0054712E-002	1.5360785E-004	3.0472509E-003	1.4970207E-002	1.5277199E-002	7.8494385E+001
5.8369244E+002	1.6472948E+001	9.2292419E+001	9.3750992E+001	-7.9880043E+001	1.100317390929558E+001	5.7925094E-002	7.0151075E-004	2.9544051E+000	2.8631911E+000	1.000000000000000E+000	11	9.9333497E-003	1.0595460E-004	1.8742163E-003	1.0500604E-002	1.0666554E-002	7.9880043E+001
3.9411707E+002	2.2085238E+001	1.3231493E+002	1.3414543E+002	-8.0523880E+001	1.147019641145016E+001	5.7927482E-002	6.7634106E-004	3.0520108E+000	2.9692855E+000	1.000000000000000E+000	11	9.8647401E-003	7.3537652E-005	1.2272988E-003	7.3528728E-003	7.4545960E-003	8.0523880E+001
2.6644943E+002	3.0400200E+001	1.8976563E+002	1.9218524E+002	-8.0898628E+001	1.193367150017730E+001	5.7925504E-002	6.2880019E-004	3.1476598E+000	3.0689006E+000	1.000000000000000E+000	11	9.8457700E-003	5.1230625E-005	8.2306896E-004	5.1378035E-003	5.2033132E-003	8.0898628E+001
1.8005759E+002	4.4030346E+001	2.7429382E+002	2.7780527E+002	-8.0880531E+001	1.265066470756574E+001	5.7927854E-002	-9.7223783E-005	3.2224982E+000	3.1415486E+000	1.000000000000000E+000	12	9.9382419E-003	3.5774130E-005	5.7052041E-004	3.5541442E-003	3.5996437E-003	8.0880531E+001
1.2159529E+002	6.6266068E+001	3.8960654E+002	3.9520178E+002	-8.0347244E+001	1.311111222274485E+001	5.7930239E-002	-1.5257387E-005	3.3595192E+000	3.2650650E+000	1.000000000000000E+000	12	9.8726628E-003	2.4981322E-005	4.2428082E-004	2.4945284E-003	2.5303529E-003	8.0347244E+001
8.2236801E+001	9.7669472E+001	5.5330426E+002	5.6185846E+002	-7.9989250E+001	1.356632731101126E+001	5.7941280E-002	1.7510522E-005	3.4977593E+000	3.3920646E+000	1.000000000000000E+000	12	9.8523172E-003	1.7535229E-005	3.0938923E-004	1.7527104E-003	1.7798077E-003	7.9989250E+001
5.5515171E+001	1.5360970E+002	7.7692798E+002	7.9196783E+002	-7.8816055E+001	1.402791418629931E+001	5.7933930E-002	9.5579308E-005	3.6900113E+000	3.5511918E+000	1.000000000000000E+000	12	9.8382672E-003	1.2422559E-005	2.4490827E-004	1.2386987E-003	1.2626776E-003	7.8816055E+001
3.7560089E+001	2.2476125E+002	1.0948817E+003	1.1177135E+003	-7.8399284E+001	1.451975314300216E+001	5.7936691E-002	6.5813570E-006	3.8701370E+000	3.7136395E+000	1.000000000000000E+000	12	9.8297633E-003	8.7945282E-006	1.7991208E-004	8.7640772E-004	8.9468365E-004	7.8399284E+001
2.5365252E+001	3.6446463E+002	1.5426389E+003	1.5851086E+003	-7.6707024E+001	1.497885452478658E+001	5.7931956E-002	-4.1573036E-005	4.0673981E+000	3.8523629E+000	1.000000000000000E+000	12	9.8256618E-003	6.1987307E-006	1.4505658E-004	6.1396864E-004	6.3087157E-004	7.6707024E+001
1.7132671E+001	5.2355847E+002	2.1103342E+003	2.1743101E+003	-7.6066658E+001	1.561983404858620E+001	5.7931248E-002	-3.2716503E-005	4.4019365E+000	4.1467071E+000	1.000000000000000E+000	13	9.8324055E-003	4.5220809E-006	1.1074451E-004	4.4638370E-004	4.5991602E-004	7.6066658E+001
1.1591243E+001	7.3208081E+002	2.8976951E+003	2.9887419E+003	-7.5821350E+001	1.602927580135292E+001	5.7927519E-002	-1.4136577E-005	4.7384624E+000	4.4541616E+000	1.000000000000000E+000	13	9.8294104E-003	3.2888120E-006	8.1956263E-005	3.2439624E-004	3.3458893E-004	7.5821350E+001
7.8281527E+000	9.8803778E+002	3.9842988E+003	4.1049795E+003	-7.6072586E+001	1.661127916231635E+001	5.7934586E-002	-4.8634088E-006	5.1028047E+000	4.8071842E+000	1.000000000000000E+000	13	9.8257866E-003	2.3936263E-006	5.8634265E-005	2.3644489E-004	2.4360657E-004	7.6072586E+001
5.2930207E+000	1.2891519E+003	5.5349131E+003	5.6830605E+003	-7.6888832E+001	1.744770042874006E+001	5.7932202E-002	-7.1326476E-006	5.4325747E+000	5.1530313E+000	1.000000000000000E+000	13	9.8279202E-003	1.7293358E-006	3.9915314E-005	1.7137452E-004	1.7596153E-004	7.6888832E+001
3.5755143E+000	1.6067311E+003	7.8155093E+003	7.9789580E+003	-7.8382858E+001	1.927131736863521E+001	5.7940092E-002	-7.9639995E-006	5.6954017E+000	5.4644513E+000	1.000000000000000E+000	14	9.8333778E-003	1.2324138E-006	2.5237754E-005	1.2276229E-004	1.2532965E-004	7.8382858E+001
2.4172332E+000	1.9817969E+003	1.1065912E+004	1.1241972E+004	-7.9846527E+001	2.104853022636962E+001	5.7941608E-002	-1.1533372E-005	5.9499645E+000	5.7650599E+000	1.000000000000000E+000	14	9.8264636E-003	8.7408722E-007	1.5681009E-005	8.7559289E-005	8.8952365E-005	7.9846527E+001
1.6327059E+000	2.5173621E+003	1.5903947E+004	1.6101945E+004	-8.1005539E+001	2.365941411038511E+001	5.7939950E-002	-1.2438793E-005	6.1292491E+000	5.9794388E+000	1.000000000000000E+000	14	9.8247342E-003	6.1015822E-007	9.7093234E-006	6.1340630E-005	6.2104300E-005	8.1005539E+001
1.1020596E+000	3.3841787E+003	2.2877992E+004	2.3126936E+004	-8.1585663E+001	2.750842183988425E+001	5.7942171E-002	-9.8609316E-006	6.3124385E+000	6.1772728E+000	1.000000000000000E+000	14	9.8229218E-003	4.2473945E-007	6.3272787E-006	4.2774180E-005	4.3239623E-005	8.1585663E+001
7.4560940E-001	4.6528384E+003	3.2920191E+004	3.3247375E+004	-8.1955276E+001	3.318005600263132E+001	5.7935756E-002	-1.3549488E-005	6.4840508E+000	6.3570609E+000	1.000000000000000E+000	14	9.8219486E-003	2.9542028E-007	4.2092356E-006	2.9781573E-005	3.0077563E-005	8.1955276E+001
5.0390220E-001	7.1877793E+003	4.7554977E+004	4.8095113E+004	-8.1404991E+001	4.155574117381184E+001	5.7935551E-002	-9.9846638E-006	6.6416793E+000	6.4933367E+000	1.000000000000000E+000	14	9.8232320E-003	2.0424595E-007	3.1073678E-006	2.0558626E-005	2.0792133E-005	8.1404991E+001
3.4010270E-001	1.0439720E+004	6.7844820E+004	6.8643336E+004	-8.1252144E+001	5.394919168241904E+001	5.7935569E-002	-5.8590927E-006	6.8975258E+000	6.7379842E+000	1.000000000000000E+000	14	9.8225037E-003	1.4309479E-007	2.2156034E-006	1.4398590E-005	1.4568057E-005	8.1252144E+001
2.3021273E-001	1.8194844E+004	9.6996188E+004	9.8687953E+004	-7.9375748E+001	7.224246799128014E+001	5.7936274E-002	-1.0979054E-005	7.1274819E+000	6.8852096E+000	1.000000000000000E+000	14	9.8227402E-003	9.9533324E-008	1.8681853E-006	9.9592435E-006	1.0132949E-005	7.9375748E+001
1.5547264E-001	2.9787482E+004	1.3395616E+005	1.3722808E+005	-7.7463264E+001	9.931373490382975E+001	5.7932377E-002	-2.6685427E-006	7.6419382E+000	7.2818694E+000	1.000000000000000E+000	14	9.8241521E-003	7.1589959E-008	1.5817866E-006	7.1133913E-006	7.2871385E-006	7.7463264E+001
1.0504906E-001	4.4354770E+004	1.9007959E+005	1.9518606E+005	-7.6865158E+001	1.393631519260525E+002	5.7930864E-002	9.9219119E-007	7.9706264E+000	7.5590262E+000	1.000000000000000E+000	14	9.8220948E-003	5.0321702E-008	1.1642406E-006	4.9892801E-006	5.1233164E-006	7.6865158E+001
7.1022727E-002	7.4073406E+004	2.6229716E+005	2.7255581E+005	-7.4230179E+001	1.985839516722481E+002	5.7927620E-002	1.2351003E-006	8.5433702E+000	7.9123497E+000	1.000000000000000E+000	14	9.8235086E-003	3.6042191E-008	9.9712929E-007	3.5308778E-006	3.6689732E-006	7.4230179E+001
4.7988325E-002	1.2197538E+005	3.5478209E+005	3.7516441E+005	-7.1026840E+001	2.862147544744948E+002	5.7931822E-002	4.0107233E-007	9.3480892E+000	8.3599367E+000	1.000000000000000E+000	14	9.8217744E-003	2.6179920E-008	8.6662055E-007	2.5206841E-006	2.6654980E-006	7.1026840E+001
3.2443926E-002	2.0353169E+005	4.7201097E+005	5.1402288E+005	-6.6674240E+001	4.158149273501476E+002	5.7926197E-002	1.0327457E-006	1.0392850E+001	8.7634268E+000	1.000000000000000E+000	14	9.8223658E-003	1.9108811E-008	7.7031279E-007	1.7864351E-006	1.9454387E-006	6.6674240E+001
2.1920588E-002	3.2318891E+005	6.1352131E+005	6.9344031E+005	-6.2220768E+001	6.076158632068837E+002	5.7929303E-002	1.1147262E-006	1.1834183E+001	9.2635918E+000	1.000000000000000E+000	14	9.8221907E-003	1.4164436E-008	6.7210681E-007	1.2758848E-006	1.4420851E-006	6.2220768E+001
1.4807615E-002	5.0443103E+005	7.7426519E+005	9.2408725E+005	-5.6915897E+001	8.915341442922654E+002	5.7932436E-002	1.3773871E-006	1.3881783E+001	9.7453804E+000	1.000000000000000E+000	14	9.8221563E-003	1.0629035E-008	5.9071203E-007	9.0670028E-007	1.0821489E-006	5.6915897E+001
1.0000636E-002	7.4754794E+005	9.6159469E+005	1.2179870E+006	-5.2138348E+001	1.311906641485548E+003	5.7925291E-002	1.3213613E-006	1.6550095E+001	1.0315713E+001	1.000000000000000E+000	14	9.8211179E-003	8.0634015E-009	5.0391094E-007	6.4819665E-007	8.2102684E-007	5.2138348E+001