EC-Lab ASCII FILE
Nb header lines : 62                          

Potentio Electrochemical Impedance Spectroscopy

Run on channel : 1 (SN 35512)
User : 
CE vs. WE compliance from -10 V to 10 V
Electrode connection : standard
Ewe ctrl range : min = -5.00 V, max = 5.00 V
Safety Limits :
	Do not start on E overload
Acquisition started on : 07/10/2023 07:23:04
Technique started on : 07/10/2023 07:23:05
Saved on :
	File : 0708_01_EIS_0.5MTFSI_Blocking_InsideGB_day_2_60C_overnight_C01.mpr
	Directory : C:\Users\CESL\Documents\EC-Lab\Data\PhD\Leifer\Results\Zn Ion GPE\2023\0708\
	Host : 10.110.196.171
Device : VSP (SN 1724172417241724)
Address : USB
EC-Lab for windows v11.16 (software)
Internet server v11.16 (firmware)
Command interpretor v11.16 (firmware)
Electrode material : Au/Pd
Initial state : 
Electrolyte : NaCl (0.2M)
Comments : Fe(CN)63-/Fe(CN)64- 5.10-3 M
Reference electrode : SCE Saturated Calomel Electrode (0.241 V)
Electrode surface area : 0.001 cm²
Characteristic mass : 0.001 g
Equivalent Weight : 0.000 g/eq.
Density : 0.000 g/cm3
Cycle Definition : Charge/Discharge alternance
Mode                Single sine         
E (V)               0.0000              
vs.                 Eoc                 
tE (h:m:s)          0:00:0.0000         
record              0                   
dI                  0.000               
unit dI             mA                  
dt (s)              0.000               
fi                  1.000               
unit fi             MHz                 
ff                  10.000              
unit ff             mHz                 
Nd                  6                   
Points              per decade          
spacing             Logarithmic         
Va (mV)             10.0                
pw                  0.10                
Na                  2                   
corr                1                   
E range min (V)     -5.000              
E range max (V)     5.000               
I Range             Auto                
Bandwidth           5                   
nc cycles           0                   
goto Ns'            0                   
nr cycles           0                   
inc. cycle          0                   

freq/Hz	Re(Z)/Ohm	-Im(Z)/Ohm	|Z|/Ohm	Phase(Z)/deg	time/s	<Ewe>/V	<I>/mA	Cs/µF	Cp/µF	cycle number	I Range	|Ewe|/V	|I|/A	Re(Y)/Ohm-1	Im(Y)/Ohm-1	|Y|/Ohm-1	Phase(Y)/deg	
1.0000193E+006	2.4253883E+000	5.0896091E+000	5.6379633E+000	-6.4520462E+001	1.975092440465232E+000	6.0165087E-003	4.9613182E-002	3.1269960E-002	2.5483068E-002	1.000000000000000E+000	9	1.5115780E-004	2.6810711E-005	7.6302148E-002	1.6011792E-001	1.7736901E-001	6.4520462E+001
6.7575181E+005	1.0914618E+001	-9.6251717E+000	1.4552416E+001	4.1407803E+001	2.678097087162314E+000	5.5845059E-003	-2.2474243E-003	-2.4469461E-002	-1.0704618E-002	1.000000000000000E+000	10	7.5050350E-004	5.1572435E-005	5.1539280E-002	-4.5450464E-002	6.8717115E-002	-4.1407803E+001
4.5664050E+005	6.5438910E+000	-3.5436177E+000	7.4417562E+000	2.8436228E+001	3.087078359967563E+000	5.7041659E-003	-4.7032459E-004	-9.8355539E-002	-2.2301890E-002	1.000000000000000E+000	10	2.5483072E-003	3.4243357E-004	1.1816400E-001	-6.3987628E-002	1.3437688E-001	-2.8436228E+001
3.0857416E+005	5.5675535E+000	-1.8241898E+000	5.8587813E+000	1.8141207E+001	3.496078006050084E+000	5.5019357E-003	-1.8873328E-004	-2.8274214E-001	-2.7410440E-002	1.000000000000000E+000	10	6.5190908E-003	1.1127043E-003	1.6219962E-001	-5.3144153E-002	1.7068397E-001	-1.8141207E+001
2.0852534E+005	5.1905918E+000	-9.4977248E-001	5.2767711E+000	1.0369248E+001	3.905078878800850E+000	5.4743937E-003	3.1789998E-003	-8.0360329E-001	-2.6034208E-002	1.000000000000000E+000	10	1.0440906E-002	1.9786542E-003	1.8641481E-001	-3.4110107E-002	1.8950984E-001	-1.0369248E+001
1.4090817E+005	5.0505261E+000	-3.4894711E-001	5.0625663E+000	3.9523556E+000	4.446084184513893E+000	5.4875026E-003	4.3164846E-003	-3.2368634E+000	-1.5378080E-002	1.000000000000000E+000	10	1.0159049E-002	2.0066996E-003	1.9705850E-001	-1.3615016E-002	1.9752827E-001	-3.9523556E+000
9.5214820E+004	5.0035129E+000	1.5070708E-001	5.0057821E+000	-1.7252418E+000	4.987089090194786E+000	5.4887147E-003	3.5426251E-003	1.1091286E+001	1.0053224E-002	1.000000000000000E+000	10	1.0124820E-002	2.0226249E-003	1.9967842E-001	6.0143643E-003	1.9976898E-001	1.7252418E+000
6.4345688E+004	4.9895725E+000	6.6217911E-001	5.0333204E+000	-7.5596962E+000	5.396092496259371E+000	5.4900949E-003	2.8713220E-003	3.7352977E+000	6.4649776E-002	1.000000000000000E+000	10	1.0743530E-002	2.1344817E-003	1.9694918E-001	2.6137637E-002	1.9867601E-001	7.5596962E+000
4.3476547E+004	5.0104718E+000	1.2412255E+000	5.1619248E+000	-1.3913567E+001	5.805085582396714E+000	5.4792049E-003	4.9523590E-003	2.9492693E+000	1.7052671E-001	1.000000000000000E+000	10	1.0751901E-002	2.0829248E-003	1.8804218E-001	4.6582989E-002	1.9372618E-001	1.3913567E+001
2.9384758E+004	5.0682034E+000	1.9982095E+000	5.4478922E+000	-2.1517527E+001	6.214078428485664E+000	5.4998845E-003	5.0605098E-003	2.7105474E+000	3.6465487E-001	1.000000000000000E+000	10	1.0666317E-002	1.9578796E-003	1.7076428E-001	6.7326188E-002	1.8355723E-001	2.1517527E+001
1.9853508E+004	5.1569605E+000	3.0207512E+000	5.9765525E+000	-3.0360149E+001	6.623087941232370E+000	5.4997355E-003	4.1617039E-003	2.6537983E+000	6.7794800E-001	1.000000000000000E+000	10	1.0459496E-002	1.7500885E-003	1.4437510E-001	8.4569447E-002	1.6732053E-001	3.0360149E+001
1.3417967E+004	5.2876334E+000	4.4557452E+000	6.9146752E+000	-4.0119930E+001	7.032076440664241E+000	5.5042855E-003	4.7770510E-003	2.6620307E+000	1.1053765E+000	1.000000000000000E+000	10	1.0342540E-002	1.4957377E-003	1.1059049E-001	9.3191609E-002	1.4461996E-001	4.0119930E+001
9.0820293E+003	5.4861689E+000	6.4906640E+000	8.4986334E+000	-4.9794170E+001	7.329332881461596E+000	5.5006677E-003	6.4347927E-003	2.6999025E+000	1.5748100E+000	1.000000000000000E+000	10	1.0240296E-002	1.2049344E-003	7.5957552E-002	8.9865081E-002	1.1766598E-001	4.9794170E+001
6.1409590E+003	5.7622795E+000	9.4171238E+000	1.1040203E+001	-5.8537796E+001	7.732636820641346E+000	5.4995674E-003	8.1279632E-003	2.7521091E+000	2.0023873E+000	1.000000000000000E+000	10	9.6944766E-003	8.7810674E-004	4.7275942E-002	7.7261679E-002	9.0578042E-002	5.8537796E+001
4.1413242E+003	6.2173738E+000	1.3631896E+001	1.4982801E+001	-6.5482735E+001	8.198694176106073E+000	5.5485354E-003	1.3968296E-002	2.8191919E+000	2.3337328E+000	1.000000000000000E+000	10	9.2771631E-003	6.1918749E-004	2.7696252E-002	6.0725380E-002	6.6743195E-002	6.5482735E+001
2.7973140E+003	6.8176894E+000	1.9674332E+001	2.0822109E+001	-7.0887413E+001	8.664943878218764E+000	5.5382419E-003	1.3962698E-002	2.8918707E+000	2.5818408E+000	1.000000000000000E+000	10	9.0513462E-003	4.3469883E-004	1.5724894E-002	4.5378543E-002	4.8025873E-002	7.0887413E+001
1.8906046E+003	7.7419591E+000	2.8292170E+001	2.9332317E+001	-7.4696045E+001	9.350708257486986E+000	5.5453093E-003	1.4322586E-002	2.9754534E+000	2.7681708E+000	1.000000000000000E+000	10	9.8286327E-003	3.3507863E-004	8.9982543E-003	3.2883160E-002	3.4092091E-002	7.4696045E+001
1.2871166E+003	8.9963894E+000	4.0700638E+001	4.1683052E+001	-7.7535866E+001	1.006918071824475E+001	5.5255247E-003	5.1731750E-004	3.0380929E+000	2.8965728E+000	1.000000000000000E+000	11	1.0245191E-002	2.4578793E-004	5.1778462E-003	2.3425139E-002	2.3990566E-002	7.7535866E+001
8.6306641E+002	1.0969860E+001	5.9233112E+001	6.0240349E+001	-7.9507805E+001	1.053620663375477E+001	5.5293473E-003	7.2742678E-004	3.1132309E+000	3.0099933E+000	1.000000000000000E+000	11	9.9460492E-003	1.6510610E-004	3.0229171E-003	1.6322609E-002	1.6600169E-002	7.9507805E+001
5.8369244E+002	1.3887476E+001	8.5470604E+001	8.6591492E+001	-8.0771095E+001	1.100319028258673E+001	5.5233990E-003	5.8722694E-004	3.1902101E+000	3.1081531E+000	1.000000000000000E+000	11	9.8145865E-003	1.1334354E-004	1.8521354E-003	1.1398990E-002	1.1548479E-002	8.0771095E+001
3.9411707E+002	1.8491333E+001	1.2337297E+002	1.2475103E+002	-8.1475868E+001	1.147022009143257E+001	5.5218325E-003	5.3297356E-004	3.2732177E+000	3.2013018E+000	1.000000000000000E+000	11	9.7593674E-003	7.8230754E-005	1.1881742E-003	7.9274178E-003	8.0159660E-003	8.1475868E+001
2.6644943E+002	2.5524582E+001	1.7790053E+002	1.7972229E+002	-8.1835114E+001	1.193366448684537E+001	5.5183265E-003	5.1917712E-004	3.3575933E+000	3.2898695E+000	1.000000000000000E+000	11	9.7327465E-003	5.4154367E-005	7.9023215E-004	5.5077388E-003	5.5641402E-003	8.1835114E+001
1.8005759E+002	3.6975777E+001	2.5681223E+002	2.5946045E+002	-8.1806870E+001	1.265168348094448E+001	5.5313054E-003	-1.2973073E-004	3.4418583E+000	3.3719573E+000	1.000000000000000E+000	12	9.8142968E-003	3.7825794E-005	5.4925622E-004	3.8148139E-003	3.8541520E-003	8.1806870E+001
1.2159529E+002	5.6525932E+001	3.6944019E+002	3.7373953E+002	-8.1300964E+001	1.311210582280182E+001	5.5253007E-003	6.3240572E-005	3.5429027E+000	3.4618595E+000	1.000000000000000E+000	12	9.7532868E-003	2.6096483E-005	4.0467805E-004	2.6448804E-003	2.6756602E-003	8.1300964E+001
8.2236801E+001	8.3519821E+001	5.2710004E+002	5.3367596E+002	-8.0996246E+001	1.356729768440709E+001	5.5315476E-003	-8.1446415E-005	3.6716468E+000	3.5817206E+000	1.000000000000000E+000	12	9.7244605E-003	1.8221657E-005	2.9324755E-004	1.8507075E-003	1.8737962E-003	8.0996246E+001
5.5515171E+001	1.3014182E+002	7.5448523E+002	7.6562708E+002	-8.0213303E+001	1.402888111968059E+001	5.5276318E-003	-3.8775372E-005	3.7997735E+000	3.6899853E+000	1.000000000000000E+000	12	9.7157713E-003	1.2689952E-005	2.2201502E-004	1.2871114E-003	1.3061189E-003	8.0213303E+001
3.7560089E+001	2.2000873E+002	1.0576942E+003	1.0803337E+003	-7.8249580E+001	1.451973172966973E+001	5.5389320E-003	7.6257813E-005	4.0062070E+000	3.8400578E+000	1.000000000000000E+000	12	9.7059682E-003	8.9842315E-006	1.8850557E-004	9.0624217E-004	9.2563988E-004	7.8249580E+001
2.5365252E+001	3.2264554E+002	1.4706271E+003	1.5056042E+003	-7.7625748E+001	1.497888367145788E+001	5.5281352E-003	-4.3699143E-005	4.2665653E+000	4.0706320E+000	1.000000000000000E+000	12	9.7063323E-003	6.4468018E-006	1.4233249E-004	6.4875523E-004	6.6418515E-004	7.7625748E+001
1.7132671E+001	5.0009247E+002	2.0460287E+003	2.1062588E+003	-7.6264999E+001	1.562084247529856E+001	5.5268486E-003	2.3286245E-006	4.5402870E+000	4.2843337E+000	1.000000000000000E+000	13	9.7134290E-003	4.6116979E-006	1.1272670E-004	4.6119891E-004	4.7477547E-004	7.6264999E+001
1.1591243E+001	7.3184344E+002	2.7963567E+003	2.8905374E+003	-7.5333878E+001	1.603028337468277E+001	5.5338228E-003	1.6926995E-005	4.9101820E+000	4.5954232E+000	1.000000000000000E+000	13	9.7059216E-003	3.3578260E-006	8.7591325E-005	3.3468436E-004	3.4595645E-004	7.5333878E+001
7.8281527E+000	9.8721924E+002	3.8398538E+003	3.9647292E+003	-7.5581627E+001	1.661229100232595E+001	5.5274921E-003	2.1038413E-006	5.2947588E+000	4.9664774E+000	1.000000000000000E+000	13	9.6968291E-003	2.4457734E-006	6.2803905E-005	2.4427983E-004	2.5222404E-004	7.5581627E+001
5.2930207E+000	1.2933623E+003	5.3146025E+003	5.4697153E+003	-7.6322372E+001	1.744873490878672E+001	5.5315732E-003	4.4738440E-006	5.6577759E+000	5.3414340E+000	1.000000000000000E+000	13	9.6993279E-003	1.7732784E-006	4.3230542E-005	1.7764024E-004	1.8282486E-004	7.6322372E+001
3.5755143E+000	1.6446882E+003	7.3966895E+003	7.5773354E+003	-7.7463959E+001	1.927228400870808E+001	5.5268714E-003	1.0677396E-006	6.0178895E+000	5.7343736E+000	1.000000000000000E+000	14	9.7088879E-003	1.2813064E-006	2.8645121E-005	1.2882624E-004	1.3197251E-004	7.7463959E+001
2.4172332E+000	2.0407163E+003	1.0431059E+004	1.0628806E+004	-7.8930557E+001	2.104949731976376E+001	5.5296412E-003	2.8899126E-007	6.3120899E+000	6.0794044E+000	1.000000000000000E+000	14	9.7059421E-003	9.1317332E-007	1.8063985E-005	9.2333532E-005	9.4083945E-005	7.8930557E+001
1.6327059E+000	2.5547224E+003	1.4834226E+004	1.5052603E+004	-8.0228477E+001	2.366025589712081E+001	5.5338349E-003	4.1770917E-007	6.5712395E+000	6.3819571E+000	1.000000000000000E+000	14	9.7064534E-003	6.4483555E-007	1.1275107E-005	6.5469896E-005	6.6433691E-005	8.0228477E+001
1.1020596E+000	3.1995242E+003	2.1361383E+004	2.1599668E+004	-8.1481522E+001	2.750948679991416E+001	5.5316272E-003	1.2716720E-006	6.7606072E+000	6.6122651E+000	1.000000000000000E+000	14	9.7010517E-003	4.4912966E-007	6.8579006E-006	4.5786266E-005	4.6297009E-005	8.1481522E+001
7.4560940E-001	4.2230957E+003	3.0708143E+004	3.0997170E+004	-8.2169594E+001	3.318122949599638E+001	5.5346703E-003	1.0028431E-006	6.9511266E+000	6.8221021E+000	1.000000000000000E+000	14	9.7012892E-003	3.1297338E-007	4.3952832E-006	3.1960197E-005	3.2261010E-005	8.2169594E+001
5.0390220E-001	5.7784424E+003	4.4539000E+004	4.4912281E+004	-8.2607796E+001	4.155695146718062E+001	5.5277972E-003	-8.0356820E-008	7.0914235E+000	6.9740348E+000	1.000000000000000E+000	14	9.7007342E-003	2.1599291E-007	2.8647103E-006	2.2080569E-005	2.2265625E-005	8.2607796E+001
3.4010270E-001	8.2430762E+003	6.4058535E+004	6.4586719E+004	-8.2667450E+001	5.395030565580237E+001	5.5289185E-003	7.0045877E-007	7.3052154E+000	7.1862216E+000	1.000000000000000E+000	14	9.7008925E-003	1.5019950E-007	1.9760732E-006	1.5356440E-005	1.5483060E-005	8.2667450E+001
2.3021273E-001	1.1884329E+004	9.2667906E+004	9.3426859E+004	-8.2691910E+001	7.224358196466346E+001	5.5281548E-003	8.3634814E-007	7.4603882E+000	7.3396716E+000	1.000000000000000E+000	14	9.7008962E-003	1.0383413E-007	1.3615428E-006	1.0616610E-005	1.0703560E-005	8.2691910E+001
1.5547264E-001	1.8415977E+004	1.3319063E+005	1.3445777E+005	-8.2127754E+001	9.931486431721714E+001	5.5267625E-003	7.2424376E-007	7.6858611E+000	7.5416789E+000	1.000000000000000E+000	14	9.6986499E-003	7.2131570E-008	1.0186450E-006	7.3671904E-006	7.4372797E-006	8.2127754E+001
1.0504906E-001	2.8235459E+004	1.9261345E+005	1.9467198E+005	-8.1660332E+001	1.393642716860923E+002	5.5235564E-003	5.5531922E-007	7.8657722E+000	7.7003007E+000	1.000000000000000E+000	14	9.6994853E-003	4.9824763E-008	7.4505459E-007	5.0825270E-006	5.1368461E-006	8.1660332E+001
7.1022727E-002	4.6324371E+004	2.7576022E+005	2.7962413E+005	-8.0464043E+001	1.985849360189459E+002	5.5242251E-003	5.9605640E-007	8.1262684E+000	7.9032393E+000	1.000000000000000E+000	14	9.6996538E-003	3.4688188E-008	5.9246156E-007	3.5268124E-006	3.5762293E-006	8.0464043E+001
4.7988325E-002	7.9013555E+004	3.9516853E+005	4.0299047E+005	-7.8692879E+001	2.862157473811967E+002	5.5284542E-003	6.3677754E-007	8.3927097E+000	8.0700703E+000	1.000000000000000E+000	14	9.6997116E-003	2.4069333E-008	4.8653266E-007	2.4332842E-006	2.4814483E-006	7.8692879E+001
3.2443926E-002	1.3618442E+005	5.6008019E+005	5.7639919E+005	-7.6333649E+001	4.158158624168718E+002	5.5242376E-003	6.1352648E-007	8.7586365E+000	8.2697086E+000	1.000000000000000E+000	14	9.7005656E-003	1.6829595E-008	4.0990261E-007	1.6857902E-006	1.7349088E-006	7.6333649E+001
2.1920588E-002	2.4067541E+005	7.7679544E+005	8.1322556E+005	-7.2785393E+001	6.076167698735953E+002	5.5214069E-003	6.9786330E-007	9.3467636E+000	8.5281048E+000	1.000000000000000E+000	14	9.6996371E-003	1.1927364E-008	3.6392314E-007	1.1745855E-006	1.2296712E-006	7.2785393E+001
1.4807615E-002	4.2192169E+005	1.0593776E+006	1.1403065E+006	-6.8283936E+001	8.915350499722990E+002	5.5200076E-003	7.6478767E-007	1.0145751E+001	8.7567434E+000	1.000000000000000E+000	14	9.7001661E-003	8.5066310E-009	3.2448051E-007	8.1471853E-007	8.7695719E-007	6.8283936E+001
1.0000636E-002	7.2448963E+005	1.3716090E+006	1.5511920E+006	-6.2156799E+001	1.311907563058921E+003	5.5174432E-003	7.0553000E-007	1.1602783E+001	9.0717640E+000	1.000000000000000E+000	14	9.7004157E-003	6.2535235E-009	3.0109328E-007	5.7003200E-007	6.4466553E-007	6.2156799E+001