EC-Lab ASCII FILE
Nb header lines : 62                          

Potentio Electrochemical Impedance Spectroscopy

Run on channel : 5 (SN 35518)
User : 
CE vs. WE compliance from -10 V to 10 V
Electrode connection : standard
Ewe ctrl range : min = -5.00 V, max = 5.00 V
Safety Limits :
	Do not start on E overload
Acquisition started on : 07/09/2023 16:27:14
Technique started on : 07/09/2023 16:27:15
Saved on :
	File : 0708_01_EIS_0.5MTFSI_SymCell_OutsideGB_unsanded_60C_C04_t2_C05.mpr
	Directory : C:\Users\CESL\Documents\EC-Lab\Data\PhD\Leifer\Results\Zn Ion GPE\2023\0708\
	Host : 10.110.196.171
Device : VSP (SN 1724172417241724)
Address : USB
EC-Lab for windows v11.16 (software)
Internet server v11.16 (firmware)
Command interpretor v11.16 (firmware)
Electrode material : Au/Pd
Initial state : 
Electrolyte : NaCl (0.2M)
Comments : Fe(CN)63-/Fe(CN)64- 5.10-3 M
Reference electrode : SCE Saturated Calomel Electrode (0.241 V)
Electrode surface area : 0.001 cm²
Characteristic mass : 0.001 g
Equivalent Weight : 0.000 g/eq.
Density : 0.000 g/cm3
Cycle Definition : Charge/Discharge alternance
Mode                Single sine         
E (V)               0.0000              
vs.                 Eoc                 
tE (h:m:s)          0:00:0.0000         
record              0                   
dI                  0.000               
unit dI             mA                  
dt (s)              0.000               
fi                  1.000               
unit fi             MHz                 
ff                  10.000              
unit ff             mHz                 
Nd                  6                   
Points              per decade          
spacing             Logarithmic         
Va (mV)             10.0                
pw                  0.10                
Na                  2                   
corr                1                   
E range min (V)     -5.000              
E range max (V)     5.000               
I Range             Auto                
Bandwidth           5                   
nc cycles           0                   
goto Ns'            0                   
nr cycles           0                   
inc. cycle          0                   

freq/Hz	Re(Z)/Ohm	-Im(Z)/Ohm	|Z|/Ohm	Phase(Z)/deg	time/s	<Ewe>/V	<I>/mA	Cs/µF	Cp/µF	cycle number	I Range	|Ewe|/V	|I|/A	Re(Y)/Ohm-1	Im(Y)/Ohm-1	|Y|/Ohm-1	Phase(Y)/deg	
1.0000193E+006	-9.6670043E-001	4.1533251E+000	4.2643428E+000	-1.0310250E+002	1.974096467107302E+000	8.6483490E-003	9.0564385E-002	3.8319144E-002	3.6349919E-002	1.000000000000000E+000	9	1.4803596E-004	3.4714838E-005	-5.3160317E-002	2.2839770E-001	2.3450272E-001	1.0310250E+002
6.7575181E+005	3.4435135E+002	1.2359962E+001	3.4457309E+002	-2.0556614E+000	2.971095554443309E+000	8.2371617E-003	-7.3332654E-004	1.9055298E-002	2.4518129E-005	1.000000000000000E+000	11	6.9247669E-004	2.0096656E-006	2.9002742E-003	1.0410089E-004	2.9021420E-003	2.0556614E+000
4.5664050E+005	2.1061911E+001	4.4883528E+000	2.1534842E+001	-1.2029943E+001	4.262083562440239E+000	8.4380014E-003	1.2410541E-002	7.7653088E-002	3.3732560E-003	1.000000000000000E+000	10	5.2627628E-003	2.4438364E-004	4.5416579E-002	9.6784011E-003	4.6436377E-002	1.2029943E+001
3.0857416E+005	1.6005058E+001	5.1733346E+000	1.6820383E+001	-1.7912453E+001	4.671081635198789E+000	8.2835034E-003	1.1281855E-002	9.9698812E-002	9.4310353E-003	1.000000000000000E+000	10	1.0630840E-002	6.3202129E-004	5.6569912E-002	1.8285161E-002	5.9451677E-002	1.7912453E+001
2.0852534E+005	1.5460203E+001	6.2582202E+000	1.6678825E+001	-2.2037878E+001	5.212096727540484E+000	8.3164051E-003	1.0557986E-002	1.2195805E-001	1.7170431E-002	1.000000000000000E+000	10	1.0196242E-002	6.1132852E-004	5.5575617E-002	2.2496756E-002	5.9956260E-002	2.2037878E+001
1.4090817E+005	1.6283442E+001	7.6248808E+000	1.7980247E+001	-2.5091801E+001	5.753091286547715E+000	8.3402097E-003	9.4087673E-003	1.4813270E-001	2.6639476E-002	1.000000000000000E+000	10	1.0184014E-002	5.6640012E-004	5.0368022E-002	2.3585316E-002	5.5616587E-002	2.5091801E+001
9.5214820E+004	1.7853605E+001	9.1142664E+000	2.0045475E+001	-2.7044313E+001	6.162086506024934E+000	8.3631761E-003	1.0720298E-002	1.8339768E-001	3.7914436E-002	1.000000000000000E+000	10	1.0848708E-002	5.4120488E-004	4.4431727E-002	2.2682400E-002	4.9886569E-002	2.7044313E+001
6.4345688E+004	1.9913216E+001	1.0764878E+001	2.2636669E+001	-2.8395195E+001	6.571088125434471E+000	8.3577698E-003	1.0569178E-002	2.2976908E-001	5.1961869E-002	1.000000000000000E+000	10	1.0483334E-002	4.6311293E-004	3.8861215E-002	2.1007968E-002	4.4176109E-002	2.8395195E+001
4.3476547E+004	2.2300419E+001	1.2526953E+001	2.5577984E+001	-2.9324499E+001	6.980084038194036E+000	8.3653014E-003	1.0524400E-002	2.9222655E-001	7.0093527E-002	1.000000000000000E+000	10	1.0304660E-002	4.0287225E-004	3.4086343E-002	1.9147534E-002	3.9096124E-002	2.9324499E+001
2.9384758E+004	2.4846401E+001	1.4603017E+001	2.8819988E+001	-3.0444103E+001	7.389086724288063E+000	8.3636604E-003	1.0291195E-002	3.7089881E-001	9.5225446E-002	1.000000000000000E+000	10	1.0126458E-002	3.5136924E-004	2.9914096E-002	1.7581461E-002	3.4698140E-002	3.0444103E+001
1.9853508E+004	2.7550140E+001	1.7272104E+001	3.2516701E+001	-3.2084972E+001	7.666091457445873E+000	8.3460072E-003	9.7762868E-003	4.6412787E-001	1.3095292E-001	1.000000000000000E+000	10	1.0572704E-002	3.2514689E-004	2.6056189E-002	1.6335495E-002	3.0753428E-002	3.2084972E+001
1.3417967E+004	3.0380835E+001	2.0792322E+001	3.6814613E+001	-3.4387325E+001	7.943079977267189E+000	8.3586648E-003	1.0591560E-002	5.7046688E-001	1.8196838E-001	1.000000000000000E+000	10	1.0725184E-002	2.9132955E-004	2.2416057E-002	1.5341313E-002	2.7163127E-002	3.4387325E+001
9.0820293E+003	3.3160965E+001	2.5956486E+001	4.2111622E+001	-3.8051785E+001	8.240341964730760E+000	8.3695883E-003	8.8434806E-003	6.7513609E-001	2.5649518E-001	1.000000000000000E+000	10	1.0733591E-002	2.5488430E-004	1.8699208E-002	1.4636659E-002	2.3746414E-002	3.8051785E+001
6.1409590E+003	3.6387070E+001	3.3538101E+001	4.9485584E+001	-4.2666882E+001	9.054655390100379E+000	8.3394647E-003	4.4832079E-004	7.7276140E-001	3.5494819E-001	1.000000000000000E+000	11	1.0235697E-002	2.0684200E-004	1.4859004E-002	1.3695600E-002	2.0207906E-002	4.2666882E+001
4.1413242E+003	3.9911251E+001	4.4532658E+001	5.9800213E+001	-4.8132530E+001	9.520693625563581E+000	8.3661582E-003	1.0767146E-003	8.6298305E-001	4.7857946E-001	1.000000000000000E+000	11	9.8850494E-003	1.6530124E-004	1.1160660E-002	1.2452975E-002	1.6722348E-002	4.8132530E+001
2.7973140E+003	4.4200291E+001	6.0141144E+001	7.4636604E+001	-5.3686245E+001	9.986944741016487E+000	8.3646672E-003	1.0901389E-003	9.4603503E-001	6.1425239E-001	1.000000000000000E+000	11	9.5806690E-003	1.2836422E-004	7.9345331E-003	1.0796125E-002	1.3398251E-002	5.3686245E+001
1.8906046E+003	4.9465401E+001	8.2347244E+001	9.6061928E+001	-5.9007065E+001	1.045067308306898E+001	8.3636045E-003	1.0782047E-003	1.0222811E+000	7.5121784E-001	1.000000000000000E+000	11	9.3716970E-003	9.7558906E-005	5.3604208E-003	8.9237308E-003	1.0409951E-002	5.9007065E+001
1.2871166E+003	5.6093784E+001	1.1314571E+002	1.2628722E+002	-6.3629353E+001	1.091719521183404E+001	8.3676688E-003	9.4208255E-004	1.0928591E+000	8.7724620E-001	1.000000000000000E+000	11	9.2452755E-003	7.3208321E-005	3.5171907E-003	7.0944582E-003	7.9184575E-003	6.3629353E+001
8.6306641E+002	6.5242325E+001	1.5894608E+002	1.7181506E+002	-6.7683403E+001	1.138421862068935E+001	8.3656739E-003	1.1645377E-003	1.1601820E+000	9.9289483E-001	1.000000000000000E+000	11	9.1718622E-003	5.3382177E-005	2.2100748E-003	5.3842762E-003	5.8202115E-003	6.7683403E+001
5.8369244E+002	7.7162125E+001	2.2334943E+002	2.3630269E+002	-7.0941139E+001	1.185120888290112E+001	8.3619831E-003	9.5569360E-004	1.2208188E+000	1.0906454E+000	1.000000000000000E+000	11	9.1379350E-003	3.8670467E-005	1.3818688E-003	3.9998852E-003	4.2318604E-003	7.0941139E+001
3.9411707E+002	9.3583580E+001	3.1572638E+002	3.2930386E+002	-7.3489799E+001	1.257018451704062E+001	8.3593540E-003	3.4480581E-005	1.2790397E+000	1.1757423E+000	1.000000000000000E+000	12	9.2844153E-003	2.8194067E-005	8.6299033E-004	2.9115030E-003	3.0367090E-003	7.3489799E+001
2.6644943E+002	1.1424093E+002	4.5105286E+002	4.6529526E+002	-7.5787224E+001	1.303367461908783E+001	8.3584040E-003	-7.6351207E-005	1.3242742E+000	1.2444445E+000	1.000000000000000E+000	12	9.1913939E-003	1.9753896E-005	5.2767259E-004	2.0833882E-003	2.1491731E-003	7.5787224E+001
1.8005759E+002	1.5474490E+002	6.3575122E+002	6.5431305E+002	-7.6319954E+001	1.349869522784138E+001	8.3606970E-003	-1.8166205E-005	1.3903415E+000	1.3125769E+000	1.000000000000000E+000	12	9.1375820E-003	1.3965153E-005	3.6144746E-004	1.4849644E-003	1.5283205E-003	7.6319954E+001
1.2159529E+002	2.1345607E+002	9.1255804E+002	9.3719031E+002	-7.6834671E+001	1.395912234301795E+001	8.3628213E-003	-2.7714623E-005	1.4343095E+000	1.3599042E+000	1.000000000000000E+000	12	9.1179805E-003	9.7290595E-006	2.4302609E-004	1.0389746E-003	1.0670192E-003	7.6834671E+001
8.2236801E+001	3.1384348E+002	1.2727773E+003	1.3109004E+003	-7.6148239E+001	1.441432988460292E+001	8.3638467E-003	2.3831410E-005	1.5205529E+000	1.4333986E+000	1.000000000000000E+000	12	9.1044400E-003	6.9451808E-006	1.8263071E-004	7.4064999E-004	7.6283445E-004	7.6148239E+001
5.5515171E+001	5.1462408E+002	1.8033921E+003	1.8753829E+003	-7.4073135E+001	1.487587147991871E+001	8.3639398E-003	6.7861904E-005	1.5897113E+000	1.4700046E+000	1.000000000000000E+000	12	9.1063445E-003	4.8557254E-006	1.4632219E-004	5.1275542E-004	5.3322443E-004	7.4073135E+001
3.7560089E+001	7.9384515E+002	2.5622849E+003	2.6824419E+003	-7.2786011E+001	1.563174548915413E+001	8.3717601E-003	-1.1371809E-005	1.6537356E+000	1.5088995E+000	1.000000000000000E+000	13	9.1202166E-003	3.3999679E-006	1.1032533E-004	3.5609576E-004	3.7279466E-004	7.2786011E+001
2.5365252E+001	1.3493647E+003	3.5258506E+003	3.7752361E+003	-6.9057846E+001	1.609085055094329E+001	8.3623556E-003	-9.6075382E-006	1.7795781E+000	1.5522320E+000	1.000000000000000E+000	13	9.1146911E-003	2.4143367E-006	9.4676252E-005	2.4738631E-004	2.6488409E-004	6.9057846E+001
1.7132671E+001	2.2540188E+003	4.6757310E+003	5.1906704E+003	-6.4262787E+001	1.650383067723305E+001	8.3629340E-003	-9.3389908E-006	1.9867606E+000	1.6121210E+000	1.000000000000000E+000	13	9.1073029E-003	1.7545523E-006	8.3658604E-005	1.7354121E-004	1.9265334E-004	6.4262787E+001
1.1591243E+001	3.7719312E+003	5.9003818E+003	7.0029971E+003	-5.7410480E+001	1.691327117665787E+001	8.3642201E-003	-1.9162035E-005	2.3270731E+000	1.6519707E+000	1.000000000000000E+000	13	9.0993922E-003	1.2993569E-006	7.6912314E-005	1.2031291E-004	1.4279601E-004	5.7410480E+001
7.8281527E+000	5.8520308E+003	6.7679565E+003	8.9471504E+003	-4.9151100E+001	1.749528693759930E+001	8.3620762E-003	-9.3446070E-006	3.0040233E+000	1.7188934E+000	1.000000000000000E+000	13	9.0997349E-003	1.0170539E-006	7.3103329E-005	8.4545034E-005	1.1176743E-004	4.9151100E+001
5.2930207E+000	8.2390088E+003	7.0473179E+003	1.0841861E+004	-4.0542355E+001	1.875875915767392E+001	8.3610201E-003	-1.5375826E-005	4.2667055E+000	1.8027383E+000	1.000000000000000E+000	14	9.1049289E-003	8.3979393E-007	7.0091810E-005	5.9953727E-005	9.2235088E-005	4.0542355E+001
3.5755143E+000	1.0452083E+004	6.7871528E+003	1.2462402E+004	-3.2998035E+001	1.997327969534672E+001	8.3650593E-003	-1.4091632E-005	6.5583415E+000	1.9452065E+000	1.000000000000000E+000	14	9.1039008E-003	7.3050927E-007	6.7297558E-005	4.3700264E-005	8.0241349E-005	3.2998035E+001
2.4172332E+000	1.2311148E+004	6.2398481E+003	1.3802177E+004	-2.6877956E+001	2.175050204640138E+001	8.3667524E-003	-1.2062162E-005	1.0551825E+001	2.1566536E+000	1.000000000000000E+000	14	9.1045890E-003	6.5964878E-007	6.4625427E-005	3.2755092E-005	7.2452342E-005	2.6877956E+001
1.6327059E+000	1.3779774E+004	5.6352349E+003	1.4887514E+004	-2.2242092E+001	2.436130699710338E+001	8.3637172E-003	-1.3024714E-005	1.7298170E+001	2.4784482E+000	1.000000000000000E+000	14	9.1013256E-003	6.1133954E-007	6.2172418E-005	2.5425392E-005	6.7170382E-005	2.2242092E+001
1.1020596E+000	1.5108578E+004	5.1773281E+003	1.5971032E+004	-1.8915293E+001	2.821163190000516E+001	8.3689000E-003	-1.0526257E-005	2.7893908E+001	2.9312630E+000	1.000000000000000E+000	14	9.1038132E-003	5.7002035E-007	5.9232170E-005	2.0297370E-005	6.2613362E-005	1.8915293E+001
7.4560940E-001	1.6334522E+004	4.7402715E+003	1.7008434E+004	-1.6182705E+001	3.388344995598891E+001	8.3701788E-003	-6.7342025E-006	4.5030373E+001	3.4977062E+000	1.000000000000000E+000	14	9.1023892E-003	5.3516914E-007	5.6464803E-005	1.6386060E-005	5.8794361E-005	1.6182705E+001
5.0390220E-001	1.7540787E+004	4.2623711E+003	1.8051232E+004	-1.3658026E+001	4.225926118050120E+001	8.3697755E-003	-4.4915091E-006	7.4100754E+001	4.1315346E+000	1.000000000000000E+000	14	9.1022085E-003	5.0424308E-007	5.3831358E-005	1.3080898E-005	5.5397879E-005	1.3658026E+001
3.4010270E-001	1.8586070E+004	3.6413762E+003	1.8939420E+004	-1.1084962E+001	5.465273752922076E+001	8.3687408E-003	-1.6852257E-006	1.2851224E+002	4.7505322E+000	1.000000000000000E+000	14	9.1018826E-003	4.8057876E-007	5.1814848E-005	1.0151547E-005	5.2799929E-005	1.1084962E+001
2.3021273E-001	1.9404547E+004	2.9473254E+003	1.9627104E+004	-8.6365519E+000	7.294609154475620E+001	8.3718570E-003	-1.6631119E-006	2.3456473E+002	5.2894006E+000	1.000000000000000E+000	14	9.1032907E-003	4.6381226E-007	5.0372219E-005	7.6509550E-006	5.0949951E-005	8.6365519E+000
1.5547264E-001	1.9924715E+004	2.2980432E+003	2.0056801E+004	-6.5792141E+000	1.000174265372043E+002	8.3717508E-003	-2.0924247E-006	4.4545923E+002	5.8479147E+000	1.000000000000000E+000	14	9.1033261E-003	4.5387728E-007	4.9530052E-005	5.7126144E-006	4.9858401E-005	6.5792141E+000
1.0504906E-001	2.0254914E+004	1.6489006E+003	2.0321920E+004	-4.6540399E+000	1.400669827594829E+002	8.3757294E-003	6.6219100E-006	9.1882642E+002	6.0491309E+000	1.000000000000000E+000	14	9.1022830E-003	4.4790468E-007	4.9045699E-005	3.9926849E-006	4.9207949E-005	4.6540399E+000
7.1022727E-002	2.0243316E+004	1.2162083E+003	2.0279818E+004	-3.4381688E+000	1.992879531456856E+002	8.3806701E-003	1.5311098E-005	1.8425311E+003	6.6267810E+000	1.000000000000000E+000	14	9.1032628E-003	4.4888287E-007	4.9221355E-005	2.9571941E-006	4.9310107E-005	3.4381688E+000
4.7988325E-002	2.0192416E+004	1.0815192E+003	2.0221359E+004	-3.0658705E+000	2.869190691745898E+002	8.3846627E-003	1.8931820E-005	3.0665518E+003	8.7719889E+000	1.000000000000000E+000	14	9.1029704E-003	4.5016611E-007	4.9381881E-005	2.6449263E-006	4.9452661E-005	3.0658705E+000
3.2443926E-002	2.0193943E+004	1.1729399E+003	2.0227979E+004	-3.3242190E+000	4.165195939702389E+002	8.3807465E-003	3.6086960E-005	4.1822593E+003	1.4062339E+001	1.000000000000000E+000	14	9.1026137E-003	4.5000115E-007	4.9353293E-005	2.8666245E-006	4.9436476E-005	3.3242190E+000
2.1920588E-002	2.0464713E+004	1.3089868E+003	2.0506533E+004	-3.6598310E+000	6.083210547337076E+002	8.3863726E-003	4.9465707E-005	5.5466743E+003	2.2600534E+001	1.000000000000000E+000	14	9.1020223E-003	4.4385965E-007	4.8665494E-005	3.1127968E-006	4.8764945E-005	3.6598310E+000
1.4807615E-002	2.0276631E+004	1.1019496E+003	2.0306553E+004	-3.1107242E+000	8.922401492057543E+002	8.3885388E-003	1.4440344E-004	9.7537881E+003	2.8722639E+001	1.000000000000000E+000	14	9.1021303E-003	4.4823611E-007	4.9172628E-005	2.6723251E-006	4.9245187E-005	3.1107242E+000
1.0000636E-002	2.0534102E+004	4.2257483E+002	2.0538449E+004	-1.1789334E+000	1.312613889759159E+003	8.3957091E-003	2.6161637E-004	3.7660742E+004	1.5942662E+001	1.000000000000000E+000	14	9.1028148E-003	4.4320848E-007	4.8678863E-005	1.0017708E-006	4.8689169E-005	1.1789334E+000