EC-Lab ASCII FILE
Nb header lines : 62                          

Potentio Electrochemical Impedance Spectroscopy

Run on channel : 5 (SN 35518)
User : 
CE vs. WE compliance from -10 V to 10 V
Electrode connection : standard
Ewe ctrl range : min = -5.00 V, max = 5.00 V
Safety Limits :
	Do not start on E overload
Acquisition started on : 07/09/2023 14:49:45
Technique started on : 07/09/2023 14:49:47
Saved on :
	File : 0708_01_EIS_0.5MTFSI_SymCell_OutsideGB_unsanded_RT_C04_C05.mpr
	Directory : C:\Users\CESL\Documents\EC-Lab\Data\PhD\Leifer\Results\Zn Ion GPE\2023\0708\
	Host : 10.110.196.171
Device : VSP (SN 1724172417241724)
Address : USB
EC-Lab for windows v11.16 (software)
Internet server v11.16 (firmware)
Command interpretor v11.16 (firmware)
Electrode material : Au/Pd
Initial state : 
Electrolyte : NaCl (0.2M)
Comments : Fe(CN)63-/Fe(CN)64- 5.10-3 M
Reference electrode : SCE Saturated Calomel Electrode (0.241 V)
Electrode surface area : 0.001 cm²
Characteristic mass : 0.001 g
Equivalent Weight : 0.000 g/eq.
Density : 0.000 g/cm3
Cycle Definition : Charge/Discharge alternance
Mode                Single sine         
E (V)               0.0000              
vs.                 Eoc                 
tE (h:m:s)          0:00:0.0000         
record              0                   
dI                  0.000               
unit dI             mA                  
dt (s)              0.000               
fi                  1.000               
unit fi             MHz                 
ff                  10.000              
unit ff             mHz                 
Nd                  6                   
Points              per decade          
spacing             Logarithmic         
Va (mV)             10.0                
pw                  0.10                
Na                  2                   
corr                1                   
E range min (V)     -5.000              
E range max (V)     5.000               
I Range             Auto                
Bandwidth           5                   
nc cycles           0                   
goto Ns'            0                   
nr cycles           0                   
inc. cycle          0                   

freq/Hz	Re(Z)/Ohm	-Im(Z)/Ohm	|Z|/Ohm	Phase(Z)/deg	time/s	<Ewe>/V	<I>/mA	Cs/µF	Cp/µF	cycle number	I Range	|Ewe|/V	|I|/A	Re(Y)/Ohm-1	Im(Y)/Ohm-1	|Y|/Ohm-1	Phase(Y)/deg	
1.0000193E+006	-2.4836010E+001	5.5856361E+000	2.5456369E+001	-1.6732503E+002	2.307082749583060E+000	1.7962363E-002	1.5041038E-002	2.8493062E-002	1.3718021E-003	1.000000000000000E+000	10	3.1461145E-004	1.2358850E-005	-3.8325593E-002	8.6194556E-003	3.9282899E-002	1.6732503E+002
6.7575181E+005	1.1988213E+003	1.6790989E+001	1.1989388E+003	-8.0244648E-001	3.304083330265712E+000	1.7509473E-002	-2.4711111E-005	1.4026735E-002	2.7511553E-006	1.000000000000000E+000	12	5.3951505E-004	4.4999379E-007	8.3398912E-004	1.1681059E-005	8.3407090E-004	8.0244648E-001
4.5664050E+005	5.1395020E+001	1.0713249E+001	5.2499729E+001	-1.1774651E+001	4.007090163620887E+000	1.7550707E-002	3.9163584E-004	3.2533027E-002	1.3547301E-003	1.000000000000000E+000	11	6.2979106E-003	1.1996082E-004	1.8646911E-002	3.8869332E-003	1.9047717E-002	1.1774651E+001
3.0857416E+005	3.7259686E+001	1.1679574E+001	3.9047363E+001	-1.7404337E+001	4.416088849742664E+000	1.7412931E-002	5.2272651E-004	4.4160455E-002	3.9509740E-003	1.000000000000000E+000	11	1.0394519E-002	2.6620284E-004	2.4437442E-002	7.6602618E-003	2.5609924E-002	1.7404337E+001
2.0852534E+005	3.4120560E+001	1.4909207E+001	3.7235695E+001	-2.3603245E+001	4.957093942124629E+000	1.7454518E-002	7.2354940E-004	5.1192544E-002	8.2072355E-003	1.000000000000000E+000	11	1.0133654E-002	2.7214890E-004	2.4609184E-002	1.0753147E-002	2.6855951E-002	2.3603245E+001
1.4090817E+005	3.3885464E+001	1.9999252E+001	3.9347107E+001	-3.0549168E+001	5.366084868204780E+000	1.7488353E-002	9.1896602E-004	5.6476817E-002	1.4590565E-002	1.000000000000000E+000	11	1.0893120E-002	2.7684678E-004	2.1887081E-002	1.2917788E-002	2.5414830E-002	3.0549168E+001
9.5214820E+004	3.5123528E+001	2.7185091E+001	4.4414989E+001	-3.7739342E+001	5.775094434298808E+000	1.7500060E-002	7.3529489E-004	6.1487205E-002	2.3034947E-002	1.000000000000000E+000	11	1.0959190E-002	2.4674530E-004	1.7804876E-002	1.3780711E-002	2.2514921E-002	3.7739342E+001
6.4345688E+004	3.7241791E+001	3.7341484E+001	5.2738388E+001	-4.5076584E+001	6.184079173719510E+000	1.7514134E-002	8.8223064E-004	6.6238292E-002	3.3207681E-002	1.000000000000000E+000	11	1.0989887E-002	2.0838495E-004	1.3389886E-002	1.3425729E-002	1.8961521E-002	4.5076584E+001
4.3476547E+004	4.0316204E+001	5.1841793E+001	6.5673187E+001	-5.2128590E+001	6.725087252765661E+000	1.7525168E-002	7.9458830E-004	7.0613071E-002	4.4001646E-002	1.000000000000000E+000	11	1.0089107E-002	1.5362597E-004	9.3476716E-003	1.2019982E-002	1.5226915E-002	5.2128590E+001
2.9384758E+004	4.4379257E+001	7.2214279E+001	8.4760963E+001	-5.8427216E+001	7.134093218861381E+000	1.7517731E-002	6.6238234E-004	7.5002365E-002	5.4441407E-002	1.000000000000000E+000	11	1.0522993E-002	1.2414905E-004	6.1771511E-003	1.0051510E-002	1.1797884E-002	5.8427216E+001
1.9853508E+004	5.0282291E+001	1.0112066E+002	1.1293227E+002	-6.3561119E+001	7.543096304900246E+000	1.7517209E-002	6.9855666E-004	7.9276234E-002	6.3560411E-002	1.000000000000000E+000	11	1.0123427E-002	8.9641580E-005	3.9425660E-003	7.9287328E-003	8.8548651E-003	6.3561119E+001
1.3417967E+004	5.8381096E+001	1.4215738E+002	1.5367847E+002	-6.7673058E+001	7.820084691426018E+000	1.7529698E-002	8.2703179E-004	8.3438024E-002	7.1396478E-002	1.000000000000000E+000	11	9.5821433E-003	6.2351894E-005	2.4719872E-003	6.0192635E-003	6.5070926E-003	6.7673058E+001
9.0820293E+003	6.9777412E+001	1.9958641E+002	2.1143231E+002	-7.0729858E+001	8.117342092184117E+000	1.7528879E-002	9.3126664E-004	8.7802373E-002	7.8239396E-002	1.000000000000000E+000	11	9.1292989E-003	4.3178352E-005	1.5608898E-003	4.4646584E-003	4.7296463E-003	7.0729858E+001
6.1409590E+003	8.5352623E+001	2.8184775E+002	2.9448807E+002	-7.3151985E+001	8.710637080424931E+000	1.7591253E-002	9.0516068E-004	9.1953732E-002	8.4229276E-002	1.000000000000000E+000	11	9.8754494E-003	3.3534292E-005	9.8419597E-004	3.2499686E-003	3.3957234E-003	7.3151985E+001
4.1413242E+003	1.0893195E+002	3.9870340E+002	4.1331656E+002	-7.4718849E+001	9.650689765076095E+000	1.7574755E-002	1.3768469E-004	9.6389778E-002	8.9694381E-002	1.000000000000000E+000	12	1.0124965E-002	2.4496876E-005	6.3766068E-004	2.3339114E-003	2.4194531E-003	7.4718849E+001
2.7973140E+003	1.4471164E+002	5.6643176E+002	5.8462500E+002	-7.5668663E+001	1.011694309386075E+001	1.7568696E-002	6.2099614E-005	1.0044568E-001	9.4291322E-002	1.000000000000000E+000	12	9.2255389E-003	1.5780268E-005	4.2339787E-004	1.6572684E-003	1.7104982E-003	7.5668663E+001
1.8906046E+003	1.9105565E+002	7.9726624E+002	8.1983881E+002	-7.6523857E+001	1.080170667307539E+001	1.7577235E-002	1.0064722E-004	1.0558835E-001	9.9854082E-002	1.000000000000000E+000	12	9.9739181E-003	1.2165706E-005	2.8425158E-004	1.1861686E-003	1.2197520E-003	7.6523857E+001
1.2871166E+003	2.6959305E+002	1.1228560E+003	1.1547666E+003	-7.6499077E+001	1.126817704187124E+001	1.7577272E-002	-1.0296404E-005	1.1012305E-001	1.0412089E-001	1.000000000000000E+000	12	9.7741224E-003	8.4641542E-006	2.0217162E-004	8.4204564E-004	8.6597586E-004	7.6499077E+001
8.6306641E+002	3.7511212E+002	1.5551249E+003	1.5997257E+003	-7.6438713E+001	1.173521157071809E+001	1.7572144E-002	5.0536906E-005	1.1857978E-001	1.1205988E-001	1.000000000000000E+000	12	9.6773142E-003	6.0493585E-006	1.4657846E-004	6.0767896E-004	6.2510715E-004	7.6438713E+001
5.8369244E+002	5.1148550E+002	2.1927412E+003	2.2516064E+003	-7.6869797E+001	1.220119233950390E+001	1.7579041E-002	1.2242916E-004	1.2435082E-001	1.1793385E-001	1.000000000000000E+000	12	9.6251527E-003	4.2747934E-006	1.0089005E-004	4.3251622E-004	4.4412733E-004	7.6869797E+001
3.9411707E+002	7.5216229E+002	3.0904780E+003	3.1806921E+003	-7.6321266E+001	1.292021704031504E+001	1.7586816E-002	3.4595185E-005	1.3066800E-001	1.2336083E-001	1.000000000000000E+000	13	9.7907856E-003	3.0781935E-006	7.4347823E-005	3.0547971E-004	3.1439698E-004	7.6321266E+001
2.6644943E+002	1.0993521E+003	4.3313755E+003	4.4687124E+003	-7.5758415E+001	1.338363882238264E+001	1.7591551E-002	8.7199542E-006	1.3790484E-001	1.2955864E-001	1.000000000000000E+000	13	9.6897492E-003	2.1683538E-006	5.5051860E-005	2.1690073E-004	2.2377810E-004	7.5758415E+001
1.8005759E+002	1.6476730E+003	6.0699189E+003	6.2895742E+003	-7.4813080E+001	1.384870577780384E+001	1.7588586E-002	1.1868083E-005	1.4562160E-001	1.3562793E-001	1.000000000000000E+000	13	9.6316012E-003	1.5313598E-006	4.1651288E-005	1.5344065E-004	1.5899328E-004	7.4813080E+001
1.2159529E+002	2.3605271E+003	8.4800986E+003	8.8025088E+003	-7.4444885E+001	1.430913283964037E+001	1.7589333E-002	1.2394004E-005	1.5434852E-001	1.4324892E-001	1.000000000000000E+000	13	9.6132159E-003	1.0920995E-006	3.0464635E-005	1.0944300E-004	1.1360398E-004	7.4444885E+001
8.2236801E+001	3.6201389E+003	1.1465674E+004	1.2023605E+004	-7.2477158E+001	1.476430352791795E+001	1.7594216E-002	2.7257624E-006	1.6879296E-001	1.5349141E-001	1.000000000000000E+000	13	9.6022887E-003	7.9861974E-007	2.5041239E-005	7.9310397E-005	8.3169725E-005	7.2477158E+001
5.5515171E+001	5.5946465E+003	1.5715336E+004	1.6681482E+004	-7.0404312E+001	1.522690653658356E+001	1.7590338E-002	6.8884679E-006	1.8242517E-001	1.6190596E-001	1.000000000000000E+000	13	9.6007027E-003	5.7553052E-007	2.0104968E-005	5.6474757E-005	5.9946709E-005	7.0404312E+001
3.7560089E+001	8.9049160E+003	2.1490744E+004	2.3262623E+004	-6.7492813E+001	1.598375641253369E+001	1.7592752E-002	7.2824247E-007	1.9717056E-001	1.6827811E-001	1.000000000000000E+000	14	9.6103344E-003	4.1312342E-007	1.6455551E-005	3.9713126E-005	4.2987413E-005	6.7492813E+001
2.5365252E+001	1.4035765E+004	2.8313377E+004	3.1601424E+004	-6.3631046E+001	1.644284832765698E+001	1.7589463E-002	4.3489248E-007	2.2160996E-001	1.7789319E-001	1.000000000000000E+000	14	9.6021136E-003	3.0385067E-007	1.4054739E-005	2.8351651E-005	3.1644144E-005	6.3631046E+001
1.7132671E+001	2.1962871E+004	3.6334660E+004	4.2456746E+004	-5.8848690E+001	1.685785218738602E+001	1.7589072E-002	2.6245837E-006	2.5566655E-001	1.8725039E-001	1.000000000000000E+000	14	9.5859887E-003	2.2578246E-007	1.2184163E-005	2.0157084E-005	2.3553383E-005	5.8848690E+001
1.1591243E+001	3.3758262E+004	4.3878734E+004	5.5362113E+004	-5.2426987E+001	1.726728564678342E+001	1.7584132E-002	1.3834831E-006	3.1292197E-001	1.9657075E-001	1.000000000000000E+000	14	9.5888814E-003	1.7320295E-007	1.1014246E-005	1.4316233E-005	1.8062894E-005	5.2426987E+001
7.8281527E+000	4.8787348E+004	4.9057176E+004	6.9186789E+004	-4.5158009E+001	1.784929226108943E+001	1.7588530E-002	-7.5285857E-007	4.1443682E-001	2.0836128E-001	1.000000000000000E+000	14	9.5912591E-003	1.3862848E-007	1.0192033E-005	1.0248404E-005	1.4453626E-005	4.5158009E+001
5.2930207E+000	6.5860039E+004	5.0255352E+004	8.2844102E+004	-3.7345909E+001	1.868569555420981E+001	1.7590987E-002	4.6100749E-007	5.9832096E-001	2.2017889E-001	1.000000000000000E+000	14	9.5905047E-003	1.1576569E-007	9.5961896E-006	7.3224960E-006	1.2070866E-005	3.7345909E+001
3.5755143E+000	8.2552000E+004	4.7810746E+004	9.5397586E+004	-3.0077671E+001	1.990032001186046E+001	1.7595656E-002	9.8740611E-007	9.3101376E-001	2.3384731E-001	1.000000000000000E+000	14	9.5885415E-003	1.0051136E-007	9.0709509E-006	5.2535243E-006	1.0482446E-005	3.0077671E+001
2.4172332E+000	9.6189328E+004	4.1599027E+004	1.0479917E+005	-2.3387049E+001	2.167753996295505E+001	1.7593471E-002	1.6965535E-006	1.5827723E+000	2.4938427E-001	1.000000000000000E+000	14	9.5900595E-003	9.1508923E-008	8.7581266E-006	3.7876293E-006	9.5420601E-006	2.3387049E+001
1.6327059E+000	1.0651744E+005	3.4078848E+004	1.1183619E+005	-1.7741386E+001	2.428842163362424E+001	1.7590540E-002	1.5496621E-006	2.8604033E+000	2.6560262E-001	1.000000000000000E+000	14	9.5906723E-003	8.5756433E-008	8.5163992E-006	2.7247095E-006	8.9416499E-006	1.7741386E+001
1.1020596E+000	1.1388495E+005	2.5863752E+004	1.1678491E+005	-1.2795086E+001	2.813744437645073E+001	1.7589264E-002	2.1543726E-006	5.5837183E+000	2.7386287E-001	1.000000000000000E+000	14	9.5911501E-003	8.2126626E-008	8.3501236E-006	1.8963484E-006	8.5627507E-006	1.2795086E+001
7.4560940E-001	1.1890653E+005	1.9483377E+004	1.2049218E+005	-9.3054838E+000	3.380915219252347E+001	1.7590156E-002	2.2205986E-006	1.0955811E+001	2.8645426E-001	1.000000000000000E+000	14	9.5920702E-003	7.9607410E-008	8.1900771E-006	1.3419815E-006	8.2992938E-006	9.3054838E+000
5.0390220E-001	1.2183371E+005	1.3037520E+004	1.2252930E+005	-6.1080213E+000	4.218492968368810E+001	1.7593319E-002	2.7129902E-006	2.4225842E+001	2.7427670E-001	1.000000000000000E+000	14	9.5901098E-003	7.8267888E-008	8.1149810E-006	8.6839037E-007	8.1613125E-006	6.1080213E+000
3.4010270E-001	1.2295154E+005	8.8566016E+003	1.2327011E+005	-4.1200862E+000	5.457830141895101E+001	1.7586615E-002	2.8164698E-006	5.2837585E+001	2.7274802E-001	1.000000000000000E+000	14	9.5912442E-003	7.7806732E-008	8.0913023E-006	5.8284297E-007	8.1122671E-006	4.1200862E+000
2.3021273E-001	1.2309241E+005	4.9264624E+003	1.2319095E+005	-2.2918956E+000	7.287163127457643E+001	1.7590720E-002	3.4969123E-006	1.4033165E+002	2.2442350E-001	1.000000000000000E+000	14	9.5917713E-003	7.7861003E-008	8.1109856E-006	3.2462171E-007	8.1174794E-006	2.2918956E+000
1.5547264E-001	1.2301177E+005	1.9696658E+003	1.2302754E+005	-9.1734225E-001	9.994298106702627E+001	1.7590716E-002	4.3779114E-006	5.1972504E+002	1.3321528E-001	1.000000000000000E+000	14	9.5904591E-003	7.7953757E-008	8.1272201E-006	1.3013313E-007	8.1282615E-006	9.1734225E-001
1.0504906E-001	1.2314259E+005	-5.0550800E+002	1.2314363E+005	2.3520140E-001	1.399925256358983E+002	1.7594269E-002	5.8103515E-006	-2.9970908E+003	-5.0504733E-002	1.000000000000000E+000	14	9.5922360E-003	7.7894697E-008	8.1205299E-006	-3.3335276E-008	8.1205981E-006	-2.3520140E-001
7.1022727E-002	1.2220945E+005	-1.0728885E+003	1.2221416E+005	5.0299221E-001	1.992125178087445E+002	1.7597543E-002	5.8831997E-006	-2.0886621E+003	-1.6096607E-001	1.000000000000000E+000	14	9.5918337E-003	7.8483815E-008	8.1820417E-006	-7.1830932E-008	8.1823573E-006	-5.0299221E-001
4.7988325E-002	1.2342213E+005	-1.9190453E+003	1.2343705E+005	8.9079922E-001	2.868425827976025E+002	1.7598292E-002	6.2875865E-006	-1.7282211E+003	-4.1771370E-001	1.000000000000000E+000	14	9.5904227E-003	7.7694850E-008	8.1003163E-006	-1.2594884E-007	8.1012959E-006	-8.9079922E-001
3.2443926E-002	1.2675980E+005	-1.9875129E+003	1.2677538E+005	8.9828771E-001	4.164431417266314E+002	1.7598791E-002	6.9708117E-006	-2.4681797E+003	-6.0663414E-001	1.000000000000000E+000	14	9.5918113E-003	7.5659891E-008	7.8869971E-006	-1.2366309E-007	7.8879666E-006	-8.9828771E-001
2.1920588E-002	1.3259730E+005	-2.5827871E+003	1.3262245E+005	1.1158907E+000	6.082445269700547E+002	1.7596168E-002	9.3207127E-006	-2.8111196E+003	-1.0661601E+000	1.000000000000000E+000	14	9.5927231E-003	7.2331062E-008	7.5387711E-006	-1.4684343E-007	7.5402013E-006	-1.1158907E+000
1.4807615E-002	1.4355144E+005	-4.0178254E+003	1.4360766E+005	1.6032187E+000	8.921636260020605E+002	1.7597191E-002	1.2831465E-005	-2.6751240E+003	-2.0939720E+000	1.000000000000000E+000	14	9.5905289E-003	6.6782853E-008	6.9606913E-006	-1.9482104E-007	6.9634170E-006	-1.6032187E+000
1.0000636E-002	1.5350005E+005	-1.4257240E+003	1.5350667E+005	5.3215373E-001	1.312537369488826E+003	1.7593335E-002	1.8227547E-005	-1.1162386E+004	-9.6288288E-001	1.000000000000000E+000	14	9.5922323E-003	6.2487395E-008	6.5140939E-006	-6.0503567E-008	6.5143749E-006	-5.3215373E-001