EC-Lab ASCII FILE
Nb header lines : 62                          

Potentio Electrochemical Impedance Spectroscopy

Run on channel : 2 (SN 35514)
User : 
CE vs. WE compliance from -10 V to 10 V
Electrode connection : standard
Ewe ctrl range : min = -5.00 V, max = 5.00 V
Safety Limits :
	Do not start on E overload
Acquisition started on : 07/09/2023 10:44:58
Technique started on : 07/09/2023 10:44:59
Saved on :
	File : 0708_01_EIS_0.5MTFSI_Blocking_OutsideGB_Day_2_C01_C02.mpr
	Directory : C:\Users\CESL\Documents\EC-Lab\Data\PhD\Leifer\Results\Zn Ion GPE\2023\0708\
	Host : 10.110.196.171
Device : VSP (SN 1724172417241724)
Address : USB
EC-Lab for windows v11.16 (software)
Internet server v11.16 (firmware)
Command interpretor v11.16 (firmware)
Electrode material : Au/Pd
Initial state : 
Electrolyte : NaCl (0.2M)
Comments : Fe(CN)63-/Fe(CN)64- 5.10-3 M
Reference electrode : SCE Saturated Calomel Electrode (0.241 V)
Electrode surface area : 0.001 cm²
Characteristic mass : 0.001 g
Equivalent Weight : 0.000 g/eq.
Density : 0.000 g/cm3
Cycle Definition : Charge/Discharge alternance
Mode                Single sine         
E (V)               0.0000              
vs.                 Eoc                 
tE (h:m:s)          0:00:0.0000         
record              0                   
dI                  0.000               
unit dI             mA                  
dt (s)              0.000               
fi                  1.000               
unit fi             MHz                 
ff                  10.000              
unit ff             mHz                 
Nd                  6                   
Points              per decade          
spacing             Logarithmic         
Va (mV)             10.0                
pw                  0.10                
Na                  2                   
corr                1                   
E range min (V)     -5.000              
E range max (V)     5.000               
I Range             Auto                
Bandwidth           5                   
nc cycles           0                   
goto Ns'            0                   
nr cycles           0                   
inc. cycle          0                   

freq/Hz	Re(Z)/Ohm	-Im(Z)/Ohm	|Z|/Ohm	Phase(Z)/deg	time/s	<Ewe>/V	<I>/mA	Cs/µF	Cp/µF	cycle number	I Range	|Ewe|/V	|I|/A	Re(Y)/Ohm-1	Im(Y)/Ohm-1	|Y|/Ohm-1	Phase(Y)/deg	
1.0000193E+006	-4.2878695E-002	3.7313819E+000	3.7316282E+000	-9.0658379E+001	1.974084173765732E+000	-9.0750521E-003	3.2866165E-002	4.2652261E-002	4.2646632E-002	1.000000000000000E+000	9	1.2316124E-004	3.3004693E-005	-3.0792514E-003	2.6796183E-001	2.6797953E-001	9.0658379E+001
6.7575181E+005	2.1586664E+001	-9.6884642E+000	2.3661158E+001	2.4171360E+001	2.676079193770420E+000	-9.8739881E-003	-4.5397342E-003	-2.4309609E-002	-4.0758280E-003	1.000000000000000E+000	10	7.0707657E-004	2.9883431E-005	3.8557913E-002	-1.7305452E-002	4.2263359E-002	-2.4171360E+001
4.5664050E+005	8.3970327E+000	-2.4878302E+000	8.7578230E+000	1.6503235E+001	3.085085986531340E+000	-9.8958807E-003	-4.6422700E-003	-1.4009576E-001	-1.1305092E-002	1.000000000000000E+000	10	2.6668184E-003	3.0450700E-004	1.0947968E-001	-3.2436084E-002	1.1418363E-001	-1.6503235E+001
3.0857416E+005	6.6431861E+000	-1.0996839E+000	6.7335892E+000	9.3992577E+000	3.494089845946291E+000	-1.0140454E-002	-6.7845546E-003	-4.6902144E-001	-1.2509364E-002	1.000000000000000E+000	10	7.2968313E-003	1.0836467E-003	1.4651535E-001	-2.4253510E-002	1.4850920E-001	-9.3992577E+000
2.0852534E+005	6.0598187E+000	-4.1943046E-001	6.0743170E+000	3.9594138E+000	3.903096745343646E+000	-1.0193473E-002	-3.8143992E-003	-1.8197063E+000	-8.6761359E-003	1.000000000000000E+000	10	1.0680086E-002	1.7582366E-003	1.6423464E-001	-1.1367504E-002	1.6462757E-001	-3.9594138E+000
1.4090817E+005	5.8533921E+000	7.9188585E-002	5.8539276E+000	-7.7508813E-001	4.444084824412130E+000	-1.0137509E-002	-5.9629354E-004	1.4263345E+001	2.6100683E-003	1.000000000000000E+000	10	1.0166000E-002	1.7366117E-003	1.7080985E-001	2.3108292E-003	1.7082548E-001	7.7508813E-001
9.5214820E+004	5.7975559E+000	5.4000229E-001	5.8226504E+000	-5.3213530E+000	4.985080210113665E+000	-1.0125293E-002	3.7628179E-005	3.0954227E+000	2.6623782E-002	1.000000000000000E+000	10	1.0116236E-002	1.7373938E-003	1.7100292E-001	1.5927741E-002	1.7174309E-001	5.3213530E+000
6.4345688E+004	5.8311567E+000	1.0462433E+000	5.9242735E+000	-1.0171946E+001	5.394076869532000E+000	-1.0117574E-002	-1.9542716E-004	2.3641119E+000	7.3733218E-002	1.000000000000000E+000	10	1.0759424E-002	1.8161593E-003	1.6614395E-001	2.9810039E-002	1.6879708E-001	1.0171946E+001
4.3476547E+004	5.9277539E+000	1.6548905E+000	6.1544237E+000	-1.5598493E+001	5.803095768933417E+000	-1.0117816E-002	-1.2041222E-003	2.2120545E+000	1.5994093E-001	1.000000000000000E+000	10	1.0710775E-002	1.7403376E-003	1.5650038E-001	4.3691251E-002	1.6248475E-001	1.5598493E+001
2.9384758E+004	6.0854979E+000	2.4221957E+000	6.5498333E+000	-2.1703917E+001	6.212088161730208E+000	-1.0113098E-002	-4.2547501E-005	2.2360876E+000	3.0580652E-001	1.000000000000000E+000	10	1.0585487E-002	1.6161459E-003	1.4185205E-001	5.6461021E-002	1.5267564E-001	2.1703917E+001
1.9853508E+004	6.2935104E+000	3.4449434E+000	7.1746712E+000	-2.8695427E+001	6.620100127736805E+000	-1.0110841E-002	4.9441337E-004	2.3270237E+000	5.3648919E-001	1.000000000000000E+000	10	1.0405778E-002	1.4503491E-003	1.2226128E-001	6.6923410E-002	1.3937920E-001	2.8695427E+001
1.3417967E+004	6.5333948E+000	4.8577909E+000	8.1414604E+000	-3.6632000E+001	7.029092920507537E+000	-1.0112352E-002	-9.1700529E-004	2.4417129E+000	8.6929590E-001	1.000000000000000E+000	10	1.0100368E-002	1.2406089E-003	9.8567620E-002	7.3288225E-002	1.2282809E-001	3.6632000E+001
9.0820293E+003	6.8006978E+000	6.8579993E+000	9.6582422E+000	-4.5240368E+001	7.326347307971446E+000	-1.0089638E-002	2.8977392E-003	2.5552876E+000	1.2883637E+000	1.000000000000000E+000	10	1.0053703E-002	1.0409454E-003	7.2904997E-002	7.3519275E-002	1.0353851E-001	4.5240368E+001
6.1409590E+003	7.1182461E+000	9.7824640E+000	1.2098183E+001	-5.3958351E+001	7.729651753830694E+000	-1.0094673E-002	2.7038227E-003	2.6493275E+000	1.7321755E+000	1.000000000000000E+000	10	9.6975416E-003	8.0157013E-004	4.8633184E-002	6.6835612E-002	8.2657039E-002	5.3958351E+001
4.1413242E+003	7.5325036E+000	1.4085144E+001	1.5972786E+001	-6.1862862E+001	8.195707349295844E+000	-1.0058737E-002	6.2873694E-003	2.7284727E+000	2.1216848E+000	1.000000000000000E+000	10	9.3880929E-003	5.8775552E-004	2.9524188E-002	5.5207737E-002	6.2606484E-002	6.1862862E+001
2.7973140E+003	8.0623941E+000	2.0287718E+001	2.1831026E+001	-6.8326996E+001	8.661952998081688E+000	-1.0059688E-002	6.6397511E-003	2.8044369E+000	2.4219422E+000	1.000000000000000E+000	10	9.1793537E-003	4.2047285E-004	1.6916702E-002	4.2568162E-002	4.5806367E-002	6.8326996E+001
1.8906046E+003	8.8905869E+000	2.9351744E+001	3.0668671E+001	-7.3148537E+001	9.126676780186244E+000	-1.0062486E-002	6.5017752E-003	2.8680418E+000	2.6270201E+000	1.000000000000000E+000	10	9.0791080E-003	2.9603852E-004	9.4523672E-003	3.1206422E-002	3.2606564E-002	7.3148537E+001
1.2871166E+003	1.0025719E+001	4.2180099E+001	4.3355228E+001	-7.6629562E+001	9.845200387615478E+000	-1.0080239E-002	7.6871445E-005	2.9315321E+000	2.7747693E+000	1.000000000000000E+000	11	9.4377706E-003	2.1768472E-004	5.3337500E-003	2.2440093E-002	2.3065269E-002	7.6629562E+001
8.6306641E+002	1.1854016E+001	6.1533001E+001	6.2664406E+001	-7.9095848E+001	1.031218707645894E+001	-1.0092733E-002	1.2274679E-004	2.9968696E+000	2.8896296E+000	1.000000000000000E+000	11	9.1911703E-003	1.4667290E-004	3.0187247E-003	1.5669901E-002	1.5958022E-002	7.9095848E+001
5.8369244E+002	1.4430709E+001	8.8893059E+001	9.0056770E+001	-8.0779167E+001	1.077921971198521E+001	-1.0082365E-002	7.6868004E-005	3.0673845E+000	2.9886234E+000	1.000000000000000E+000	11	9.0743480E-003	1.0076253E-004	1.7793232E-003	1.0960621E-002	1.1104107E-002	8.0779167E+001
3.9411707E+002	1.8163866E+001	1.2866608E+002	1.2994185E+002	-8.1964622E+001	1.124620320080430E+001	-1.0086672E-002	5.8404028E-005	3.1385629E+000	3.0772364E+000	1.000000000000000E+000	11	9.0214619E-003	6.9426918E-005	1.0757467E-003	7.6201931E-003	7.6957503E-003	8.1964622E+001
2.6644943E+002	2.4082050E+001	1.8607565E+002	1.8762753E+002	-8.2625725E+001	1.170966036953905E+001	-1.0088650E-002	-2.9435827E-005	3.2100797E+000	3.1571975E+000	1.000000000000000E+000	11	8.9985104E-003	4.7959435E-005	6.8406988E-004	5.2856253E-003	5.3297081E-003	8.2625725E+001
1.8005759E+002	3.2885124E+001	2.6923566E+002	2.7123657E+002	-8.3036240E+001	1.264767452075466E+001	-1.0075931E-002	-1.0705433E-004	3.2830398E+000	3.2347803E+000	1.000000000000000E+000	12	1.0084779E-002	3.7180751E-005	4.4699552E-004	3.6596211E-003	3.6868185E-003	8.3036240E+001
1.2159529E+002	4.5609768E+001	3.8889859E+002	3.9156400E+002	-8.3310944E+001	1.310810555590433E+001	-1.0081265E-002	-9.5251868E-005	3.3656349E+000	3.3199706E+000	1.000000000000000E+000	12	1.0024766E-002	2.5601859E-005	2.9747636E-004	2.5364766E-003	2.5538609E-003	8.3310944E+001
8.2236801E+001	6.3857548E+001	5.6685162E+002	5.7043713E+002	-8.3572556E+001	1.356328560420661E+001	-1.0078878E-002	-1.2560762E-004	3.4141650E+000	3.3713803E+000	1.000000000000000E+000	12	9.9953469E-003	1.7522258E-005	1.9624412E-004	1.7420226E-003	1.7530415E-003	8.3572556E+001
5.5515171E+001	9.9509468E+001	8.0955011E+002	8.1564301E+002	-8.2992386E+001	1.402490639948519E+001	-1.0078804E-002	-6.5139036E-005	3.5413163E+000	3.4886062E+000	1.000000000000000E+000	12	9.9783093E-003	1.2233672E-005	1.4957676E-004	1.2168681E-003	1.2260266E-003	8.2992386E+001
3.7560089E+001	1.5601912E+002	1.1699063E+003	1.1802638E+003	-8.2403831E+001	1.451675311618601E+001	-1.0070971E-002	-1.9853805E-006	3.6219504E+000	3.5586593E+000	1.000000000000000E+000	12	9.9714883E-003	8.4485255E-006	1.1200047E-004	8.3983288E-004	8.4726821E-004	8.2403831E+001
2.5365252E+001	2.3412810E+002	1.6791184E+003	1.6953627E+003	-8.2062134E+001	1.522586432320531E+001	-1.0080164E-002	-8.7421831E-006	3.7367980E+000	3.6655324E+000	1.000000000000000E+000	13	9.9964933E-003	5.8963747E-006	8.1456987E-005	5.8419263E-004	5.8984431E-004	8.2062134E+001
1.7132671E+001	3.6495923E+002	2.3999172E+003	2.4275085E+003	-8.1353188E+001	1.563985532952938E+001	-1.0085610E-002	-1.3584635E-005	3.8707826E+000	3.7832911E+000	1.000000000000000E+000	13	9.9783950E-003	4.1105500E-006	6.1933104E-005	4.0726276E-004	4.1194499E-004	8.1353188E+001
1.1591243E+001	5.7397516E+002	3.3951133E+003	3.4432893E+003	-8.0404350E+001	1.604925585558522E+001	-1.0085852E-002	-1.2555403E-005	4.0442300E+000	3.9318540E+000	1.000000000000000E+000	13	9.9671092E-003	2.8946477E-006	4.8411232E-005	2.8635660E-004	2.9041996E-004	8.0404350E+001
7.8281527E+000	8.8541803E+002	4.8003364E+003	4.8813105E+003	-7.9549301E+001	1.663029742988874E+001	-1.0079773E-002	-4.7762187E-006	4.2353487E+000	4.0959973E+000	1.000000000000000E+000	13	9.9714044E-003	2.0427719E-006	3.7159978E-005	2.0146462E-004	2.0486301E-004	7.9549301E+001
5.2930207E+000	1.3406537E+003	6.7331660E+003	6.8653389E+003	-7.8738998E+001	1.746671069630975E+001	-1.0076167E-002	-1.0189898E-006	4.4657788E+000	4.2954822E+000	1.000000000000000E+000	13	9.9677779E-003	1.4518989E-006	2.8444136E-005	1.4285497E-004	1.4565923E-004	7.8738998E+001
3.5755143E+000	1.9999768E+003	9.4272217E+003	9.6370332E+003	-7.8022339E+001	1.929039923622622E+001	-1.0075939E-002	-1.0913681E-006	4.7216949E+000	4.5183372E+000	1.000000000000000E+000	14	9.9725453E-003	1.0348149E-006	2.1534668E-005	1.0150723E-004	1.0376638E-004	7.8022339E+001
2.4172332E+000	2.8300991E+003	1.3171049E+004	1.3471674E+004	-7.7873093E+001	2.106661633397198E+001	-1.0075153E-002	3.3840391E-007	4.9989781E+000	4.7783594E+000	1.000000000000000E+000	14	9.9688238E-003	7.3998405E-007	1.5594034E-005	7.2573370E-005	7.4229829E-005	7.7873093E+001
1.6327059E+000	4.0611294E+003	1.8466141E+004	1.8907436E+004	-7.7596786E+001	2.367720544457552E+001	-1.0073473E-002	1.1658922E-006	5.2788100E+000	5.0352736E+000	1.000000000000000E+000	14	9.9691320E-003	5.2725989E-007	1.1360086E-005	5.1654821E-005	5.2889245E-005	7.7596786E+001
1.1020596E+000	5.7475972E+003	2.5806150E+004	2.6438463E+004	-7.7443909E+001	2.752757210747222E+001	-1.0074941E-002	1.5870598E-006	5.5961819E+000	5.3317022E+000	1.000000000000000E+000	14	9.9674864E-003	3.7700704E-007	8.2226898E-006	3.6919075E-005	3.7823680E-005	7.7443909E+001
7.4560940E-001	8.2436270E+003	3.6320477E+004	3.7244254E+004	-7.7212273E+001	3.319938091016957E+001	-1.0075339E-002	8.4422993E-007	5.8770208E+000	5.5890980E+000	1.000000000000000E+000	14	9.9686272E-003	2.6765545E-007	5.9429199E-006	2.6183818E-005	2.6849779E-005	7.7212273E+001
5.0390220E-001	1.1866491E+004	5.0971797E+004	5.2334859E+004	-7.6894684E+001	4.157525312135112E+001	-1.0072114E-002	4.7581875E-007	6.1964641E+000	5.8778930E+000	1.000000000000000E+000	14	9.9668819E-003	1.9044442E-007	4.3325172E-006	1.8610061E-005	1.9107723E-005	7.6894684E+001
3.4010270E-001	1.7639906E+004	7.1336328E+004	7.3484953E+004	-7.6110634E+001	5.396872005673504E+001	-1.0075285E-002	1.1913886E-006	6.5599313E+000	6.1819282E+000	1.000000000000000E+000	14	9.9690864E-003	1.3566159E-007	3.2666262E-006	1.3210338E-005	1.3608228E-005	7.6110634E+001
2.3021273E-001	2.6893471E+004	9.9571883E+004	1.0313980E+005	-7.4885567E+001	7.226189031224931E+001	-1.0073722E-002	1.1399700E-006	6.9431105E+000	6.4710522E+000	1.000000000000000E+000	14	9.9659842E-003	9.6625975E-008	2.5280999E-006	9.3601793E-006	9.6955782E-006	7.4885567E+001
1.5547264E-001	4.1681852E+004	1.3763723E+005	1.4381023E+005	-7.3151665E+001	9.933318546469673E+001	-1.0074929E-002	1.0805107E-006	7.4375558E+000	6.8127508E+000	1.000000000000000E+000	14	9.9676643E-003	6.9311227E-008	2.0154289E-006	6.6551270E-006	6.9536081E-006	7.3151665E+001
1.0504906E-001	6.4540855E+004	1.8804659E+005	1.9881409E+005	-7.1056892E+001	1.393826649936782E+002	-1.0077239E-002	9.7390182E-007	8.0567980E+000	7.2077398E+000	1.000000000000000E+000	14	9.9670757E-003	5.0132641E-008	1.6328275E-006	4.7574163E-006	5.0298245E-006	7.1056892E+001
7.1022727E-002	1.0013317E+005	2.5255386E+005	2.7168016E+005	-6.8372543E+001	1.986035591397958E+002	-1.0077989E-002	9.8087526E-007	8.8729658E+000	7.6676269E+000	1.000000000000000E+000	14	9.9671753E-003	3.6687165E-008	1.3566322E-006	3.4216705E-006	3.6807987E-006	6.8372543E+001
4.7988325E-002	1.5385289E+005	3.3365897E+005	3.6742213E+005	-6.5245186E+001	2.862344858620490E+002	-1.0084126E-002	1.1118170E-006	9.9398937E+000	8.1970339E+000	1.000000000000000E+000	14	9.9650035E-003	2.7121402E-008	1.1396593E-006	2.4715659E-006	2.7216652E-006	6.5245186E+001
3.2443926E-002	2.2904572E+005	4.3075109E+005	4.8786109E+005	-6.1998829E+001	4.158348053511145E+002	-1.0076798E-002	1.2406022E-006	1.1388338E+001	8.8781147E+000	1.000000000000000E+000	14	9.9668344E-003	2.0429656E-008	9.6234271E-007	1.8098142E-006	2.0497637E-006	6.1998829E+001
2.1920588E-002	3.3390800E+005	5.4580269E+005	6.3983994E+005	-5.8542782E+001	6.076359019011725E+002	-1.0092658E-002	1.5873288E-006	1.3302468E+001	9.6796780E+000	1.000000000000000E+000	14	9.9656899E-003	1.5575285E-008	8.1561302E-007	1.3331929E-006	1.5628909E-006	5.8542782E+001
1.4807615E-002	4.6689322E+005	6.7107394E+005	8.1751425E+005	-5.5172108E+001	8.915535357598274E+002	-1.0081757E-002	9.3772854E-007	1.6016390E+001	1.0792317E+001	1.000000000000000E+000	14	9.9669220E-003	1.2191741E-008	6.9859726E-007	1.0041064E-006	1.2232202E-006	5.5172108E+001
1.0000636E-002	6.3380400E+005	7.9977731E+005	1.0204662E+006	-5.1604034E+001	1.311926570206444E+003	-1.0086112E-002	8.0075324E-007	1.9898642E+001	1.2222621E+001	1.000000000000000E+000	14	9.9667497E-003	9.7668593E-009	6.0863613E-007	7.6801877E-007	9.7994428E-007	5.1604034E+001