EC-Lab ASCII FILE
Nb header lines : 62                          

Potentio Electrochemical Impedance Spectroscopy

Run on channel : 4 (SN 35517)
User : 
CE vs. WE compliance from -10 V to 10 V
Electrode connection : standard
Ewe ctrl range : min = -5.00 V, max = 5.00 V
Safety Limits :
	Do not start on E overload
Acquisition started on : 07/10/2023 07:23:32
Technique started on : 07/10/2023 07:23:34
Saved on :
	File : 0708_01_EIS_0.5MTFSI_SymCell_OutsideGB_sanded_60C_overnight_C04.mpr
	Directory : C:\Users\CESL\Documents\EC-Lab\Data\PhD\Leifer\Results\Zn Ion GPE\2023\0708\
	Host : 10.110.196.171
Device : VSP (SN 1724172417241724)
Address : USB
EC-Lab for windows v11.16 (software)
Internet server v11.16 (firmware)
Command interpretor v11.16 (firmware)
Electrode material : Au/Pd
Initial state : 
Electrolyte : NaCl (0.2M)
Comments : Fe(CN)63-/Fe(CN)64- 5.10-3 M
Reference electrode : SCE Saturated Calomel Electrode (0.241 V)
Electrode surface area : 0.001 cm²
Characteristic mass : 0.001 g
Equivalent Weight : 0.000 g/eq.
Density : 0.000 g/cm3
Cycle Definition : Charge/Discharge alternance
Mode                Single sine         
E (V)               0.0000              
vs.                 Eoc                 
tE (h:m:s)          0:00:0.0000         
record              0                   
dI                  0.000               
unit dI             mA                  
dt (s)              0.000               
fi                  1.000               
unit fi             MHz                 
ff                  10.000              
unit ff             mHz                 
Nd                  6                   
Points              per decade          
spacing             Logarithmic         
Va (mV)             10.0                
pw                  0.10                
Na                  2                   
corr                1                   
E range min (V)     -5.000              
E range max (V)     5.000               
I Range             Auto                
Bandwidth           5                   
nc cycles           0                   
goto Ns'            0                   
nr cycles           0                   
inc. cycle          0                   

freq/Hz	Re(Z)/Ohm	-Im(Z)/Ohm	|Z|/Ohm	Phase(Z)/deg	time/s	<Ewe>/V	<I>/mA	Cs/µF	Cp/µF	cycle number	I Range	|Ewe|/V	|I|/A	Re(Y)/Ohm-1	Im(Y)/Ohm-1	|Y|/Ohm-1	Phase(Y)/deg	
1.0000193E+006	2.6601321E+002	8.7611755E+001	2.8006937E+002	-1.8229359E+001	2.488094864849700E+000	1.4607896E-004	3.5925105E-004	1.8165584E-003	1.7776364E-004	1.000000000000000E+000	11	1.0382243E-003	3.7070256E-006	3.3913453E-003	1.1169434E-003	3.5705441E-003	1.8229359E+001
6.7575181E+005	7.7206947E+001	2.0325287E+001	7.9837524E+001	-1.4748885E+001	2.897081070928834E+000	8.9951995E-005	8.7321922E-004	1.1587673E-002	7.5102685E-004	1.000000000000000E+000	11	4.3547801E-003	5.4545530E-005	1.2112737E-002	3.1887654E-003	1.2525438E-002	1.4748885E+001
4.5664050E+005	6.2612679E+001	2.0142698E+001	6.5772911E+001	-1.7833149E+001	3.306089410354616E+000	2.7640219E-004	7.2349404E-004	1.7303264E-002	1.6228157E-003	1.000000000000000E+000	11	9.9195205E-003	1.5081468E-004	1.4473320E-002	4.6561132E-003	1.5203828E-002	1.7833149E+001
3.0857416E+005	6.1321438E+001	2.2903011E+001	6.5458893E+001	-2.0480213E+001	3.847078476072056E+000	2.4218518E-004	8.8162202E-004	2.2519980E-002	2.7568673E-003	1.000000000000000E+000	11	1.0156953E-002	1.5516535E-004	1.4311166E-002	5.3450936E-003	1.5276764E-002	2.0480213E+001
2.0852534E+005	6.4224121E+001	2.7086126E+001	6.9702194E+001	-2.2867285E+001	4.256097642151872E+000	2.7246770E-004	9.3912327E-004	2.8178273E-002	4.2551542E-003	1.000000000000000E+000	11	1.0970035E-002	1.5738435E-004	1.3219203E-002	5.5751172E-003	1.4346750E-002	2.2867285E+001
1.4090817E+005	6.9327011E+001	3.2091785E+001	7.6394485E+001	-2.4839628E+001	4.665083208237775E+000	3.0459627E-004	9.3650835E-004	3.5195738E-002	6.2108897E-003	1.000000000000000E+000	11	1.0916592E-002	1.4289764E-004	1.1878962E-002	5.4988242E-003	1.3089950E-002	2.4839628E+001
9.5214820E+004	7.6119827E+001	3.8029297E+001	8.5090866E+001	-2.6546612E+001	5.074091867631068E+000	2.9808850E-004	6.7831145E-004	4.3953884E-002	8.7794634E-003	1.000000000000000E+000	11	1.0794998E-002	1.2686435E-004	1.0513127E-002	5.2523348E-003	1.1752143E-002	2.6546612E+001
6.4345688E+004	8.4454002E+001	4.4959282E+001	9.5675575E+001	-2.8028708E+001	5.483085647108965E+000	3.1742529E-004	8.8012690E-004	5.5015028E-002	1.2148366E-002	1.000000000000000E+000	11	1.0643553E-002	1.1124629E-004	9.2260987E-003	4.9115345E-003	1.0451988E-002	2.8028708E+001
4.3476547E+004	9.4278374E+001	5.2910912E+001	1.0811095E+002	-2.9302013E+001	5.892076066520531E+000	3.2115466E-004	7.7595189E-004	6.9186263E-002	1.6571851E-002	1.000000000000000E+000	11	1.0512471E-002	9.7237804E-005	8.0662696E-003	4.5269523E-003	9.2497570E-003	2.9302013E+001
2.9384758E+004	1.0571139E+002	6.2796864E+001	1.2295667E+002	-3.0712034E+001	6.301079419296002E+000	3.2275828E-004	8.1646361E-004	8.6250193E-002	2.2497371E-002	1.000000000000000E+000	11	1.0327040E-002	8.3989260E-005	6.9922595E-003	4.1536866E-003	8.1329457E-003	3.0712034E+001
1.9853508E+004	1.1889091E+002	7.4685875E+001	1.4040309E+002	-3.2136555E+001	6.710096852009883E+000	3.1733204E-004	8.4185338E-004	1.0733575E-001	3.0371625E-002	1.000000000000000E+000	11	1.0171094E-002	7.2442097E-005	6.0310834E-003	3.7886554E-003	7.1223504E-003	3.2136555E+001
1.3417967E+004	1.3404469E+002	8.9688560E+001	1.6128241E+002	-3.3786263E+001	6.987088411871810E+000	3.1621326E-004	8.0171425E-004	1.3225020E-001	4.0897474E-002	1.000000000000000E+000	11	1.0567397E-002	6.5521075E-005	5.1531834E-003	3.4479667E-003	6.2003043E-003	3.3786263E+001
9.0820293E+003	1.5114102E+002	1.0883517E+002	1.8624904E+002	-3.5757290E+001	7.283337012602715E+000	3.2764379E-004	5.8888423E-004	1.6101561E-001	5.4981727E-002	1.000000000000000E+000	11	1.0618982E-002	5.7014960E-005	4.3570674E-003	3.1374816E-003	5.3691552E-003	3.5757290E+001
6.1409590E+003	1.7005624E+002	1.3361565E+002	2.1626897E+002	-3.8157230E+001	7.686638445120479E+000	3.2700980E-004	4.3784935E-004	1.9396645E-001	7.4037686E-002	1.000000000000000E+000	11	1.0557086E-002	4.8814614E-005	3.6358349E-003	2.8567279E-003	4.6238718E-003	3.8157230E+001
4.1413242E+003	1.9281372E+002	1.6633241E+002	2.5464407E+002	-4.0782982E+001	8.152690307251760E+000	3.7097911E-004	6.3779717E-004	2.3104897E-001	9.8580420E-002	1.000000000000000E+000	11	1.0493717E-002	4.1209350E-005	2.9735195E-003	2.5651325E-003	3.9270502E-003	4.0782982E+001
2.7973140E+003	2.1938005E+002	2.1105370E+002	3.0441956E+002	-4.3891804E+001	8.618923236033879E+000	3.7310485E-004	5.6554662E-004	2.6957893E-001	1.2957665E-001	1.000000000000000E+000	11	1.0432926E-002	3.4271536E-005	2.3672930E-003	2.2774448E-003	3.2849400E-003	4.3891804E+001
1.8906046E+003	2.5107707E+002	2.7136462E+002	3.6970050E+002	-4.7223804E+001	9.557673547322338E+000	3.3873864E-004	1.0905750E-004	3.1021741E-001	1.6713698E-001	1.000000000000000E+000	12	1.0099445E-002	2.7317910E-005	1.8369908E-003	1.9854237E-003	2.7048923E-003	4.7223804E+001
1.2871166E+003	2.8657883E+002	3.5360333E+002	4.5515134E+002	-5.0976864E+001	1.002419231607928E+001	3.4054738E-004	-3.7749584E-007	3.4969217E-001	2.1106049E-001	1.000000000000000E+000	12	9.8334691E-003	2.1604834E-005	1.3833512E-003	1.7068867E-003	2.1970714E-003	5.0976864E+001
8.6306641E+002	3.3313412E+002	4.6693402E+002	5.7359021E+002	-5.4494038E+001	1.049117684495286E+001	3.3433799E-004	-1.9733599E-005	3.9493027E-001	2.6171461E-001	1.000000000000000E+000	12	9.6720550E-003	1.6862308E-005	1.0125481E-003	1.4192276E-003	1.7434049E-003	5.4494038E+001
5.8369244E+002	3.9061945E+002	6.2703992E+002	7.3875751E+002	-5.8078835E+001	1.095820956045645E+001	3.3528896E-004	4.2440523E-005	4.3485141E-001	3.1327623E-001	1.000000000000000E+000	12	9.5818015E-003	1.2970158E-005	7.1573135E-004	1.1489242E-003	1.3536242E-003	5.8078835E+001
3.9411707E+002	4.8047653E+002	8.5377881E+002	9.7969177E+002	-6.0630730E+001	1.142518627599929E+001	3.3051538E-004	7.9808466E-005	4.7298732E-001	3.5922068E-001	1.000000000000000E+000	12	9.5286649E-003	9.7261864E-006	5.0060276E-004	8.8954199E-004	1.0207292E-003	6.0630730E+001
2.6644943E+002	5.6798425E+002	1.1467576E+003	1.2797106E+003	-6.3650978E+001	1.188866341803805E+001	3.3195119E-004	4.7797337E-005	5.2087528E-001	4.1826683E-001	1.000000000000000E+000	12	9.4970698E-003	7.4212635E-006	3.4682688E-004	7.0024194E-004	7.8142667E-004	6.3650978E+001
1.8005759E+002	7.2792096E+002	1.5894821E+003	1.7482340E+003	-6.5394058E+001	1.235368325345917E+001	3.3482281E-004	5.1903658E-005	5.5610025E-001	4.5969015E-001	1.000000000000000E+000	12	9.4821770E-003	5.4238603E-006	2.3816897E-004	5.2006362E-004	5.7200581E-004	6.5394058E+001
1.2159529E+002	9.5325482E+002	2.1799373E+003	2.3792480E+003	-6.6380943E+001	1.306312683378928E+001	3.4205779E-004	-1.5935730E-005	6.0042584E-001	5.0404340E-001	1.000000000000000E+000	13	9.5554655E-003	4.0161704E-006	1.6839514E-004	3.8509208E-004	4.2030087E-004	6.6380943E+001
8.2236801E+001	1.2961665E+003	2.9667295E+003	3.2375193E+003	-6.6399445E+001	1.351829394875676E+001	3.4224425E-004	-1.3863799E-005	6.5234298E-001	5.4778123E-001	1.000000000000000E+000	13	9.5030218E-003	2.9352789E-006	1.2366194E-004	2.8304351E-004	3.0887846E-004	6.6399445E+001
5.5515171E+001	1.8469142E+003	3.9974282E+003	4.4034673E+003	-6.5201851E+001	1.397991029068362E+001	3.4519046E-004	-1.4317409E-005	7.1717936E-001	5.9101647E-001	1.000000000000000E+000	13	9.4814524E-003	2.1531789E-006	9.5248295E-005	2.0615368E-004	2.2709377E-004	6.5201851E+001
3.7560089E+001	2.6734456E+003	5.3630859E+003	5.9924956E+003	-6.3504196E+001	1.447175242072262E+001	3.4371737E-004	-1.0720418E-005	7.9009396E-001	6.3283843E-001	1.000000000000000E+000	13	9.4740912E-003	1.5809926E-006	7.4448493E-005	1.4934796E-004	1.6687538E-004	6.3504196E+001
2.5365252E+001	4.1162959E+003	6.9454487E+003	8.0736084E+003	-5.9346436E+001	1.493085604251246E+001	3.3418881E-004	-8.3498044E-006	9.0340126E-001	6.6856849E-001	1.000000000000000E+000	13	9.4619477E-003	1.1719602E-006	6.3149695E-005	1.0655283E-004	1.2386036E-004	5.9346436E+001
1.7132671E+001	6.1954585E+003	8.8991543E+003	1.0843369E+004	-5.5154938E+001	1.534484382218216E+001	3.3528896E-004	-2.3863413E-005	1.0438697E+000	7.0309705E-001	1.000000000000000E+000	13	9.4690593E-003	8.7325805E-007	5.2692038E-005	7.5686818E-005	9.2222261E-005	5.5154938E+001
1.1591243E+001	8.9881074E+003	1.0477078E+004	1.3804175E+004	-4.9374268E+001	1.598026550564100E+001	3.3271572E-004	-7.1296377E-006	1.3105390E+000	7.5493473E-001	1.000000000000000E+000	14	9.4829937E-003	6.8696562E-007	4.7167985E-005	5.4981840E-005	7.2441850E-005	4.9374268E+001
7.8281527E+000	1.2638356E+004	1.1477796E+004	1.7072430E+004	-4.2244835E+001	1.656125603991677E+001	3.3792751E-004	-9.3245162E-006	1.7713416E+000	8.0062413E-001	1.000000000000000E+000	14	9.4681056E-003	5.5458452E-007	4.3361066E-005	3.9379287E-005	5.8573973E-005	4.2244835E+001
5.2930207E+000	1.6572814E+004	1.1503349E+004	2.0173875E+004	-3.4764885E+001	1.739773301302921E+001	3.4473697E-004	-8.0528271E-006	2.6139197E+000	8.4988892E-001	1.000000000000000E+000	14	9.4701312E-003	4.6942549E-007	4.0720923E-005	2.8264783E-005	4.9569058E-005	3.4764885E+001
3.5755143E+000	2.0141350E+004	1.0621845E+004	2.2770541E+004	-2.7805601E+001	1.861338051073835E+001	3.5330956E-004	-7.4306231E-006	4.1906528E+000	9.1187412E-001	1.000000000000000E+000	14	9.4676735E-003	4.1578605E-007	3.8845603E-005	2.0485817E-005	4.3916392E-005	2.7805601E+001
2.4172332E+000	2.3036775E+004	9.2408643E+003	2.4821092E+004	-2.1857464E+001	2.039059392843046E+001	3.4505528E-004	-8.0009668E-006	7.1250672E+000	9.8758024E-001	1.000000000000000E+000	14	9.4703883E-003	3.8154599E-007	3.7392107E-005	1.4999294E-005	4.0288316E-005	2.1857464E+001
1.6327059E+000	2.5193699E+004	7.7531987E+003	2.6359715E+004	-1.7105412E+001	2.300147999913315E+001	3.4283102E-004	-7.4904965E-006	1.2572779E+001	1.0877063E+000	1.000000000000000E+000	14	9.4690481E-003	3.5922423E-007	3.6258556E-005	1.1158337E-005	3.7936676E-005	1.7105412E+001
1.1020596E+000	2.6732275E+004	6.4094224E+003	2.7489912E+004	-1.3482917E+001	2.685048618199653E+001	3.4510513E-004	-7.5131129E-006	2.2531815E+001	1.2248622E+000	1.000000000000000E+000	14	9.4687622E-003	3.4444497E-007	3.5374411E-005	8.4814901E-006	3.6376980E-005	1.3482917E+001
7.4560940E-001	2.7915822E+004	5.3183188E+003	2.8417910E+004	-1.0786317E+001	3.252221807805472E+001	3.4558802E-004	-7.7730347E-006	4.0136028E+001	1.4057201E+000	1.000000000000000E+000	14	9.4675645E-003	3.3315484E-007	3.4567354E-005	6.5855206E-006	3.5189078E-005	1.0786317E+001
5.0390220E-001	2.8796500E+004	4.5577637E+003	2.9154959E+004	-8.9938784E+000	4.089803426255821E+001	3.4383684E-004	-7.1016757E-006	6.9298218E+001	1.6935608E+000	1.000000000000000E+000	14	9.4698779E-003	3.2481191E-007	3.3877772E-005	5.3620015E-006	3.4299483E-005	8.9938784E+000
3.4010270E-001	2.9562551E+004	4.0237859E+003	2.9835135E+004	-7.7509499E+000	5.329151661120704E+001	3.4440393E-004	-6.3390457E-006	1.1629879E+002	2.1153824E+000	1.000000000000000E+000	14	9.4700847E-003	3.1741385E-007	3.3211301E-005	4.5204206E-006	3.3517528E-005	7.7509499E+000
2.3021273E-001	3.0148197E+004	3.7531028E+003	3.0380908E+004	-7.0961566E+000	7.158475622677361E+001	3.4392092E-004	-5.2416399E-006	1.8420453E+002	2.8111222E+000	1.000000000000000E+000	14	9.4710132E-003	3.1174227E-007	3.2663287E-005	4.0662021E-006	3.2915410E-005	7.0961566E+000
1.5547264E-001	3.0818807E+004	3.6946738E+003	3.1039482E+004	-6.8362064E+000	9.865595916591701E+001	3.4238846E-004	-6.0037578E-006	2.7707034E+002	3.9256659E+000	1.000000000000000E+000	14	9.4690965E-003	3.0506618E-007	3.1987984E-005	3.8348389E-006	3.2217031E-005	6.8362064E+000
1.0504906E-001	3.1433477E+004	3.9709014E+003	3.1683301E+004	-7.1998739E+000	1.387052866681188E+002	3.4091924E-004	-6.5419508E-006	3.8153894E+002	5.9931650E+000	1.000000000000000E+000	14	9.4689094E-003	2.9886121E-007	3.1313499E-005	3.9557449E-006	3.1562369E-005	7.1998739E+000
7.1022727E-002	3.2007023E+004	4.4003101E+003	3.2308084E+004	-7.8279243E+000	1.979259431609826E+002	3.4042049E-004	-6.6032308E-006	5.0925992E+002	9.4467773E+000	1.000000000000000E+000	14	9.4694421E-003	2.9309822E-007	3.0663585E-005	4.2156144E-006	3.0952007E-005	7.8279243E+000
4.7988325E-002	3.2868398E+004	5.2655415E+003	3.3287500E+004	-9.1014900E+000	2.855564877764846E+002	3.4358117E-004	-8.3252371E-006	6.2985632E+002	1.5760326E+001	1.000000000000000E+000	14	9.4686160E-003	2.8444958E-007	2.9663077E-005	4.7520466E-006	3.0041307E-005	9.1014900E+000
3.2443926E-002	3.3830891E+004	6.4831787E+003	3.4446492E+004	-1.0848348E+001	4.151563464654901E+002	3.4579105E-004	-1.0089479E-005	7.5665649E+002	2.6803082E+001	1.000000000000000E+000	14	9.4698928E-003	2.7491603E-007	2.8511722E-005	5.4638404E-006	2.9030532E-005	1.0848348E+001
2.1920588E-002	3.5619270E+004	7.9245547E+003	3.6490148E+004	-1.2542850E+001	6.069567800822551E+002	3.4250939E-004	-5.7528637E-006	9.1620587E+002	4.3210724E+001	1.000000000000000E+000	14	9.4686905E-003	2.5948623E-007	2.6750613E-005	5.9514609E-006	2.7404656E-005	1.2542850E+001
1.4807615E-002	3.7615797E+004	9.4636367E+003	3.8787996E+004	-1.4121778E+001	8.908743118609127E+002	3.4151756E-004	-3.8945236E-006	1.1357349E+003	6.7608047E+001	1.000000000000000E+000	14	9.4683263E-003	2.4410454E-007	2.5002048E-005	6.2901845E-006	2.5781172E-005	1.4121778E+001
1.0000636E-002	4.0350551E+004	1.0885064E+004	4.1792961E+004	-1.5096890E+001	1.311245810547509E+003	3.4308442E-004	-1.3260426E-005	1.4620476E+003	9.9178429E+001	1.000000000000000E+000	14	9.4705345E-003	2.2660596E-007	2.3101660E-005	6.2319609E-006	2.3927474E-005	1.5096890E+001