EC-Lab ASCII FILE
Nb header lines : 62                          

Potentio Electrochemical Impedance Spectroscopy

Run on channel : 1 (SN 35512)
User : 
CE vs. WE compliance from -10 V to 10 V
Electrode connection : standard
Ewe ctrl range : min = -5.00 V, max = 5.00 V
Safety Limits :
	Do not start on E overload
Acquisition started on : 07/08/2023 16:12:25
Technique started on : 07/08/2023 16:12:27
Saved on :
	File : 0708_01_EIS_0.5MTFSI_Blocking_InsideGB_C01.mpr
	Directory : C:\Users\CESL\Documents\EC-Lab\Data\PhD\Leifer\Results\Zn Ion GPE\2023\0708\
	Host : 10.110.196.171
Device : VSP (SN 1724172417241724)
Address : USB
EC-Lab for windows v11.16 (software)
Internet server v11.16 (firmware)
Command interpretor v11.16 (firmware)
Electrode material : Au/Pd
Initial state : 
Electrolyte : NaCl (0.2M)
Comments : Fe(CN)63-/Fe(CN)64- 5.10-3 M
Reference electrode : SCE Saturated Calomel Electrode (0.241 V)
Electrode surface area : 0.001 cm²
Characteristic mass : 0.001 g
Equivalent Weight : 0.000 g/eq.
Density : 0.000 g/cm3
Cycle Definition : Charge/Discharge alternance
Mode                Single sine         
E (V)               0.0000              
vs.                 Eoc                 
tE (h:m:s)          0:00:0.0000         
record              0                   
dI                  0.000               
unit dI             mA                  
dt (s)              0.000               
fi                  1.000               
unit fi             MHz                 
ff                  10.000              
unit ff             mHz                 
Nd                  6                   
Points              per decade          
spacing             Logarithmic         
Va (mV)             10.0                
pw                  0.10                
Na                  2                   
corr                1                   
E range min (V)     -5.000              
E range max (V)     5.000               
I Range             Auto                
Bandwidth           5                   
nc cycles           0                   
goto Ns'            0                   
nr cycles           0                   
inc. cycle          0                   

freq/Hz	Re(Z)/Ohm	-Im(Z)/Ohm	|Z|/Ohm	Phase(Z)/deg	time/s	<Ewe>/V	<I>/mA	Cs/µF	Cp/µF	cycle number	I Range	|Ewe|/V	|I|/A	Re(Y)/Ohm-1	Im(Y)/Ohm-1	|Y|/Ohm-1	Phase(Y)/deg	
1.0000193E+006	-3.7851700E+001	2.2584997E+001	4.4077583E+001	-1.4917671E+002	2.306096402840922E+000	3.7111366E-001	5.5135856E-003	7.0467959E-003	1.8501044E-003	1.000000000000000E+000	10	2.9834028E-004	6.7685264E-006	-1.9482732E-002	1.1624774E-002	2.2687269E-002	1.4917671E+002
6.7575181E+005	3.0566345E+001	-1.0840139E+001	3.2431622E+001	1.9526693E+001	2.715092395636020E+000	3.7049758E-001	6.9251922E-003	-2.1726912E-002	-2.4273391E-003	1.000000000000000E+000	10	1.5939517E-003	4.9148075E-005	2.9060708E-002	-1.0306176E-002	3.0834105E-002	-1.9526693E+001
4.5664050E+005	1.6663712E+001	-3.6226597E+000	1.7052946E+001	1.2265146E+001	3.124084948387463E+000	3.7060919E-001	8.4375003E-003	-9.6209548E-002	-4.3418459E-003	1.000000000000000E+000	10	5.6138379E-003	3.2920047E-004	5.7302415E-002	-1.2457437E-002	5.8640894E-002	-1.2265146E+001
3.0857416E+005	1.3911620E+001	-1.7100492E+000	1.4016328E+001	7.0077777E+000	3.533088034484535E+000	3.7041441E-001	8.6407680E-003	-3.0161434E-001	-4.4895280E-003	1.000000000000000E+000	10	1.0297183E-002	7.3465623E-004	7.0812389E-002	-8.7044258E-003	7.1345367E-002	-7.0077777E+000
2.0852534E+005	1.2920973E+001	-7.6423019E-001	1.2943554E+001	3.3849008E+000	4.074094833486015E+000	3.7038589E-001	8.3069773E-003	-9.9870467E-001	-3.4815962E-003	1.000000000000000E+000	10	1.0139126E-002	7.8333402E-004	7.7123754E-002	-4.5615993E-003	7.7258535E-002	-3.3849008E+000
1.4090817E+005	1.2543774E+001	-9.2873923E-002	1.2544118E+001	4.2420939E-001	4.615076139190933E+000	3.7039888E-001	9.5004048E-003	-1.2161585E+001	-6.6664943E-004	1.000000000000000E+000	10	1.0117828E-002	8.0657948E-004	7.9716459E-002	-5.9021951E-004	7.9718642E-002	-4.2420939E-001
9.5214820E+004	1.2380028E+001	5.4163551E-001	1.2391870E+001	-2.5051358E+000	5.024088318634313E+000	3.7039903E-001	9.3027465E-003	3.0860891E+000	5.8958847E-003	1.000000000000000E+000	10	1.0936585E-002	8.8256126E-004	8.0620944E-002	3.5272269E-003	8.0698065E-002	2.5051358E+000
6.4345688E+004	1.2341748E+001	1.2071038E+000	1.2400640E+001	-5.5861349E+000	5.433096098044189E+000	3.7040979E-001	9.0677878E-003	2.0490665E+000	1.9415883E-002	1.000000000000000E+000	10	1.0692487E-002	8.6225284E-004	8.0258034E-002	7.8497613E-003	8.0641001E-002	5.5861349E+000
4.3476547E+004	1.2357352E+001	2.0160787E+000	1.2520732E+001	-9.2660608E+000	5.842097904154798E+000	3.7039810E-001	1.0222055E-002	1.8157564E+000	4.7077473E-002	1.000000000000000E+000	10	1.0444358E-002	8.3416514E-004	7.8825362E-002	1.2860209E-002	7.9867534E-002	9.2660608E+000
2.9384758E+004	1.2424850E+001	3.1177800E+000	1.2810053E+001	-1.4086437E+001	6.251085683587007E+000	3.7039295E-001	9.5824515E-003	1.7372110E+000	1.0290623E-001	1.000000000000000E+000	10	1.0342156E-002	8.0734683E-004	7.5716287E-002	1.8999564E-002	7.8063689E-002	1.4086437E+001
1.9853508E+004	1.2536479E+001	4.6092992E+000	1.3356981E+001	-2.0187008E+001	6.660096129664453E+000	3.7039384E-001	9.2467954E-003	1.7391939E+000	2.0711005E-001	1.000000000000000E+000	10	1.0109736E-002	7.5688778E-004	7.0268221E-002	2.5835583E-002	7.4867219E-002	2.0187008E+001
1.3417967E+004	1.2734986E+001	6.7641168E+000	1.4419888E+001	-2.7974756E+001	6.937085502839182E+000	3.7040788E-001	1.0402929E-002	1.7535669E+000	3.8585201E-001	1.000000000000000E+000	10	1.0743652E-002	7.4505794E-004	6.1245579E-002	3.2530248E-002	6.9348671E-002	2.7974756E+001
9.0820293E+003	1.2972190E+001	9.8199282E+000	1.6269871E+001	-3.7125668E+001	7.234346583572915E+000	3.7041080E-001	9.9908216E-003	1.7845509E+000	6.5009576E-001	1.000000000000000E+000	10	1.0868940E-002	6.6804094E-004	4.9005531E-002	3.7097115E-002	6.1463304E-002	3.7125668E+001
6.1409590E+003	1.3344162E+001	1.4264868E+001	1.9533384E+001	-4.6909992E+001	7.637639082793612E+000	3.7041244E-001	9.6271979E-003	1.8168378E+000	9.6893954E-001	1.000000000000000E+000	10	1.0763035E-002	5.5100716E-004	3.4973275E-002	3.7386324E-002	5.1194407E-002	4.6909992E+001
4.1413242E+003	1.3893817E+001	2.0684183E+001	2.4917336E+001	-5.6110264E+001	8.103697558261047E+000	3.7044969E-001	1.1100334E-002	1.8579865E+000	1.2803128E+000	1.000000000000000E+000	10	1.0605451E-002	4.2562539E-004	2.2377850E-002	3.3314645E-002	4.0132701E-002	5.6110264E+001
2.7973140E+003	1.4720481E+001	3.0012560E+001	3.3428226E+001	-6.3873096E+001	8.569927473727148E+000	3.7044695E-001	1.0979122E-002	1.8957272E+000	1.5281123E+000	1.000000000000000E+000	10	1.0484603E-002	3.1364520E-004	1.3173322E-002	2.6858168E-002	2.9914839E-002	6.3873096E+001
1.8906046E+003	1.6035164E+001	4.3688591E+001	4.6538364E+001	-6.9845184E+001	9.508684504995472E+000	3.7041545E-001	1.1869875E-003	1.9268653E+000	1.6981076E+000	1.000000000000000E+000	11	1.0127347E-002	2.1761288E-004	7.4037407E-003	2.0171853E-002	2.1487648E-002	6.9845184E+001
1.2871166E+003	1.7772764E+001	6.2796242E+001	6.5262848E+001	-7.4197281E+001	9.975206313800300E+000	3.7041047E-001	9.3716383E-004	1.9691037E+000	1.8230722E+000	1.000000000000000E+000	11	9.7759319E-003	1.4979321E-004	4.1727554E-003	1.4743535E-002	1.5322654E-002	7.4197281E+001
8.6306641E+002	2.0587027E+001	9.1361206E+001	9.3651993E+001	-7.7301262E+001	1.044219660261297E+001	3.7041649E-001	8.7955507E-004	2.0184319E+000	1.9208953E+000	1.000000000000000E+000	11	9.5989592E-003	1.0249605E-004	2.3472509E-003	1.0416643E-002	1.0677829E-002	7.7301262E+001
5.8369244E+002	2.4386566E+001	1.3207004E+002	1.3430264E+002	-7.9538246E+001	1.090918547814363E+001	3.7041357E-001	9.0789172E-004	2.0645802E+000	1.9965088E+000	1.000000000000000E+000	11	9.5186178E-003	7.0874390E-005	1.3520147E-003	7.3220925E-003	7.4458700E-003	7.9538246E+001
3.9411707E+002	2.9962118E+001	1.9101674E+002	1.9335233E+002	-8.1085449E+001	1.137617627365398E+001	3.7041807E-001	9.5524581E-004	2.1140900E+000	2.0633245E+000	1.000000000000000E+000	11	9.4796177E-003	4.9027691E-005	8.0144516E-004	5.1094322E-003	5.1719057E-003	8.1085449E+001
2.6644943E+002	3.9375195E+001	2.7737085E+002	2.8015173E+002	-8.1920357E+001	1.209165529434904E+001	3.7042719E-001	1.0207019E-004	2.1534982E+000	2.1109576E+000	1.000000000000000E+000	12	9.6061537E-003	3.4289111E-005	5.0169055E-004	3.5340623E-003	3.5694942E-003	8.1920357E+001
1.8005759E+002	5.5931984E+001	4.0095093E+002	4.0483334E+002	-8.2058586E+001	1.255669880976347E+001	3.7042394E-001	9.6679985E-005	2.2045374E+000	2.1624565E+000	1.000000000000000E+000	12	9.5315417E-003	2.3544359E-005	3.4127737E-004	2.4464631E-003	2.4701522E-003	8.2058586E+001
1.2159529E+002	7.7802460E+001	5.7841284E+002	5.8362201E+002	-8.2339111E+001	1.301713229823508E+001	3.7042543E-001	1.1855624E-004	2.2629004E+000	2.2226853E+000	1.000000000000000E+000	12	9.4767241E-003	1.6237776E-005	2.2841785E-004	1.6981444E-003	1.7134377E-003	8.2339111E+001
8.2236801E+001	1.2748103E+002	8.3901343E+002	8.4864301E+002	-8.1360466E+001	1.347231706653838E+001	3.7042314E-001	8.1480275E-006	2.3066676E+000	2.2546170E+000	1.000000000000000E+000	12	9.4628297E-003	1.1150542E-005	1.7700912E-004	1.1649810E-003	1.1783518E-003	8.1360466E+001
5.5515171E+001	1.7401781E+002	1.1817992E+003	1.1945424E+003	-8.1623489E+001	1.393388404848520E+001	3.7042093E-001	5.0390208E-005	2.4258544E+000	2.3743734E+000	1.000000000000000E+000	12	9.4560646E-003	7.9160563E-006	1.2195251E-004	8.2821015E-004	8.3714066E-004	8.1623489E+001
3.7560089E+001	2.8705844E+002	1.7146757E+003	1.7385382E+003	-8.0496094E+001	1.442476948515105E+001	3.7042210E-001	-1.7775661E-005	2.4712210E+000	2.4038482E+000	1.000000000000000E+000	12	9.4500659E-003	5.4356387E-006	9.4973380E-005	5.6730094E-004	5.7519588E-004	8.0496094E+001
2.5365252E+001	4.4806888E+002	2.4264133E+003	2.4674375E+003	-7.9537453E+001	1.513386386548518E+001	3.7041581E-001	2.2066661E-005	2.5859265E+000	2.5006530E+000	1.000000000000000E+000	13	9.4581721E-003	3.8331964E-006	7.3595686E-005	3.9854052E-004	4.0527876E-004	7.9537453E+001
1.7132671E+001	7.1896436E+002	3.4161814E+003	3.4910178E+003	-7.8115067E+001	1.554782457849069E+001	3.7041706E-001	2.8291652E-005	2.7192812E+000	2.6039453E+000	1.000000000000000E+000	13	9.4501898E-003	2.7070014E-006	5.8993359E-005	2.8030886E-004	2.8644942E-004	7.8115067E+001
1.1591243E+001	1.1446010E+003	4.7476289E+003	4.8836558E+003	-7.6445290E+001	1.595725683789351E+001	3.7041208E-001	1.3027459E-005	2.8921003E+000	2.7332339E+000	1.000000000000000E+000	13	9.4470149E-003	1.9344145E-006	4.7991456E-005	1.9906124E-004	2.0476464E-004	7.6445290E+001
7.8281527E+000	1.5293859E+003	6.5636689E+003	6.7394932E+003	-7.6883667E+001	1.653825454550679E+001	3.7041751E-001	1.3996251E-005	3.0975204E+000	2.9380085E+000	1.000000000000000E+000	13	9.4494103E-003	1.4020951E-006	3.3671517E-005	1.4450810E-004	1.4837911E-004	7.6883667E+001
5.2930207E+000	2.4975920E+003	8.9694111E+003	9.3106553E+003	-7.4439789E+001	1.780173911222664E+001	3.7042105E-001	1.4386495E-005	3.3523750E+000	3.1111429E+000	1.000000000000000E+000	14	9.4531989E-003	1.0153097E-006	2.8811171E-005	1.0346738E-004	1.0740382E-004	7.4439789E+001
3.5755143E+000	3.3793547E+003	1.2161108E+004	1.2621909E+004	-7.4470337E+001	1.901731020989246E+001	3.7042418E-001	1.0682504E-005	3.6602306E+000	3.3978539E+000	1.000000000000000E+000	14	9.4538284E-003	7.4900146E-007	2.1212103E-005	7.6334887E-005	7.9227320E-005	7.4470337E+001
2.4172332E+000	4.2859219E+003	1.6667941E+004	1.7210154E+004	-7.5579613E+001	2.079452157430933E+001	3.7042466E-001	1.0945504E-005	3.9502046E+000	3.7052200E+000	1.000000000000000E+000	14	9.4469609E-003	5.4891785E-007	1.4470208E-005	5.6274603E-005	5.8105230E-005	7.5579613E+001
1.6327059E+000	5.3174287E+003	2.3187938E+004	2.3789818E+004	-7.7084312E+001	2.340543388502556E+001	3.7042630E-001	1.1623729E-005	4.2038774E+000	3.9938526E+000	1.000000000000000E+000	14	9.4459644E-003	3.9705913E-007	9.3954895E-006	4.0971310E-005	4.2034790E-005	7.7084312E+001
1.1020596E+000	6.4147910E+003	3.2901855E+004	3.3521359E+004	-7.8967590E+001	2.725444860113203E+001	3.7042624E-001	1.0390385E-005	4.3892941E+000	4.2285571E+000	1.000000000000000E+000	14	9.4462782E-003	2.8179878E-007	5.7087254E-006	2.9280409E-005	2.9831726E-005	7.8967590E+001
7.4560940E-001	8.0109858E+003	4.6995551E+004	4.7673449E+004	-8.0326195E+001	3.292619236386963E+001	3.7042916E-001	1.0359609E-005	4.5420513E+000	4.4137969E+000	1.000000000000000E+000	14	9.4468184E-003	1.9815681E-007	3.5247863E-006	2.0677766E-005	2.0976036E-005	8.0326195E+001
5.0390220E-001	1.0363216E+004	6.7807727E+004	6.8595070E+004	-8.1310585E+001	4.130202324173297E+001	3.7042749E-001	9.5557134E-006	4.6579485E+000	4.5516329E+000	1.000000000000000E+000	14	9.4452901E-003	1.3769633E-007	2.2024644E-006	1.4410974E-005	1.4578307E-005	8.1310585E+001
3.4010270E-001	1.4226689E+004	9.7720500E+004	9.8750672E+004	-8.1716759E+001	5.369548076370847E+001	3.7042692E-001	9.4490433E-006	4.7887745E+000	4.6893821E+000	1.000000000000000E+000	14	9.4456971E-003	9.5651977E-008	1.4588940E-006	1.0020873E-005	1.0126513E-005	8.1716759E+001
2.3021273E-001	2.0680070E+004	1.4117239E+005	1.4267905E+005	-8.1666130E+001	7.198876448597002E+001	3.7042388E-001	8.2336928E-006	4.8971229E+000	4.7942443E+000	1.000000000000000E+000	14	9.4466191E-003	6.6208877E-008	1.0158543E-006	6.9347275E-006	7.0087376E-006	8.1666130E+001
1.5547264E-001	3.0900139E+004	2.0317855E+005	2.0551481E+005	-8.1352509E+001	9.906000747843063E+001	3.7042624E-001	7.6028523E-006	5.0383496E+000	4.9244504E+000	1.000000000000000E+000	14	9.4460379E-003	4.5962807E-008	7.3160106E-007	4.8105153E-006	4.8658294E-006	8.1352509E+001
1.0504906E-001	4.9223957E+004	2.9115322E+005	2.9528494E+005	-8.0404007E+001	1.391094387139601E+002	3.7042150E-001	6.5278959E-006	5.2036295E+000	5.0590267E+000	1.000000000000000E+000	14	9.4464747E-003	3.1991050E-008	5.6453877E-007	3.3391736E-006	3.3865595E-006	8.0404007E+001
7.1022727E-002	8.1176602E+004	4.1811753E+005	4.2592478E+005	-7.9012840E+001	1.983302371268219E+002	3.7042800E-001	5.0872873E-006	5.3595018E+000	5.1648221E+000	1.000000000000000E+000	14	9.4460575E-003	2.2177760E-008	4.4747102E-007	2.3047965E-006	2.3478324E-006	7.9012840E+001
4.7988325E-002	1.2701824E+005	6.0646425E+005	6.1962288E+005	-7.8170921E+001	2.859610452624329E+002	3.7042400E-001	3.6404756E-006	5.4686399E+000	5.2388368E+000	1.000000000000000E+000	14	9.4468510E-003	1.5246130E-008	3.3083481E-007	1.5796116E-006	1.6138849E-006	7.8170921E+001
3.2443926E-002	3.4389422E+005	7.5989775E+005	8.3409100E+005	-6.5650711E+001	4.155612098714046E+002	3.7042415E-001	5.8355149E-006	6.4555254E+000	5.3581519E+000	1.000000000000000E+000	14	9.4449418E-003	1.1323634E-008	4.9430844E-007	1.0922656E-006	1.1989099E-006	6.5650711E+001
2.1920588E-002	3.1030019E+005	1.1423833E+006	1.1837760E+006	-7.4803665E+001	6.073621113281406E+002	3.7041879E-001	7.8977655E-006	6.3555937E+000	5.9188957E+000	1.000000000000000E+000	14	9.4444212E-003	7.9782163E-009	2.2143333E-007	8.1521614E-007	8.4475442E-007	7.4803665E+001
1.4807615E-002	4.6910313E+005	1.8064128E+006	1.8663293E+006	-7.5442551E+001	8.912803754802153E+002	3.7041873E-001	8.0199761E-006	5.9500146E+000	5.5741091E+000	1.000000000000000E+000	14	9.4453050E-003	5.0608997E-009	1.3467645E-007	5.1860951E-007	5.3581113E-007	7.5442551E+001
1.0000636E-002	8.4087631E+005	1.5203618E+006	1.7374040E+006	-6.1054050E+001	1.311652821820186E+003	3.7041304E-001	-5.5830392E-006	1.0467563E+001	8.0156326E+000	1.000000000000000E+000	14	9.4466740E-003	5.4372351E-009	2.7856754E-007	5.0366907E-007	5.7557139E-007	6.1054050E+001