EC-Lab ASCII FILE
Nb header lines : 62                          

Potentio Electrochemical Impedance Spectroscopy

Run on channel : 4 (SN 35517)
User : 
CE vs. WE compliance from -10 V to 10 V
Electrode connection : standard
Ewe ctrl range : min = -5.00 V, max = 5.00 V
Safety Limits :
	Do not start on E overload
Acquisition started on : 07/09/2023 16:27:00
Technique started on : 07/09/2023 16:27:02
Saved on :
	File : 0708_01_EIS_0.5MTFSI_SymCell_OutsideGB_sanded_60C_t2_C04.mpr
	Directory : C:\Users\CESL\Documents\EC-Lab\Data\PhD\Leifer\Results\Zn Ion GPE\2023\0708\
	Host : 10.110.196.171
Device : VSP (SN 1724172417241724)
Address : USB
EC-Lab for windows v11.16 (software)
Internet server v11.16 (firmware)
Command interpretor v11.16 (firmware)
Electrode material : Au/Pd
Initial state : 
Electrolyte : NaCl (0.2M)
Comments : Fe(CN)63-/Fe(CN)64- 5.10-3 M
Reference electrode : SCE Saturated Calomel Electrode (0.241 V)
Electrode surface area : 0.001 cm²
Characteristic mass : 0.001 g
Equivalent Weight : 0.000 g/eq.
Density : 0.000 g/cm3
Cycle Definition : Charge/Discharge alternance
Mode                Single sine         
E (V)               0.0000              
vs.                 Eoc                 
tE (h:m:s)          0:00:0.0000         
record              0                   
dI                  0.000               
unit dI             mA                  
dt (s)              0.000               
fi                  1.000               
unit fi             MHz                 
ff                  10.000              
unit ff             mHz                 
Nd                  6                   
Points              per decade          
spacing             Logarithmic         
Va (mV)             10.0                
pw                  0.10                
Na                  2                   
corr                1                   
E range min (V)     -5.000              
E range max (V)     5.000               
I Range             Auto                
Bandwidth           5                   
nc cycles           0                   
goto Ns'            0                   
nr cycles           0                   
inc. cycle          0                   

freq/Hz	Re(Z)/Ohm	-Im(Z)/Ohm	|Z|/Ohm	Phase(Z)/deg	time/s	<Ewe>/V	<I>/mA	Cs/µF	Cp/µF	cycle number	I Range	|Ewe|/V	|I|/A	Re(Y)/Ohm-1	Im(Y)/Ohm-1	|Y|/Ohm-1	Phase(Y)/deg	
1.0000193E+006	1.9326091E+002	-2.9689896E+001	1.9552818E+002	8.7338381E+000	2.488075744855450E+000	2.7899439E-003	1.8674691E-004	-5.3604725E-003	-1.2359522E-004	1.000000000000000E+000	11	7.4451667E-004	3.8077205E-006	5.0550480E-003	-7.7658670E-004	5.1143523E-003	-8.7338381E+000
6.7575181E+005	5.0866985E+001	-3.9679544E+000	5.1021515E+001	4.4604092E+000	2.897078617592342E+000	2.7001034E-003	-1.2297425E-004	-5.9356216E-002	-3.5899869E-004	1.000000000000000E+000	11	2.9110976E-003	5.7056273E-005	1.9540215E-002	-1.5242633E-003	1.9599576E-002	-4.4604092E+000
4.5664050E+005	3.9231262E+001	-1.0275805E+000	3.9244717E+001	1.5003996E+000	3.306091943668434E+000	2.9268309E-003	-3.2851961E-004	-3.3917966E-001	-2.3254078E-004	1.000000000000000E+000	11	8.1051411E-003	2.0652822E-004	2.5472401E-002	-6.6719606E-004	2.5481137E-002	-1.5003996E+000
3.0857416E+005	3.5858379E+001	8.5423058E-001	3.5868553E+001	-1.3646616E+000	3.715098389802733E+000	2.8107355E-003	1.0199760E-004	6.0378939E-001	3.4245852E-004	1.000000000000000E+000	11	1.0711730E-002	2.9863848E-004	2.7871668E-002	6.6396844E-004	2.7879575E-002	1.3646616E+000
2.0852534E+005	3.4861107E+001	2.4262712E+000	3.4945438E+001	-3.9812644E+000	4.124097235879162E+000	2.8465001E-003	2.0710431E-004	3.1457335E-001	1.5164205E-003	1.000000000000000E+000	11	1.0898079E-002	3.1185983E-004	2.8546983E-002	1.9868193E-003	2.8616039E-002	3.9812644E+000
1.4090817E+005	3.4947369E+001	4.0388412E+000	3.5179977E+001	-6.5923843E+000	4.533091841934947E+000	2.8799153E-003	4.3542891E-006	2.7965796E-001	3.6859517E-003	1.000000000000000E+000	11	1.0834487E-002	3.0797313E-004	2.8237313E-002	3.2633650E-003	2.8425260E-002	6.5923843E+000
9.5214820E+004	3.5617035E+001	5.6032705E+000	3.6055096E+001	-8.9404926E+000	4.941088527993998E+000	2.8956160E-003	-1.2987807E-004	2.9831421E-001	7.2048320E-003	1.000000000000000E+000	11	1.0705458E-002	2.9691940E-004	2.7398353E-002	4.3103080E-003	2.7735330E-002	8.9404926E+000
6.4345688E+004	3.6708347E+001	7.3526025E+000	3.7437462E+001	-1.1326340E+001	5.350080494128633E+000	2.8994386E-003	2.9931374E-005	3.3640280E-001	1.2975646E-002	1.000000000000000E+000	11	1.0652107E-002	2.8453069E-004	2.6190998E-002	5.2459999E-003	2.6711212E-002	1.1326340E+001
4.3476547E+004	3.8069908E+001	9.4054823E+000	3.9214550E+001	-1.3877496E+001	5.759075766865863E+000	2.9157358E-003	2.8327288E-004	3.8921005E-001	2.2389878E-002	1.000000000000000E+000	11	1.0596077E-002	2.7020779E-004	2.4756392E-002	6.1162696E-003	2.5500739E-002	1.3877496E+001
2.9384758E+004	3.9762962E+001	1.1919526E+001	4.1511063E+001	-1.6686867E+001	6.168095946282847E+000	2.9064871E-003	1.5482836E-004	4.5440078E-001	3.7465308E-002	1.000000000000000E+000	11	1.0580330E-002	2.5487976E-004	2.3075495E-002	6.9172154E-003	2.4089964E-002	1.6686867E+001
1.9853508E+004	4.1644974E+001	1.5166609E+001	4.4320763E+001	-2.0011026E+001	6.577095965709304E+000	2.9151393E-003	5.4574270E-005	5.2856010E-001	6.1895195E-002	1.000000000000000E+000	11	1.0481776E-002	2.3649809E-004	2.1200601E-002	7.7210083E-003	2.2562789E-002	2.0011026E+001
1.3417967E+004	4.3755566E+001	1.9490530E+001	4.7900211E+001	-2.4010160E+001	6.986094971798593E+000	2.9176006E-003	-3.1405278E-007	6.0856897E-001	1.0075862E-001	1.000000000000000E+000	11	1.0280306E-002	2.1461923E-004	1.9070340E-002	8.4947152E-003	2.0876735E-002	2.4010160E+001
9.0820293E+003	4.6242023E+001	2.5503510E+001	5.2808651E+001	-2.8877718E+001	7.423346352559747E+000	2.9212367E-003	2.7502827E-005	6.8712741E-001	1.6026069E-001	1.000000000000000E+000	11	1.0136823E-002	1.9195383E-004	1.6581610E-002	9.1451285E-003	1.8936291E-002	2.8877718E+001
6.1409590E+003	4.9201057E+001	3.3985649E+001	5.9797729E+001	-3.4634789E+001	7.826645811772323E+000	2.9114843E-003	1.4455830E-004	7.6258510E-001	2.4632591E-001	1.000000000000000E+000	11	1.0325337E-002	1.7267105E-004	1.3759576E-002	9.5044309E-003	1.6723042E-002	3.4634789E+001
4.1413242E+003	5.2834305E+001	4.5901630E+001	6.9988739E+001	-4.0983608E+001	8.292697753902758E+000	2.9463915E-003	7.7987288E-004	8.3724540E-001	3.6012450E-001	1.000000000000000E+000	11	1.0178756E-002	1.4543420E-004	1.0785981E-002	9.3706949E-003	1.4288013E-002	4.0983608E+001
2.7973140E+003	5.7583729E+001	6.2729240E+001	8.5151886E+001	-4.7448917E+001	8.758926922688261E+000	2.9414874E-003	7.7632564E-004	9.0700334E-001	4.9222127E-001	1.000000000000000E+000	11	9.9864844E-003	1.1727849E-004	7.9416595E-003	8.6513031E-003	1.1743722E-002	4.7448917E+001
1.8906046E+003	6.3694714E+001	8.6320015E+001	1.0727610E+002	-5.3576736E+001	9.222670411407307E+000	2.9526753E-003	7.6717720E-004	9.7523189E-001	6.3142961E-001	1.000000000000000E+000	11	9.8312376E-003	9.1644251E-005	5.5347430E-003	7.5007649E-003	9.3217408E-003	5.3576736E+001
1.2871166E+003	7.1874115E+001	1.1849131E+002	1.3858600E+002	-5.8759960E+001	9.689190646837233E+000	2.9531042E-003	8.1590307E-004	1.0435560E+000	7.6286912E-001	1.000000000000000E+000	11	9.7271781E-003	7.0188755E-005	3.7422585E-003	6.1694691E-003	7.2157360E-003	5.8759960E+001
8.6306641E+002	8.3173790E+001	1.6536432E+002	1.8510332E+002	-6.3298840E+001	1.015617298902362E+001	2.9445081E-003	7.5130683E-004	1.1151521E+000	8.8999861E-001	1.000000000000000E+000	11	9.6618328E-003	5.2196974E-005	2.4274935E-003	4.8262901E-003	5.4023885E-003	6.3298840E+001
5.8369244E+002	9.8841545E+001	2.3074710E+002	2.5102565E+002	-6.6811913E+001	1.062320829121745E+001	2.9496918E-003	7.4663892E-004	1.1816798E+000	9.9847251E-001	1.000000000000000E+000	11	9.6316952E-003	3.8369366E-005	1.5685681E-003	3.6618460E-003	3.9836569E-003	6.6811913E+001
3.9411707E+002	1.1984894E+002	3.2383405E+002	3.4530023E+002	-6.9690804E+001	1.134217971205362E+001	2.9363220E-003	-5.9117239E-005	1.2470170E+000	1.0967904E+000	1.000000000000000E+000	12	9.7776549E-003	2.8316386E-005	1.0051721E-003	2.7159937E-003	2.8960304E-003	6.9690804E+001
2.6644943E+002	1.5136661E+002	4.5384314E+002	4.7841974E+002	-7.1555328E+001	1.180566866743175E+001	2.9330589E-003	-6.0610568E-005	1.3161324E+000	1.1843851E+000	1.000000000000000E+000	12	9.6801035E-003	2.0233496E-005	6.6132040E-004	1.9828395E-003	2.0902148E-003	7.1555328E+001
1.8005759E+002	1.9871086E+002	6.3314380E+002	6.6359406E+002	-7.2575645E+001	1.227068868951756E+001	2.9293669E-003	1.4383066E-004	1.3960673E+000	1.2708845E+000	1.000000000000000E+000	12	9.6404450E-003	1.4527624E-005	4.5124933E-004	1.4377964E-003	1.5069454E-003	7.2575645E+001
1.2159529E+002	2.6443127E+002	8.9301233E+002	9.3134039E+002	-7.3505371E+001	1.273110804465250E+001	2.9377765E-003	-6.9794231E-005	1.4657029E+000	1.3475471E+000	1.000000000000000E+000	12	9.6110078E-003	1.0319543E-005	3.0485683E-004	1.0295338E-003	1.0737213E-003	7.3505371E+001
8.2236801E+001	3.7850635E+002	1.2631704E+003	1.3186609E+003	-7.3319267E+001	1.318629241295275E+001	2.9298703E-003	-5.6228732E-006	1.5321171E+000	1.4058845E+000	1.000000000000000E+000	12	9.5971338E-003	7.2779394E-006	2.1767415E-004	7.2643318E-004	7.5834506E-004	7.3319267E+001
5.5515171E+001	5.8537250E+002	1.7388030E+003	1.8346925E+003	-7.1394058E+001	1.364791302158847E+001	2.9314365E-003	-2.4871410E-006	1.6487625E+000	1.4809222E+000	1.000000000000000E+000	12	9.5902560E-003	5.2271735E-006	1.7390250E-004	5.1656360E-004	5.4505048E-004	7.1394058E+001
3.7560089E+001	9.2473438E+002	2.3909600E+003	2.5635566E+003	-6.8855385E+001	1.440474281753995E+001	2.9414126E-003	-3.4575947E-005	1.7722347E+000	1.5416294E+000	1.000000000000000E+000	13	9.6180504E-003	3.7518384E-006	1.4071200E-004	3.6381991E-004	3.9008306E-004	6.8855385E+001
2.5365252E+001	1.5026940E+003	3.2084685E+003	3.5429309E+003	-6.4903847E+001	1.486386139932438E+001	2.9408720E-003	-3.1152580E-005	1.9556142E+000	1.6038117E+000	1.000000000000000E+000	13	9.5991800E-003	2.7093895E-006	1.1971405E-004	2.5560681E-004	2.8225218E-004	6.4903847E+001
1.7132671E+001	2.4393035E+003	4.1324570E+003	4.7986875E+003	-5.9447529E+001	1.527785499233869E+001	2.9346810E-003	-2.9108627E-005	2.2479503E+000	1.6670877E+000	1.000000000000000E+000	13	9.5973210E-003	1.9999889E-006	1.0593047E-004	1.7945823E-004	2.0839031E-004	5.9447529E+001
1.1591243E+001	3.8569194E+003	4.9912603E+003	6.3078130E+003	-5.2305496E+001	1.568729653177434E+001	2.9325366E-003	-2.8638249E-005	2.7509325E+000	1.7224345E+000	1.000000000000000E+000	13	9.5928805E-003	1.5207934E-006	9.6935524E-005	1.2544479E-004	1.5853356E-004	5.2305496E+001
7.8281527E+000	5.5902104E+003	5.5192915E+003	7.8557642E+003	-4.4634247E+001	1.626930037271813E+001	2.9372359E-003	-3.0299561E-005	3.6836429E+000	1.8183074E+000	1.000000000000000E+000	13	9.5925173E-003	1.2210801E-006	9.0583955E-005	8.9434776E-005	1.2729506E-004	4.4634247E+001
5.2930207E+000	7.5848364E+003	5.5250630E+003	9.3838193E+003	-3.6070919E+001	1.753267987278377E+001	2.9362913E-003	-2.1817479E-005	5.4422603E+000	1.8866637E+000	1.000000000000000E+000	14	9.5962267E-003	1.0226355E-006	8.6136446E-005	6.2744832E-005	1.0656642E-004	3.6070919E+001
3.5755143E+000	9.2909922E+003	5.0582700E+003	1.0578688E+004	-2.8565081E+001	1.874730206376989E+001	2.9450343E-003	-1.9845302E-005	8.7999382E+000	2.0119634E+000	1.000000000000000E+000	14	9.5950812E-003	9.0702002E-007	8.3023020E-005	4.5199999E-005	9.4529685E-005	2.8565081E+001
2.4172332E+000	1.0640170E+004	4.3802422E+003	1.1506509E+004	-2.2375509E+001	2.052450988147757E+001	2.9420140E-003	-2.0055551E-005	1.5031540E+001	2.1782742E+000	1.000000000000000E+000	14	9.5932530E-003	8.3372407E-007	8.0363978E-005	3.3083463E-005	8.6907334E-005	2.2375509E+001
1.6327059E+000	1.1702734E+004	3.6877747E+003	1.2270031E+004	-1.7490723E+001	2.313539245884749E+001	2.9381379E-003	-2.2471248E-005	2.6433083E+001	2.3877299E+000	1.000000000000000E+000	14	9.5931245E-003	7.8183376E-007	7.7731311E-005	2.4494751E-005	8.1499384E-005	1.7490723E+001
1.1020596E+000	1.2525730E+004	3.0127446E+003	1.2882956E+004	-1.3524143E+001	2.698475389505620E+001	2.9405619E-003	-1.8779536E-005	4.7935001E+001	2.6214786E+000	1.000000000000000E+000	14	9.5946109E-003	7.4475230E-007	7.5469594E-005	1.8152285E-005	7.7621939E-005	1.3524143E+001
7.4560940E-001	1.3164590E+004	2.3826956E+003	1.3378478E+004	-1.0259060E+001	3.265647187104332E+001	2.9405525E-003	-2.0620584E-005	8.9586014E+001	2.8416064E+000	1.000000000000000E+000	14	9.5949462E-003	7.1719268E-007	7.3551913E-005	1.3312363E-005	7.4746924E-005	1.0259060E+001
5.0390220E-001	1.3655951E+004	1.7721667E+003	1.3770460E+004	-7.3940930E+000	4.103230626889854E+001	2.9388152E-003	-2.0095735E-005	1.7822527E+002	2.9517634E+000	1.000000000000000E+000	14	9.5935445E-003	6.9667567E-007	7.2015348E-005	9.3456110E-006	7.2619216E-005	7.3940930E+000
3.4010270E-001	1.3948729E+004	1.1840596E+003	1.3998895E+004	-4.8520093E+000	5.342568051093986E+001	2.9409963E-003	-2.2037199E-005	3.9521780E+002	2.8274577E+000	1.000000000000000E+000	14	9.5938556E-003	6.8532950E-007	7.1178227E-005	6.0420739E-006	7.1434210E-005	4.8520093E+000
2.3021273E-001	1.4088924E+004	6.9042896E+002	1.4105831E+004	-2.8055403E+000	7.171893804648425E+001	2.9391167E-003	-2.0224434E-005	1.0013174E+003	2.3989015E+000	1.000000000000000E+000	14	9.5934831E-003	6.8010763E-007	7.0807699E-005	3.4699374E-006	7.0892667E-005	2.8055403E+000
1.5547264E-001	1.4117785E+004	3.0138345E+002	1.4121002E+004	-1.2229522E+000	9.879012634561514E+001	2.9432629E-003	-1.0553988E-005	3.3966187E+003	1.5472288E+000	1.000000000000000E+000	14	9.5929382E-003	6.7933837E-007	7.0800372E-005	1.5114312E-006	7.0816503E-005	1.2229522E+000
1.0504906E-001	1.4074412E+004	5.5243652E+001	1.4074521E+004	-2.2489123E-001	1.388394593944831E+002	2.9433856E-003	-4.4578060E-006	2.7424934E+004	4.2251599E-001	1.000000000000000E+000	14	9.5933098E-003	6.8160830E-007	7.1049835E-005	2.7887859E-007	7.1050381E-005	2.2489123E-001
7.1022727E-002	1.3938107E+004	-1.0330473E+002	1.3938490E+004	4.2464992E-001	1.980601090073178E+002	2.9443845E-003	5.3197487E-006	-2.1692150E+004	-1.1915479E+000	1.000000000000000E+000	14	9.5937857E-003	6.8829445E-007	7.1741808E-005	-5.3172698E-007	7.1743780E-005	-4.2464992E-001
4.7988325E-002	1.3858036E+004	-1.6792603E+002	1.3859054E+004	6.9425285E-001	2.856907145295991E+002	2.9434578E-003	2.9190322E-005	-1.9749975E+004	-2.8995819E+000	1.000000000000000E+000	14	9.5928125E-003	6.9216935E-007	7.2149698E-005	-8.7428054E-007	7.2154995E-005	-6.9425285E-001
3.2443926E-002	1.3989677E+004	-1.5828061E+002	1.3990572E+004	6.4822251E-001	4.152905645518622E+002	2.9475202E-003	7.7681521E-005	-3.0992672E+004	-3.9668291E+000	1.000000000000000E+000	14	9.5939748E-003	6.8574570E-007	7.1472125E-005	-8.0864277E-007	7.1476701E-005	-6.4822251E-001
2.1920588E-002	1.4185140E+004	-4.7392155E+001	1.4185219E+004	1.9142288E-001	6.070909975286049E+002	2.9495752E-003	1.6729654E-004	-1.5320095E+005	-1.7100244E+000	1.000000000000000E+000	14	9.5936814E-003	6.7631538E-007	7.0495524E-005	-2.3552357E-007	7.0495917E-005	-1.9142288E-001
1.4807615E-002	1.4159157E+004	8.7569839E+001	1.4159428E+004	-3.5435149E-001	8.910084868806007E+002	2.9489044E-003	2.8512927E-004	1.2273841E+005	4.6945953E+000	1.000000000000000E+000	14	9.5939394E-003	6.7756548E-007	7.0622969E-005	4.3678043E-007	7.0624323E-005	3.5435149E-001
1.0000636E-002	1.3921434E+004	-1.2301425E+002	1.3921978E+004	5.0627071E-001	1.311379975807213E+003	2.9482148E-003	4.2496034E-004	-1.2937104E+005	-1.0100574E+001	1.000000000000000E+000	14	9.5920395E-003	6.8898544E-007	7.1826078E-005	-6.3467826E-007	7.1828879E-005	-5.0627071E-001