EC-Lab ASCII FILE
Nb header lines : 62                          

Potentio Electrochemical Impedance Spectroscopy

Run on channel : 3 (SN 35515)
User : 
CE vs. WE compliance from -10 V to 10 V
Electrode connection : standard
Ewe ctrl range : min = -5.00 V, max = 5.00 V
Safety Limits :
	Do not start on E overload
Acquisition started on : 07/09/2023 14:50:27
Technique started on : 07/09/2023 14:50:29
Saved on :
	File : 0708_01_EIS_0.5MTFSI_Blocking_OutsideGB_24hr_RT_C03.mpr
	Directory : C:\Users\CESL\Documents\EC-Lab\Data\PhD\Leifer\Results\Zn Ion GPE\2023\0708\
	Host : 10.110.196.171
Device : VSP (SN 1724172417241724)
Address : USB
EC-Lab for windows v11.16 (software)
Internet server v11.16 (firmware)
Command interpretor v11.16 (firmware)
Electrode material : Au/Pd
Initial state : 
Electrolyte : NaCl (0.2M)
Comments : Fe(CN)63-/Fe(CN)64- 5.10-3 M
Reference electrode : SCE Saturated Calomel Electrode (0.241 V)
Electrode surface area : 0.001 cm²
Characteristic mass : 0.001 g
Equivalent Weight : 0.000 g/eq.
Density : 0.000 g/cm3
Cycle Definition : Charge/Discharge alternance
Mode                Single sine         
E (V)               0.0000              
vs.                 Eoc                 
tE (h:m:s)          0:00:0.0000         
record              0                   
dI                  0.000               
unit dI             mA                  
dt (s)              0.000               
fi                  1.000               
unit fi             MHz                 
ff                  10.000              
unit ff             mHz                 
Nd                  6                   
Points              per decade          
spacing             Logarithmic         
Va (mV)             10.0                
pw                  0.10                
Na                  2                   
corr                1                   
E range min (V)     -5.000              
E range max (V)     5.000               
I Range             Auto                
Bandwidth           5                   
nc cycles           0                   
goto Ns'            0                   
nr cycles           0                   
inc. cycle          0                   

freq/Hz	Re(Z)/Ohm	-Im(Z)/Ohm	|Z|/Ohm	Phase(Z)/deg	time/s	<Ewe>/V	<I>/mA	Cs/µF	Cp/µF	cycle number	I Range	|Ewe|/V	|I|/A	Re(Y)/Ohm-1	Im(Y)/Ohm-1	|Y|/Ohm-1	Phase(Y)/deg	
1.0000193E+006	1.6851093E+002	3.7208142E+000	1.6855200E+002	-1.2649169E+000	2.487097478093347E+000	-2.1105966E-002	-1.3028544E-003	4.2773400E-002	2.0844042E-005	1.000000000000000E+000	11	5.1870395E-004	3.0774120E-006	5.9314412E-003	1.3096949E-004	5.9328871E-003	1.2649169E+000
6.7575181E+005	7.5602554E+001	-1.3417315E+001	7.6783920E+001	1.0063599E+001	2.896097230870510E+000	-2.1760099E-002	-6.6829467E-004	-1.7553642E-002	-5.3599157E-004	1.000000000000000E+000	11	2.5143947E-003	3.2746371E-005	1.2823185E-002	-2.2757526E-003	1.3023560E-002	-1.0063599E+001
4.5664050E+005	4.2927608E+001	-5.7148538E+000	4.3306339E+001	7.5830674E+000	3.305083703657147E+000	-2.1749625E-002	-6.3938834E-004	-6.0987465E-002	-1.0620571E-003	1.000000000000000E+000	11	7.4939048E-003	1.7304406E-004	2.2889365E-002	-3.0472085E-003	2.3091307E-002	-7.5830674E+000
3.0857416E+005	3.5817825E+001	-3.3223777E+000	3.5971584E+001	5.2994585E+000	3.714089563087327E+000	-2.2029797E-002	-7.4157043E-004	-1.5524283E-001	-1.3243124E-003	1.000000000000000E+000	11	1.0455230E-002	2.9065248E-004	2.7680892E-002	-2.5676149E-003	2.7799720E-002	-5.2994585E+000
2.0852534E+005	3.3168449E+001	-2.0745435E+000	3.3233261E+001	3.5789423E+000	4.255093882064102E+000	-2.2047671E-002	-4.5142477E-004	-3.6790758E-001	-1.4336327E-003	1.000000000000000E+000	11	1.0064365E-002	3.0284014E-004	3.0031651E-002	-1.8783505E-003	3.0090336E-002	-3.5789423E+000
1.4090817E+005	3.1959721E+001	-7.4441200E-001	3.1968390E+001	1.3343030E+000	4.958093515509972E+000	-2.1985047E-002	3.1554177E-003	-1.5172970E+000	-8.2272710E-004	1.000000000000000E+000	10	9.2755118E-003	2.9014636E-004	3.1272419E-002	-7.2840322E-004	3.1280901E-002	-1.3343030E+000
9.5214820E+004	3.1421692E+001	-2.3330879E-001	3.1422558E+001	4.2541835E-001	5.367081214935752E+000	-2.1980163E-002	3.4034420E-003	-7.1644764E+000	-3.9496954E-004	1.000000000000000E+000	10	1.0420990E-002	3.3164042E-004	3.1823397E-002	-2.3629148E-004	3.1824272E-002	-4.2541835E-001
6.4345688E+004	3.1230316E+001	1.5926799E-001	3.1230722E+001	-2.9219377E-001	5.776094594359165E+000	-2.1986891E-002	3.6626549E-003	1.5530026E+001	4.0389190E-004	1.000000000000000E+000	10	1.0368076E-002	3.3198323E-004	3.2019336E-002	1.6329181E-004	3.2019753E-002	2.9219377E-001
4.3476547E+004	3.1066622E+001	5.1559395E-001	3.1070900E+001	-9.5081609E-001	6.185088933765655E+000	-2.1997645E-002	3.2113635E-003	7.0999832E+000	1.9550833E-003	1.000000000000000E+000	10	1.0286490E-002	3.3106506E-004	3.2180022E-002	5.3407240E-004	3.2184456E-002	9.5081609E-001
2.9384758E+004	3.1095856E+001	8.9403158E-001	3.1108706E+001	-1.6468474E+000	6.594077513203956E+000	-2.1980535E-002	2.9484218E-003	6.0582213E+000	5.0036511E-003	1.000000000000000E+000	10	1.0162417E-002	3.2667437E-004	3.2132067E-002	9.2382345E-004	3.2145344E-002	1.6468474E+000
1.9853508E+004	3.1165350E+001	1.3790275E+000	3.1195845E+001	-2.5336134E+000	6.871094406320481E+000	-2.1986201E-002	3.0043668E-003	5.8131289E+000	1.1359581E-002	1.000000000000000E+000	10	1.0922718E-002	3.5013375E-004	3.2024216E-002	1.4170313E-003	3.2055553E-002	2.5336134E+000
1.3417967E+004	3.1241394E+001	2.0843878E+000	3.1310850E+001	-3.8170478E+000	7.280093599081738E+000	-2.1995688E-002	3.1889852E-003	5.6905589E+000	2.5218673E-002	1.000000000000000E+000	10	1.0116152E-002	3.2308776E-004	3.1866964E-002	2.1261252E-003	3.1937812E-002	3.8170478E+000
9.0820293E+003	3.1296999E+001	3.0472972E+000	3.1445002E+001	-5.5611930E+000	7.577329746534815E+000	-2.1996416E-002	2.3591323E-003	5.7507224E+000	5.4006845E-002	1.000000000000000E+000	10	1.0292623E-002	3.2732144E-004	3.1651873E-002	3.0818505E-003	3.1801555E-002	5.5611930E+000
6.1409590E+003	3.1497448E+001	4.3073101E+000	3.1790598E+001	-7.7869587E+000	7.980634405754245E+000	-2.2012630E-002	-3.8404524E-004	6.0169692E+000	1.1045685E-001	1.000000000000000E+000	10	1.0374329E-002	3.2633325E-004	3.1165777E-002	4.2619538E-003	3.1455841E-002	7.7869587E+000
4.1413242E+003	3.1740765E+001	6.2141271E+000	3.2343338E+001	-1.1077117E+001	8.446692507888656E+000	-2.1979641E-002	1.4173888E-003	6.1844454E+000	2.2829235E-001	1.000000000000000E+000	10	1.0409966E-002	3.2185813E-004	3.0342245E-002	5.9403279E-003	3.0918268E-002	1.1077117E+001
2.7973140E+003	3.2058899E+001	8.9173651E+000	3.3276005E+001	-1.5544209E+001	8.912943303352222E+000	-2.1977386E-002	1.3110929E-003	6.3803182E+000	4.5819789E-001	1.000000000000000E+000	10	1.0421543E-002	3.1318492E-004	2.8952513E-002	8.0533056E-003	3.0051684E-002	1.5544209E+001
1.8906046E+003	3.2803993E+001	1.2800452E+001	3.5212975E+001	-2.1316235E+001	9.630684857453161E+000	-2.1998391E-002	3.4554646E-004	6.5764885E+000	8.6903906E-001	1.000000000000000E+000	11	1.0689128E-002	3.0355653E-004	2.6455825E-002	1.0323332E-002	2.8398624E-002	2.1316235E+001
1.2871166E+003	3.3880875E+001	1.8113941E+001	3.8419117E+001	-2.8130571E+001	1.009720234622364E+001	-2.1996435E-002	3.2596660E-004	6.8263617E+000	1.5174712E+000	1.000000000000000E+000	11	1.0664659E-002	2.7758730E-004	2.2954078E-002	1.2272080E-002	2.6028709E-002	2.8130571E+001
8.6306641E+002	3.5589260E+001	2.5946539E+001	4.4043369E+001	-3.6094116E+001	1.056417679510196E+001	-2.2005418E-002	4.5052823E-004	7.1071663E+000	2.4665747E+000	1.000000000000000E+000	11	1.0607340E-002	2.4083853E-004	1.8346699E-002	1.3375756E-002	2.2704894E-002	3.6094116E+001
5.8369244E+002	3.7960072E+001	3.6591469E+001	5.2724781E+001	-4.3948292E+001	1.103121148396167E+001	-2.2001894E-002	3.0470797E-004	7.4517150E+000	3.5891063E+000	1.000000000000000E+000	11	1.0529860E-002	1.9971367E-004	1.3655181E-002	1.3162860E-002	1.8966414E-002	4.3948292E+001
3.9411707E+002	4.1658813E+001	5.1440975E+001	6.6193886E+001	-5.0998161E+001	1.149819841279532E+001	-2.1996509E-002	4.0894307E-004	7.8502898E+000	4.7409821E+000	1.000000000000000E+000	11	1.0472015E-002	1.5820215E-004	9.5076049E-003	1.1740144E-002	1.5107135E-002	5.0998161E+001
2.6644943E+002	4.7309685E+001	7.1739090E+001	8.5934296E+001	-5.6596397E+001	1.196163782150688E+001	-2.2005772E-002	3.5803582E-004	8.3262510E+000	5.8026738E+000	1.000000000000000E+000	11	1.0441964E-002	1.2151103E-004	6.4064437E-003	9.7145522E-003	1.1636797E-002	5.6596397E+001
1.8005759E+002	5.5841412E+001	9.9555664E+001	1.1414725E+002	-6.0711651E+001	1.242668952359236E+001	-2.2002118E-002	3.4050693E-004	8.8785639E+000	6.7537313E+000	1.000000000000000E+000	11	1.0415644E-002	9.1247442E-005	4.2857374E-003	7.6407343E-003	8.7606143E-003	6.0711651E+001
1.2159529E+002	6.8360924E+001	1.3753198E+002	1.5358470E+002	-6.3570107E+001	1.288711962543312E+001	-2.2005511E-002	3.1477312E-004	9.5169916E+000	7.6315222E+000	1.000000000000000E+000	11	1.0408739E-002	6.7771973E-005	2.8980910E-003	5.8305264E-003	6.5110652E-003	6.3570107E+001
8.2236801E+001	8.5093246E+001	1.8852602E+002	2.0684032E+002	-6.5707451E+001	1.334230207369546E+001	-2.1996658E-002	2.6759625E-004	1.0265560E+001	8.5281506E+000	1.000000000000000E+000	11	1.0400905E-002	5.0284711E-005	1.9889537E-003	4.4065719E-003	4.8346473E-003	6.5707451E+001
5.5515171E+001	1.0877938E+002	2.5866299E+002	2.8060559E+002	-6.7191063E+001	1.405486917422968E+001	-2.2009555E-002	-1.0238161E-004	1.1083429E+001	9.4178143E+000	1.000000000000000E+000	12	1.0423983E-002	3.7148166E-005	1.3815098E-003	3.2850476E-003	3.5637210E-003	6.7191063E+001
3.7560089E+001	1.4358603E+002	3.5259793E+002	3.8071283E+002	-6.7842712E+001	1.454675114428392E+001	-2.2004252E-002	-2.5402713E-005	1.2017489E+001	1.0308091E+001	1.000000000000000E+000	12	1.0412383E-002	2.7349703E-005	9.9064293E-004	2.4326786E-003	2.6266517E-003	6.7842712E+001
2.5365252E+001	1.9124036E+002	4.7931891E+002	5.1606152E+002	-6.8248817E+001	1.500585124606732E+001	-2.2004336E-002	-6.2349536E-005	1.3090505E+001	1.1292824E+001	1.000000000000000E+000	12	1.0401240E-002	2.0155037E-005	7.1808608E-004	1.7997890E-003	1.9377534E-003	6.8248817E+001
1.7132671E+001	2.5197797E+002	6.5009827E+002	6.9722351E+002	-6.8813675E+001	1.541883393237367E+001	-2.2010077E-002	-1.7629439E-004	1.4289466E+001	1.2423100E+001	1.000000000000000E+000	12	1.0401622E-002	1.4918634E-005	5.1834458E-004	1.3373188E-003	1.4342603E-003	6.8813675E+001
1.1591243E+001	3.4206342E+002	8.7736414E+002	9.4168744E+002	-6.8700371E+001	1.582827483178698E+001	-2.2013338E-002	-1.6829537E-004	1.5649854E+001	1.3584900E+001	1.000000000000000E+000	12	1.0400468E-002	1.1044501E-005	3.8573859E-004	9.8938728E-004	1.0619235E-003	6.8700371E+001
7.8281527E+000	4.5597153E+002	1.1886589E+003	1.2731144E+003	-6.9013107E+001	1.671729879398481E+001	-2.2008447E-002	-4.8791085E-006	1.7104231E+001	1.4910192E+001	1.000000000000000E+000	13	1.0408092E-002	8.1753005E-006	2.8132144E-004	7.3336880E-004	7.8547536E-004	6.9013107E+001
5.2930207E+000	6.1240405E+002	1.6059813E+003	1.7187830E+003	-6.9126801E+001	1.755372710044321E+001	-2.2003341E-002	-1.0852253E-005	1.8723026E+001	1.6346130E+001	1.000000000000000E+000	13	1.0401931E-002	6.0519164E-006	2.0729842E-004	5.4362376E-004	5.8180705E-004	6.9126801E+001
3.5755143E+000	8.0938287E+002	2.1758508E+003	2.3215142E+003	-6.9595581E+001	1.876828363808454E+001	-2.1996545E-002	-3.9050719E-006	2.0457499E+001	1.7970827E+001	1.000000000000000E+000	13	1.0400494E-002	4.4800477E-006	1.5017971E-004	4.0372577E-004	4.3075334E-004	6.9595581E+001
2.4172332E+000	1.0772992E+003	2.9561299E+003	3.1463118E+003	-6.9976799E+001	2.054550209580339E+001	-2.1988979E-002	4.0633468E-006	2.2272966E+001	1.9661722E+001	1.000000000000000E+000	13	1.0399026E-002	3.3051479E-006	1.0882603E-004	2.9862078E-004	3.1783246E-004	6.9976799E+001
1.6327059E+000	1.4344086E+003	4.0111887E+003	4.2599487E+003	-7.0322853E+001	2.442940812031156E+001	-2.1990659E-002	2.2165237E-008	2.4301836E+001	2.1546490E+001	1.000000000000000E+000	14	1.0406033E-002	2.4427602E-006	7.9043137E-005	2.2103668E-004	2.3474461E-004	7.0322853E+001
1.1020596E+000	1.9069077E+003	5.4718726E+003	5.7946255E+003	-7.0786926E+001	2.827842211644747E+001	-2.1986762E-002	8.9606016E-007	2.6392412E+001	2.3534246E+001	1.000000000000000E+000	14	1.0404362E-002	1.7955194E-006	5.6790923E-005	1.6296157E-004	1.7257371E-004	7.0786926E+001
7.4560940E-001	2.5432412E+003	7.4677056E+003	7.8888975E+003	-7.1192940E+001	3.395016542586382E+001	-2.1987705E-002	5.9892693E-007	2.8583906E+001	2.5613169E+001	1.000000000000000E+000	14	1.0402733E-002	1.3186548E-006	4.0865321E-005	1.1999263E-004	1.2676042E-004	7.1192940E+001
5.0390220E-001	3.3732009E+003	1.0226866E+004	1.0768811E+004	-7.1745522E+001	4.232599281036528E+001	-2.1997785E-002	2.0201910E-006	3.0883841E+001	2.7853577E+001	1.000000000000000E+000	14	1.0401099E-002	9.6585404E-007	2.9087525E-005	8.8187517E-005	9.2860770E-005	7.1745522E+001
3.4010270E-001	4.5398511E+003	1.4006397E+004	1.4723771E+004	-7.2041092E+001	5.471944366567186E+001	-2.1995565E-002	-2.0884075E-007	3.3410549E+001	3.0234196E+001	1.000000000000000E+000	14	1.0401274E-002	7.0642733E-007	2.0941294E-005	6.4608306E-005	6.7917383E-005	7.2041092E+001
2.3021273E-001	5.9869194E+003	1.9216904E+004	2.0127906E+004	-7.2695869E+001	7.301275557460031E+001	-2.1992579E-002	3.1536865E-007	3.5975544E+001	3.2792686E+001	1.000000000000000E+000	14	1.0400775E-002	5.1673408E-007	1.4777677E-005	4.7433612E-005	4.9682265E-005	7.2695869E+001
1.5547264E-001	7.9870044E+003	2.6461516E+004	2.7640623E+004	-7.3204361E+001	1.000840121670626E+002	-2.1986281E-002	4.7431840E-007	3.8685787E+001	3.5455631E+001	1.000000000000000E+000	14	1.0401714E-002	3.7631980E-007	1.0454140E-005	3.4635308E-005	3.6178633E-005	7.3204361E+001
1.0504906E-001	1.0635155E+004	3.6642758E+004	3.8154926E+004	-7.3815216E+001	1.401334292426181E+002	-2.1987811E-002	4.6880558E-007	4.1346603E+001	3.8134224E+001	1.000000000000000E+000	14	1.0402021E-002	2.7262590E-007	7.3053757E-006	2.5170217E-005	2.6208936E-005	7.3815216E+001
7.1022727E-002	1.4314502E+004	5.0729711E+004	5.2710609E+004	-7.4242424E+001	1.993542107221147E+002	-2.1990001E-002	3.5506517E-007	4.4173355E+001	4.0915619E+001	1.000000000000000E+000	14	1.0402585E-002	1.9735278E-007	5.1520501E-006	1.8258550E-005	1.8971512E-005	7.4242424E+001
4.7988325E-002	1.9581475E+004	7.0598820E+004	7.3264094E+004	-7.4497971E+001	2.869850039510638E+002	-2.1989198E-002	-2.3190535E-007	4.6977196E+001	4.3621403E+001	1.000000000000000E+000	14	1.0401336E-002	1.4197043E-007	3.6480694E-006	1.3152705E-005	1.3649251E-005	7.4497971E+001
3.2443926E-002	2.6867729E+004	9.8006445E+004	1.0162253E+005	-7.4669441E+001	4.165851271733700E+002	-2.1991044E-002	3.2579320E-007	5.0053230E+001	4.6554466E+001	1.000000000000000E+000	14	1.0398845E-002	1.0232814E-007	2.6016617E-006	9.4901834E-006	9.8403370E-006	7.4669441E+001
2.1920588E-002	3.7488422E+004	1.3663411E+005	1.4168367E+005	-7.4657265E+001	6.083859688434459E+002	-2.1996576E-002	-4.2554884E-006	5.3138435E+001	4.9418259E+001	1.000000000000000E+000	14	1.0401155E-002	7.3411101E-008	1.8674870E-006	6.8064323E-006	7.0579763E-006	7.4657265E+001
1.4807615E-002	5.3127691E+004	1.8790991E+005	1.9527592E+005	-7.4212830E+001	8.923041886488500E+002	-2.1998739E-002	2.2171157E-007	5.7198593E+001	5.2964794E+001	1.000000000000000E+000	14	1.0401517E-002	5.3265744E-008	1.3932327E-006	4.9277910E-006	5.1209590E-006	7.4212830E+001
1.0000636E-002	7.6460492E+004	2.6102617E+005	2.7199425E+005	-7.3673492E+001	1.312676597655431E+003	-2.1992814E-002	1.7825890E-007	6.0968914E+001	5.6150951E+001	1.000000000000000E+000	14	1.0402840E-002	3.8246544E-008	1.0335172E-006	3.5282926E-006	3.6765482E-006	7.3673492E+001