EC-Lab ASCII FILE
Nb header lines : 62                          

Potentio Electrochemical Impedance Spectroscopy

Run on channel : 2 (SN 35514)
User : 
CE vs. WE compliance from -10 V to 10 V
Electrode connection : standard
Ewe ctrl range : min = -5.00 V, max = 5.00 V
Safety Limits :
	Do not start on E overload
Acquisition started on : 07/09/2023 14:50:14
Technique started on : 07/09/2023 14:50:16
Saved on :
	File : 0708_01_EIS_0.5MTFSI_Blocking_OutsideGB_Day_2_RT_C02.mpr
	Directory : C:\Users\CESL\Documents\EC-Lab\Data\PhD\Leifer\Results\Zn Ion GPE\2023\0708\
	Host : 10.110.196.171
Device : VSP (SN 1724172417241724)
Address : USB
EC-Lab for windows v11.16 (software)
Internet server v11.16 (firmware)
Command interpretor v11.16 (firmware)
Electrode material : Au/Pd
Initial state : 
Electrolyte : NaCl (0.2M)
Comments : Fe(CN)63-/Fe(CN)64- 5.10-3 M
Reference electrode : SCE Saturated Calomel Electrode (0.241 V)
Electrode surface area : 0.001 cm²
Characteristic mass : 0.001 g
Equivalent Weight : 0.000 g/eq.
Density : 0.000 g/cm3
Cycle Definition : Charge/Discharge alternance
Mode                Single sine         
E (V)               0.0000              
vs.                 Eoc                 
tE (h:m:s)          0:00:0.0000         
record              0                   
dI                  0.000               
unit dI             mA                  
dt (s)              0.000               
fi                  1.000               
unit fi             MHz                 
ff                  10.000              
unit ff             mHz                 
Nd                  6                   
Points              per decade          
spacing             Logarithmic         
Va (mV)             10.0                
pw                  0.10                
Na                  2                   
corr                1                   
E range min (V)     -5.000              
E range max (V)     5.000               
I Range             Auto                
Bandwidth           5                   
nc cycles           0                   
goto Ns'            0                   
nr cycles           0                   
inc. cycle          0                   

freq/Hz	Re(Z)/Ohm	-Im(Z)/Ohm	|Z|/Ohm	Phase(Z)/deg	time/s	<Ewe>/V	<I>/mA	Cs/µF	Cp/µF	cycle number	I Range	|Ewe|/V	|I|/A	Re(Y)/Ohm-1	Im(Y)/Ohm-1	|Y|/Ohm-1	Phase(Y)/deg	
1.0000193E+006	-1.5467823E+001	8.1576185E+000	1.7487146E+001	-1.5219316E+002	2.307099816243863E+000	-9.5120035E-003	5.2618827E-003	1.9509600E-002	4.2455820E-003	1.000000000000000E+000	10	1.9050309E-004	1.0893892E-005	-5.0581455E-002	2.6676292E-002	5.7184860E-002	1.5219316E+002
6.7575181E+005	3.9980579E+001	-1.1083749E+001	4.1488506E+001	1.5494880E+001	2.716082342347363E+000	-1.0448396E-002	1.1749262E-003	-2.1249378E-002	-1.5165753E-003	1.000000000000000E+000	10	1.2106458E-003	2.9180268E-005	2.3227019E-002	-6.4391871E-003	2.4103060E-002	-1.5494880E+001
4.5664050E+005	1.4942534E+001	-2.7724319E+000	1.5197556E+001	1.0511108E+001	3.125082761776866E+000	-1.0472807E-002	1.8890380E-003	-1.2571433E-001	-4.1836854E-003	1.000000000000000E+000	10	4.5255409E-003	2.9778082E-004	6.4695895E-002	-1.2003650E-002	6.5800048E-002	-1.0511108E+001
3.0857416E+005	1.1668252E+001	-1.2450029E+000	1.1734485E+001	6.0904183E+000	3.534097207855666E+000	-1.0736123E-002	1.4769958E-003	-4.1427642E-001	-4.6634022E-003	1.000000000000000E+000	10	1.0001416E-002	8.5230981E-004	8.4737912E-002	-9.0415385E-003	8.5218914E-002	-6.0904183E+000
2.0852534E+005	1.0593987E+001	-5.2367574E-001	1.0606922E+001	2.8299079E+000	4.075091873557540E+000	-1.0743302E-002	1.5347964E-003	-1.4574674E+000	-3.5525891E-003	1.000000000000000E+000	10	1.0127301E-002	9.5478224E-004	9.4163083E-002	-4.6546143E-003	9.4278052E-002	-2.8299079E+000
1.4090817E+005	1.0191660E+001	1.8562414E-002	1.0191677E+001	-1.0435462E-001	4.616076965903630E+000	-1.0709753E-002	2.9518099E-003	6.0848450E+001	2.0184924E-004	1.000000000000000E+000	10	1.0164660E-002	9.9734915E-004	9.8119117E-002	1.7870766E-004	9.8119281E-002	1.0435462E-001
9.5214820E+004	1.0046391E+001	4.9770817E-001	1.0058711E+001	-2.8361712E+000	5.157095631613629E+000	-1.0722080E-002	1.9617658E-003	3.3584647E+000	8.2225343E-003	1.000000000000000E+000	10	1.0082030E-002	1.0023182E-003	9.9294543E-002	4.9191504E-003	9.9416316E-002	2.8361712E+000
6.4345688E+004	1.0045489E+001	1.0185348E+000	1.0096993E+001	-5.7895622E+000	5.566084904363379E+000	-1.0706229E-002	3.1438516E-003	2.4284258E+000	2.4711119E-002	1.000000000000000E+000	10	1.0595265E-002	1.0493485E-003	9.8534197E-002	9.9906027E-003	9.9039383E-002	5.7895622E+000
4.3476547E+004	1.0121330E+001	1.6303763E+000	1.0251802E+001	-9.1507807E+000	5.975086363789160E+000	-1.0696942E-002	3.4104742E-003	2.2453148E+000	5.6787468E-002	1.000000000000000E+000	10	1.0561484E-002	1.0302075E-003	9.6302405E-002	1.5512700E-002	9.7543821E-002	9.1507807E+000
2.9384758E+004	1.0266926E+001	2.4050345E+000	1.0544854E+001	-1.3183860E+001	6.384088889899431E+000	-1.0700243E-002	2.9126529E-003	2.2520432E+000	1.1714889E-001	1.000000000000000E+000	10	1.0359045E-002	9.8237919E-004	9.2333488E-002	2.1629186E-002	9.4832987E-002	1.3183860E+001
1.9853508E+004	1.0457945E+001	3.4260023E+000	1.1004822E+001	-1.8138695E+001	6.793078322662041E+000	-1.0702220E-002	3.7647248E-003	2.3398890E+000	2.2677988E-001	1.000000000000000E+000	10	1.0210970E-002	9.2786329E-004	8.6353570E-002	2.8289260E-002	9.0869255E-002	1.8138695E+001
1.3417967E+004	1.0706566E+001	4.8284707E+000	1.1744986E+001	-2.4274529E+001	7.070082655816805E+000	-1.0704663E-002	3.9120181E-003	2.4565399E+000	4.1518155E-001	1.000000000000000E+000	10	1.0945681E-002	9.3194511E-004	7.7614918E-002	3.5002951E-002	8.5142717E-002	2.4274529E+001
9.0820293E+003	1.0970413E+001	6.8201146E+000	1.2917583E+001	-3.1868494E+001	7.507341423217440E+000	-1.0674060E-002	4.4377977E-003	2.5694818E+000	7.1625292E-001	1.000000000000000E+000	10	1.0110374E-002	7.8268308E-004	6.5744661E-002	4.0872309E-002	7.7413864E-002	3.1868494E+001
6.1409590E+003	1.1289322E+001	9.7249002E+000	1.4900418E+001	-4.0742420E+001	7.910644695763040E+000	-1.0695580E-002	1.5925836E-003	2.6650095E+000	1.1351994E+000	1.000000000000000E+000	10	1.0063735E-002	6.7539950E-004	5.0847653E-002	4.3801423E-002	6.7112207E-002	4.0742420E+001
4.1413242E+003	1.1698667E+001	1.3973832E+001	1.8224346E+001	-5.0064472E+001	8.376708984564175E+000	-1.0663766E-002	3.8914985E-003	2.7502069E+000	1.6169348E+000	1.000000000000000E+000	10	9.9242656E-003	5.4456084E-004	3.5223495E-002	4.2073786E-002	5.4871652E-002	5.0064472E+001
2.7973140E+003	1.2236396E+001	2.0142427E+001	2.3567919E+001	-5.8721588E+001	8.842960393347312E+000	-1.0661063E-002	3.6024980E-003	2.8246658E+000	2.0632329E+000	1.000000000000000E+000	10	9.7849136E-003	4.1517938E-004	2.2029825E-002	3.6263470E-002	4.2430561E-002	5.8721588E+001
1.8906046E+003	1.3048041E+001	2.9146402E+001	3.1933746E+001	-6.5883255E+001	9.307669348781928E+000	-1.0656270E-002	4.2681168E-003	2.8882477E+000	2.4060497E+000	1.000000000000000E+000	10	9.7062159E-003	3.0394856E-004	1.2795155E-002	2.8581513E-002	3.1314835E-002	6.5883255E+001
1.2871166E+003	1.4191989E+001	4.1887733E+001	4.4226631E+001	-7.1283096E+001	1.002619636952295E+001	-1.0683664E-002	2.1096149E-004	2.9519935E+000	2.6480207E+000	1.000000000000000E+000	11	1.0070968E-002	2.2771276E-004	7.2556380E-003	2.1415053E-002	2.2610812E-002	7.1283096E+001
8.6306641E+002	1.5913954E+001	6.1024887E+001	6.3065765E+001	-7.5384033E+001	1.049317804505699E+001	-1.0683478E-002	2.9823885E-004	3.0218225E+000	2.8294079E+000	1.000000000000000E+000	11	9.8164715E-003	1.5565452E-004	4.0012044E-003	1.5343331E-002	1.5856463E-002	7.5384033E+001
5.8369244E+002	1.8511435E+001	8.8298660E+001	9.0218216E+001	-7.8159668E+001	1.096021996057243E+001	-1.0692728E-002	2.2587800E-004	3.0880332E+000	2.9580240E+000	1.000000000000000E+000	11	9.7063072E-003	1.0758700E-004	2.2743195E-003	1.0848399E-002	1.1084236E-002	7.8159668E+001
3.9411707E+002	2.2358604E+001	1.2782954E+002	1.2977017E+002	-8.0078781E+001	1.142720638276660E+001	-1.0688905E-002	3.1893820E-004	3.1591022E+000	3.0653238E+000	1.000000000000000E+000	11	9.6461587E-003	7.4332631E-005	1.3276850E-003	7.5906934E-003	7.7059311E-003	8.0078781E+001
2.6644943E+002	2.8084127E+001	1.8426909E+002	1.8639693E+002	-8.1334335E+001	1.189064843146843E+001	-1.0683441E-002	2.5235870E-004	3.2415509E+000	3.1679647E+000	1.000000000000000E+000	11	9.6259415E-003	5.1642168E-005	8.0832030E-004	5.3036516E-003	5.3648953E-003	8.1334335E+001
1.8005759E+002	3.5415112E+001	2.6741925E+002	2.6975412E+002	-8.2456055E+001	1.260866953223740E+001	-1.0679487E-002	-4.8748509E-005	3.3053391E+000	3.2483678E+000	1.000000000000000E+000	12	9.7006327E-003	3.5961017E-005	4.8668982E-004	3.6749928E-003	3.7070797E-003	8.2456055E+001
1.2159529E+002	4.9867252E+001	3.8778989E+002	3.9098303E+002	-8.2672348E+001	1.306912768739858E+001	-1.0684634E-002	-9.1970222E-005	3.3752573E+000	3.3203514E+000	1.000000000000000E+000	12	9.6546728E-003	2.4693329E-005	3.2621186E-004	2.5367674E-003	2.5576558E-003	8.2672348E+001
8.2236801E+001	7.1686638E+001	5.5973450E+002	5.6430640E+002	-8.2701714E+001	1.352428693565889E+001	-1.0690266E-002	-5.2813961E-005	3.4575770E+000	3.4017787E+000	1.000000000000000E+000	12	9.6224984E-003	1.7051903E-005	2.2511696E-004	1.7577299E-003	1.7720870E-003	8.2701714E+001
5.5515171E+001	1.0134368E+002	8.0937177E+002	8.1569183E+002	-8.2862984E+001	1.398587485097232E+001	-1.0683459E-002	-8.8469778E-006	3.5420964E+000	3.4874201E+000	1.000000000000000E+000	12	9.6052177E-003	1.1775547E-005	1.5231555E-004	1.2164544E-003	1.2259532E-003	8.2862984E+001
3.7560089E+001	1.5140965E+002	1.1632574E+003	1.1730698E+003	-8.2584068E+001	1.447675450095267E+001	-1.0679627E-002	-4.8851914E-005	3.6426520E+000	3.5819676E+000	1.000000000000000E+000	12	9.6061723E-003	8.1889175E-006	1.1002869E-004	8.4533356E-004	8.5246417E-004	8.2584068E+001
2.5365252E+001	2.3258977E+002	1.6721298E+003	1.6882286E+003	-8.2081085E+001	1.518586706795031E+001	-1.0682732E-002	-2.7067519E-009	3.7524161E+000	3.6811914E+000	1.000000000000000E+000	13	9.6261995E-003	5.7019524E-006	8.1607148E-005	5.8668829E-004	5.9233682E-004	8.2081085E+001
1.7132671E+001	3.7065182E+002	2.3892368E+003	2.4178162E+003	-8.1181770E+001	1.559981935430551E+001	-1.0691646E-002	-1.6474802E-005	3.8880856E+000	3.7967122E+000	1.000000000000000E+000	13	9.6127978E-003	3.9758183E-006	6.3404426E-005	4.0870751E-004	4.1359637E-004	8.1181770E+001
1.1591243E+001	5.7105493E+002	3.3923347E+003	3.4400637E+003	-8.0444595E+001	1.600925601369818E+001	-1.0687842E-002	-2.4957753E-006	4.0475426E+000	3.9360070E+000	1.000000000000000E+000	13	9.6013611E-003	2.7910417E-006	4.8255286E-005	2.8665908E-004	2.9069229E-004	8.0444595E+001
7.8281527E+000	8.8681146E+002	4.7980527E+003	4.8793179E+003	-7.9528343E+001	1.659127612135489E+001	-1.0677902E-002	-8.9548384E-006	4.2373648E+000	4.0973930E+000	1.000000000000000E+000	13	9.5982505E-003	1.9671295E-006	3.7248876E-005	2.0153329E-004	2.0494669E-004	7.9528343E+001
5.2930207E+000	1.3546475E+003	6.6986421E+003	6.8342427E+003	-7.8567421E+001	1.742771061445819E+001	-1.0674856E-002	-6.1572669E-006	4.4887948E+000	4.3124347E+000	1.000000000000000E+000	13	9.5941024E-003	1.4038282E-006	2.9003171E-005	1.4341877E-004	1.4632200E-004	7.8567421E+001
3.5755143E+000	1.9718362E+003	9.3967119E+003	9.6013711E+003	-7.8148827E+001	1.925127187438193E+001	-1.0672143E-002	1.3787613E-006	4.7370253E+000	4.5372324E+000	1.000000000000000E+000	14	9.6048536E-003	1.0003627E-006	2.1389678E-005	1.0193173E-004	1.0415179E-004	7.8148827E+001
2.4172332E+000	2.8122231E+003	1.3152377E+004	1.3449670E+004	-7.7930832E+001	2.102848910543253E+001	-1.0669069E-002	2.6374682E-006	5.0060749E+000	4.7872109E+000	1.000000000000000E+000	14	9.6006682E-003	7.1382186E-007	1.5546282E-005	7.2707793E-005	7.4351265E-005	7.7930832E+001
1.6327059E+000	4.0316816E+003	1.8403479E+004	1.8839918E+004	-7.7643326E+001	2.363937661613454E+001	-1.0674021E-002	3.4001582E-007	5.2967839E+000	5.0542192E+000	1.000000000000000E+000	14	9.5996764E-003	5.0953918E-007	1.1358687E-005	5.1849183E-005	5.3078787E-005	7.7643326E+001
1.1020596E+000	5.6936504E+003	2.5816264E+004	2.6436662E+004	-7.7562798E+001	2.748833565224777E+001	-1.0672683E-002	3.0589447E-007	5.5939898E+000	5.3345180E+000	1.000000000000000E+000	14	9.5994957E-003	3.6311300E-007	8.1466205E-006	3.6938578E-005	3.7826259E-005	7.7562798E+001
7.4560940E-001	8.1118862E+003	3.6164000E+004	3.7062617E+004	-7.7357346E+001	3.316009362836485E+001	-1.0666892E-002	1.1087344E-006	5.9024496E+000	5.6196990E+000	1.000000000000000E+000	14	9.5978230E-003	2.5896236E-007	5.9054037E-006	2.6327178E-005	2.6981364E-005	7.7357346E+001
5.0390220E-001	1.1682782E+004	5.1003652E+004	5.2324563E+004	-7.7098518E+001	4.153594799950952E+001	-1.0675480E-002	1.7238081E-006	6.1925936E+000	5.8838816E+000	1.000000000000000E+000	14	9.5961802E-003	1.8339723E-007	4.2671227E-006	1.8629022E-005	1.9111483E-005	7.7098518E+001
3.4010270E-001	1.7343244E+004	7.1472773E+004	7.3546891E+004	-7.6360504E+001	5.392940389484284E+001	-1.0673959E-002	8.7575114E-007	6.5474081E+000	6.1833248E+000	1.000000000000000E+000	14	9.5990254E-003	1.3051572E-007	3.2062817E-006	1.3213321E-005	1.3596768E-005	7.6360504E+001
2.3021273E-001	2.6165697E+004	9.9875414E+004	1.0324602E+005	-7.5319389E+001	7.222269868374860E+001	-1.0675218E-002	7.7957515E-007	6.9220090E+000	6.4774294E+000	1.000000000000000E+000	14	9.5968777E-003	9.2951545E-008	2.4546282E-006	9.3694025E-006	9.6856029E-006	7.5319389E+001
1.5547264E-001	4.0457066E+004	1.3824159E+005	1.4403997E+005	-7.3687630E+001	9.929400436955621E+001	-1.0677171E-002	8.6231103E-007	7.4050407E+000	6.8208556E+000	1.000000000000000E+000	14	9.5973155E-003	6.6629532E-008	1.9499721E-006	6.6630441E-006	6.9425173E-006	7.3687630E+001
1.0504906E-001	6.3038750E+004	1.8985148E+005	2.0004367E+005	-7.1631645E+001	1.393434821384435E+002	-1.0682680E-002	9.4059681E-007	7.9802032E+000	7.1877394E+000	1.000000000000000E+000	14	9.5980559E-003	4.7979803E-008	1.5752806E-006	4.7442149E-006	4.9989085E-006	7.1631645E+001
7.1022727E-002	9.7866156E+004	2.5591842E+005	2.7399275E+005	-6.9072571E+001	1.985643679112836E+002	-1.0678180E-002	9.5176188E-007	8.7563124E+000	7.6391706E+000	1.000000000000000E+000	14	9.5976936E-003	3.5029007E-008	1.3036300E-006	3.4089719E-006	3.6497315E-006	6.9072571E+001
4.7988325E-002	1.5054359E+005	3.3963003E+005	3.7149956E+005	-6.6094322E+001	2.861952855135023E+002	-1.0678093E-002	8.9999031E-007	9.7651396E+000	8.1615753E+000	1.000000000000000E+000	14	9.5970901E-003	2.5833382E-008	1.0908012E-006	2.4608746E-006	2.6917933E-006	6.6094322E+001
3.2443926E-002	2.2600272E+005	4.4004834E+005	4.9469159E+005	-6.2815598E+001	4.157955651358643E+002	-1.0684396E-002	9.3552831E-007	1.1147728E+001	8.8210049E+000	1.000000000000000E+000	14	9.5984507E-003	1.9402899E-008	9.2351644E-007	1.7981725E-006	2.0214616E-006	6.2815598E+001
2.1920588E-002	3.2956253E+005	5.5350456E+005	6.4418844E+005	-5.9229980E+001	6.075966918726481E+002	-1.0684597E-002	8.6610049E-007	1.3117369E+001	9.6841898E+000	1.000000000000000E+000	14	9.5981332E-003	1.4899573E-008	7.9416719E-007	1.3338142E-006	1.5523408E-006	5.9229980E+001
1.4807615E-002	4.6601034E+005	6.8250781E+005	8.2642756E+005	-5.5675083E+001	8.915153145047079E+002	-1.0681824E-002	9.5485484E-007	1.5748072E+001	1.0740711E+001	1.000000000000000E+000	14	9.5972512E-003	1.1612937E-008	6.8231662E-007	9.9930503E-007	1.2100274E-006	5.5675083E+001
1.0000636E-002	6.3478113E+005	8.1180175E+005	1.0305189E+006	-5.1976688E+001	1.311888337378012E+003	-1.0679322E-002	9.3014933E-007	1.9603903E+001	1.2165518E+001	1.000000000000000E+000	14	9.5988838E-003	9.3146122E-009	5.9773970E-007	7.6443064E-007	9.7038492E-007	5.1976688E+001