EC-Lab ASCII FILE
Nb header lines : 62                          

Potentio Electrochemical Impedance Spectroscopy

Run on channel : 2 (SN 35514)
User : 
CE vs. WE compliance from -10 V to 10 V
Electrode connection : standard
Ewe ctrl range : min = -5.00 V, max = 5.00 V
Safety Limits :
	Do not start on E overload
Acquisition started on : 07/09/2023 15:25:50
Technique started on : 07/09/2023 15:25:51
Saved on :
	File : 0708_01_EIS_0.5MTFSI_Blocking_OutsideGB_Day_2_40C_C02.mpr
	Directory : C:\Users\CESL\Documents\EC-Lab\Data\PhD\Leifer\Results\Zn Ion GPE\2023\0708\
	Host : 10.110.196.171
Device : VSP (SN 1724172417241724)
Address : USB
EC-Lab for windows v11.16 (software)
Internet server v11.16 (firmware)
Command interpretor v11.16 (firmware)
Electrode material : Au/Pd
Initial state : 
Electrolyte : NaCl (0.2M)
Comments : Fe(CN)63-/Fe(CN)64- 5.10-3 M
Reference electrode : SCE Saturated Calomel Electrode (0.241 V)
Electrode surface area : 0.001 cm²
Characteristic mass : 0.001 g
Equivalent Weight : 0.000 g/eq.
Density : 0.000 g/cm3
Cycle Definition : Charge/Discharge alternance
Mode                Single sine         
E (V)               0.0000              
vs.                 Eoc                 
tE (h:m:s)          0:00:0.0000         
record              0                   
dI                  0.000               
unit dI             mA                  
dt (s)              0.000               
fi                  1.000               
unit fi             MHz                 
ff                  10.000              
unit ff             mHz                 
Nd                  6                   
Points              per decade          
spacing             Logarithmic         
Va (mV)             10.0                
pw                  0.10                
Na                  2                   
corr                1                   
E range min (V)     -5.000              
E range max (V)     5.000               
I Range             Auto                
Bandwidth           5                   
nc cycles           0                   
goto Ns'            0                   
nr cycles           0                   
inc. cycle          0                   

freq/Hz	Re(Z)/Ohm	-Im(Z)/Ohm	|Z|/Ohm	Phase(Z)/deg	time/s	<Ewe>/V	<I>/mA	Cs/µF	Cp/µF	cycle number	I Range	|Ewe|/V	|I|/A	Re(Y)/Ohm-1	Im(Y)/Ohm-1	|Y|/Ohm-1	Phase(Y)/deg	
1.0000193E+006	2.0404610E-001	4.2816095E+000	4.2864690E+000	-8.7271553E+001	1.975088920473354E+000	-1.4345167E-002	1.2842175E-002	3.7171040E-002	3.7086807E-002	1.000000000000000E+000	9	1.9136349E-004	4.4643621E-005	1.1105268E-002	2.3302779E-001	2.3329225E-001	8.7271553E+001
6.7575181E+005	3.5337067E+001	-1.1299485E+001	3.7099686E+001	1.7732351E+001	2.678091247187695E+000	-1.5234193E-002	-7.9211034E-004	-2.0843673E-002	-1.9335308E-003	1.000000000000000E+000	10	1.0852373E-003	2.9251925E-005	2.5673794E-002	-8.2095284E-003	2.6954407E-002	-1.7732351E+001
4.5664050E+005	1.3464728E+001	-2.7839222E+000	1.3749514E+001	1.1681683E+001	3.087099906610092E+000	-1.5245512E-002	1.0891720E-003	-1.2519546E-001	-5.1324898E-003	1.000000000000000E+000	10	4.1105556E-003	2.9896008E-004	7.1223438E-002	-1.4725920E-002	7.2729848E-002	-1.1681683E+001
3.0857416E+005	1.0544844E+001	-1.2792327E+000	1.0622154E+001	6.9169564E+000	3.496100086049410E+000	-1.5501592E-002	1.1357971E-003	-4.0319115E-001	-5.8476981E-003	1.000000000000000E+000	10	9.9273324E-003	9.3458750E-004	9.3457669E-002	-1.1337684E-002	9.4142862E-002	-6.9169564E+000
2.0852534E+005	9.5708342E+000	-5.5399710E-001	9.5868549E+000	3.3128057E+000	4.037098458415130E+000	-1.5520950E-002	1.7436222E-003	-1.3776973E+000	-4.6006213E-003	1.000000000000000E+000	10	1.0167631E-002	1.0605805E-003	1.0413519E-001	-6.0277488E-003	1.0430949E-001	-3.3128057E+000
1.4090817E+005	9.1990452E+000	-7.1172751E-002	9.1993208E+000	4.4328696E-001	4.578088670765283E+000	-1.5506404E-002	2.4222923E-003	-1.5869754E+001	-9.4991818E-004	1.000000000000000E+000	10	1.0153464E-002	1.1037189E-003	1.0870042E-001	-8.4101211E-004	1.0870368E-001	-4.4328696E-001
9.5214820E+004	9.0789242E+000	3.9307317E-001	9.0874290E+000	-2.4790800E+000	5.119096803100547E+000	-1.5477200E-002	2.3850030E-003	4.2524791E+000	7.9562226E-003	1.000000000000000E+000	10	1.0100219E-002	1.1114496E-003	1.0993914E-001	4.7598290E-003	1.1004212E-001	2.4790800E+000
6.4345688E+004	9.0712318E+000	8.6144620E-001	9.1120434E+000	-5.4248042E+000	5.528081142576411E+000	-1.5479513E-002	3.2314814E-003	2.8712599E+000	2.5662402E-002	1.000000000000000E+000	10	1.0637406E-002	1.1674007E-003	1.0925334E-001	1.0375203E-002	1.0974487E-001	5.4248042E+000
4.3476547E+004	9.1336060E+000	1.4159003E+000	9.2427015E+000	-8.8119049E+000	5.937100948620355E+000	-1.5462711E-002	2.7914601E-003	2.5854278E+000	6.0673624E-002	1.000000000000000E+000	10	1.0496945E-002	1.1357010E-003	1.0691642E-001	1.6574284E-002	1.0819347E-001	8.8119049E+000
2.9384758E+004	9.2552280E+000	2.1035690E+000	9.4912720E+000	-1.2804902E+001	6.346097608067794E+000	-1.5476249E-002	2.6217937E-003	2.5747867E+000	1.2647536E-001	1.000000000000000E+000	10	1.0395299E-002	1.0952483E-003	1.0273970E-001	2.3351131E-002	1.0535996E-001	1.2804902E+001
1.9853508E+004	9.4032869E+000	3.0248919E+000	9.8778429E+000	-1.7832180E+001	6.755081974173663E+000	-1.5469909E-002	3.3452176E-003	2.6501658E+000	2.4852410E-001	1.000000000000000E+000	10	1.0241303E-002	1.0367954E-003	9.6373022E-002	3.1001709E-002	1.0123668E-001	1.7832180E+001
1.3417967E+004	9.5799570E+000	4.2967353E+000	1.0499405E+001	-2.4156857E+001	7.164100526919356E+000	-1.5462487E-002	3.4552200E-003	2.7605450E+000	4.6231997E-001	1.000000000000000E+000	10	1.0060861E-002	9.5823151E-004	8.6902879E-002	3.8977075E-002	9.5243491E-002	2.4156857E+001
9.0820293E+003	9.7909241E+000	6.1216965E+000	1.1547180E+001	-3.2015350E+001	7.461330221063690E+000	-1.5441507E-002	4.7603627E-003	2.8626316E+000	8.0455756E-001	1.000000000000000E+000	10	1.0306354E-002	8.9254288E-004	7.3429711E-002	4.5911334E-002	8.6601228E-002	3.2015350E+001
6.1409590E+003	1.0056270E+001	8.7898598E+000	1.3356279E+001	-4.1155655E+001	7.864635893576633E+000	-1.5468790E-002	1.6820820E-003	2.9485059E+000	1.2770116E+000	1.000000000000000E+000	10	1.0247001E-002	7.6720479E-004	5.6372326E-002	4.9273223E-002	7.4871153E-002	4.1155655E+001
4.1413242E+003	1.0429538E+001	1.2670549E+001	1.6410913E+001	-5.0541103E+001	8.330701355705969E+000	-1.5431475E-002	4.8032352E-003	3.0330911E+000	1.8080517E+000	1.000000000000000E+000	10	1.0078001E-002	6.1410357E-004	3.8725726E-002	4.7046784E-002	6.0935061E-002	5.0541103E+001
2.7973140E+003	1.0948236E+001	1.8324696E+001	2.1346155E+001	-5.9143456E+001	8.796945484500611E+000	-1.5439270E-002	3.9175982E-003	3.1048608E+000	2.2881072E+000	1.000000000000000E+000	10	9.9324258E-003	4.6530279E-004	2.4027292E-002	4.0215869E-002	4.6846844E-002	5.9143456E+001
1.8906046E+003	1.1755507E+001	2.6531816E+001	2.9019463E+001	-6.6103203E+001	9.261696733265126E+000	-1.5439382E-002	4.9952692E-003	3.1728711E+000	2.6522086E+000	1.000000000000000E+000	10	9.8398831E-003	3.3907875E-004	1.3959269E-002	3.1505637E-002	3.4459632E-002	6.6103203E+001
1.2871166E+003	1.2843311E+001	3.7986279E+001	4.0098728E+001	-7.1319405E+001	9.980218420707388E+000	-1.5462282E-002	1.9380428E-004	3.2551839E+000	2.9212439E+000	1.000000000000000E+000	11	1.0243461E-002	2.5545599E-004	7.9875896E-003	2.3624660E-002	2.4938447E-002	7.1319405E+001
8.6306641E+002	1.4529411E+001	5.5352688E+001	5.7227825E+001	-7.5292343E+001	1.044720790951396E+001	-1.5458869E-002	1.8876715E-004	3.3314798E+000	3.1167369E+000	1.000000000000000E+000	11	9.9704741E-003	1.7422423E-004	4.4364296E-003	1.6901461E-002	1.7474018E-002	7.5292343E+001
5.8369244E+002	1.6938265E+001	7.9892494E+001	8.1668327E+001	-7.8029785E+001	1.091420177169493E+001	-1.5461499E-002	1.8093277E-004	3.4129510E+000	3.2661395E+000	1.000000000000000E+000	11	9.8347841E-003	1.2042348E-004	2.5395791E-003	1.1978396E-002	1.2244649E-002	7.8029785E+001
3.9411707E+002	2.0582733E+001	1.1551584E+002	1.1733524E+002	-7.9897003E+001	1.138118680720800E+001	-1.5459410E-002	1.7869408E-004	3.4958546E+000	3.3882818E+000	1.000000000000000E+000	11	9.7712018E-003	8.3275940E-005	1.4950173E-003	8.3904378E-003	8.5225888E-003	7.9897003E+001
2.6644943E+002	2.6122784E+001	1.6677316E+002	1.6880666E+002	-8.1097717E+001	1.184466032261480E+001	-1.5467671E-002	2.6466756E-004	3.5816174E+000	3.4958467E+000	1.000000000000000E+000	11	9.7447280E-003	5.7727157E-005	9.1672776E-004	5.8525754E-003	5.9239371E-003	8.1097717E+001
1.8005759E+002	3.4254772E+001	2.4095279E+002	2.4337550E+002	-8.1908829E+001	1.230969143803668E+001	-1.5458683E-002	2.4527157E-004	3.6684003E+000	3.5957289E+000	1.000000000000000E+000	11	9.7300829E-003	3.9979714E-005	5.7831901E-004	4.0679746E-003	4.1088769E-003	8.1908829E+001
1.2159529E+002	4.7089699E+001	3.4806522E+002	3.5123615E+002	-8.2295242E+001	1.301914093838423E+001	-1.5459633E-002	-2.2420832E-005	3.7604754E+000	3.6928835E+000	1.000000000000000E+000	12	9.7758565E-003	2.7832717E-005	3.8170465E-004	2.8213840E-003	2.8470873E-003	8.2295242E+001
8.2236801E+001	6.5943932E+001	5.0269400E+002	5.0700085E+002	-8.2526550E+001	1.347432069331990E+001	-1.5460603E-002	-1.1438269E-004	3.8499067E+000	3.7847767E+000	1.000000000000000E+000	12	9.7460914E-003	1.9223027E-005	2.5654151E-004	1.9556284E-003	1.9723834E-003	8.2526550E+001
5.5515171E+001	1.0135036E+002	7.2297687E+002	7.3004620E+002	-8.2020004E+001	1.393690508863074E+001	-1.5459745E-002	-1.0867724E-004	3.9653730E+000	3.8889482E+000	1.000000000000000E+000	12	9.7291945E-003	1.3326820E-005	1.9016242E-004	1.3565122E-003	1.3697763E-003	8.2020004E+001
3.7560089E+001	1.5000745E+002	1.0391918E+003	1.0499628E+003	-8.1786087E+001	1.442877276534273E+001	-1.5445135E-002	-3.8186405E-005	4.0775366E+000	3.9943068E+000	1.000000000000000E+000	12	9.7267460E-003	9.2638957E-006	1.3607080E-004	9.4264443E-004	9.5241470E-004	8.1786087E+001
2.5365252E+001	2.2206741E+002	1.4715488E+003	1.4882103E+003	-8.1418404E+001	1.488787105379743E+001	-1.5464277E-002	-2.3018034E-005	4.2638927E+000	4.1689529E+000	1.000000000000000E+000	12	9.7222049E-003	6.5328163E-006	1.0026657E-004	6.6442514E-004	6.7194802E-004	8.1418404E+001
1.7132671E+001	3.7961661E+002	2.1063142E+003	2.1402495E+003	-7.9783379E+001	1.552982759097358E+001	-1.5471587E-002	-7.4257828E-006	4.4103379E+000	4.2715883E+000	1.000000000000000E+000	13	9.7262124E-003	4.5444290E-006	8.2873630E-005	4.5982687E-004	4.6723525E-004	7.9783379E+001
1.1591243E+001	5.9057037E+002	2.9772747E+003	3.0352822E+003	-7.8780479E+001	1.593925945038791E+001	-1.5472072E-002	-6.2343297E-006	4.6118083E+000	4.4372191E+000	1.000000000000000E+000	13	9.7266408E-003	3.2045259E-006	6.4102293E-005	3.2316233E-004	3.2945865E-004	7.8780479E+001
7.8281527E+000	9.1968579E+002	4.1618291E+003	4.2622344E+003	-7.7538971E+001	1.652025438463897E+001	-1.5453163E-002	-2.8603179E-006	4.8851357E+000	4.6576886E+000	1.000000000000000E+000	13	9.7240061E-003	2.2814338E-006	5.0624978E-005	2.2909181E-004	2.3461872E-004	7.7538971E+001
5.2930207E+000	1.3863041E+003	5.7732642E+003	5.9373745E+003	-7.6497505E+001	1.735667709109111E+001	-1.5451428E-002	-6.5500676E-006	5.2082891E+000	4.9243517E+000	1.000000000000000E+000	13	9.7210323E-003	1.6372611E-006	3.9325074E-005	1.6376931E-004	1.6842461E-004	7.6497505E+001
3.5755143E+000	2.0545417E+003	8.0457227E+003	8.3039023E+003	-7.5675179E+001	1.917939981762902E+001	-1.5447874E-002	-1.0795374E-006	5.5324383E+000	5.1937642E+000	1.000000000000000E+000	14	9.7258165E-003	1.1712344E-006	2.9795483E-005	1.1668112E-004	1.2042531E-004	7.5675179E+001
2.4172332E+000	3.0024470E+003	1.1075664E+004	1.1475409E+004	-7.4832497E+001	2.095662166208058E+001	-1.5451632E-002	2.6119642E-006	5.9447255E+000	5.5377707E+000	1.000000000000000E+000	14	9.7235087E-003	8.4733438E-007	2.2800215E-005	8.4107247E-005	8.7142864E-005	7.4832497E+001
1.6327059E+000	4.3045259E+003	1.5265181E+004	1.5860476E+004	-7.4252434E+001	2.356639117267332E+001	-1.5451030E-002	9.6872350E-007	6.3857255E+000	5.9153671E+000	1.000000000000000E+000	14	9.7207511E-003	6.1289154E-007	1.7111692E-005	6.0683349E-005	6.3049811E-005	7.4252434E+001
1.1020596E+000	6.3109751E+003	2.1101652E+004	2.2025170E+004	-7.3349396E+001	2.741540551549406E+001	-1.5448360E-002	9.6625888E-007	6.8438201E+000	6.2819285E+000	1.000000000000000E+000	14	9.7205453E-003	4.4133805E-007	1.3009419E-005	4.3498865E-005	4.5402601E-005	7.3349396E+001
7.4560940E-001	9.1592324E+003	2.8973324E+004	3.0386594E+004	-7.2456879E+001	3.308715719819884E+001	-1.5451601E-002	9.9315753E-007	7.3673353E+000	6.6979675E+000	1.000000000000000E+000	14	9.7192815E-003	3.1985425E-007	9.9196213E-006	3.1378655E-005	3.2909251E-005	7.2456879E+001
5.0390220E-001	1.3791739E+004	3.9695203E+004	4.2022867E+004	-7.0840683E+001	4.146300247605541E+001	-1.5457366E-002	2.0369985E-006	7.9567523E+000	7.0997086E+000	1.000000000000000E+000	14	9.7185764E-003	2.3126876E-007	7.8099383E-006	2.2478467E-005	2.3796567E-005	7.0840683E+001
3.4010270E-001	2.0404664E+004	5.3651164E+004	5.7400328E+004	-6.9177139E+001	5.385626906467951E+001	-1.5454475E-002	1.3837290E-006	8.7222977E+000	7.6200962E+000	1.000000000000000E+000	14	9.7182039E-003	1.6930572E-007	6.1929950E-006	1.6283599E-005	1.7421504E-005	6.9177139E+001
2.3021273E-001	3.0803199E+004	7.1504570E+004	7.7857180E+004	-6.6694275E+001	7.214950745357783E+001	-1.5453056E-002	1.1905926E-006	9.6684523E+000	8.1550617E+000	1.000000000000000E+000	14	9.7173853E-003	1.2481040E-007	5.0815775E-006	1.1796045E-005	1.2844031E-005	6.6694275E+001
1.5547264E-001	4.5735027E+004	9.3616000E+004	1.0419045E+005	-6.3962708E+001	9.922081361942401E+001	-1.5454091E-002	1.3738675E-006	1.0934932E+001	8.8279619E+000	1.000000000000000E+000	14	9.7183893E-003	9.3275247E-008	4.2130164E-006	8.6237133E-006	9.5978094E-006	6.3962708E+001
1.0504906E-001	6.7079742E+004	1.1946002E+005	1.3700506E+005	-6.0684715E+001	1.392692906949378E+002	-1.5454763E-002	1.3550924E-006	1.2682515E+001	9.6422262E+000	1.000000000000000E+000	14	9.7176135E-003	7.0928863E-008	3.5737007E-006	6.3642810E-006	7.2990006E-006	6.0684715E+001
7.1022727E-002	9.5703102E+004	1.4883503E+005	1.7694900E+005	-5.7258389E+001	1.984901660677569E+002	-1.5456614E-002	1.4789999E-006	1.5056278E+001	1.0652014E+001	1.000000000000000E+000	14	9.7189965E-003	5.4925408E-008	3.0565379E-006	4.7534500E-006	5.6513459E-006	5.7258389E+001
4.7988325E-002	1.3231134E+005	1.8108313E+005	2.2427080E+005	-5.3845661E+001	2.861210933233669E+002	-1.5462154E-002	1.5843658E-006	1.8314985E+001	1.1940351E+001	1.000000000000000E+000	14	9.7180037E-003	4.3331561E-008	2.6305804E-006	3.6002489E-006	4.4588951E-006	5.3845661E+001
3.2443926E-002	1.7688002E+005	2.1543995E+005	2.7874884E+005	-5.0613400E+001	4.157214316923346E+002	-1.5460777E-002	1.7503030E-006	2.2769867E+001	1.3601501E+001	1.000000000000000E+000	14	9.7173760E-003	3.4860687E-008	2.2764214E-006	2.7726824E-006	3.5874589E-006	5.0613400E+001
2.1920588E-002	2.2710736E+005	2.5272527E+005	3.3977613E+005	-4.8056076E+001	6.075225829090632E+002	-1.5461682E-002	1.7717625E-006	2.8728918E+001	1.5893914E+001	1.000000000000000E+000	14	9.7171497E-003	2.8598683E-008	1.9671863E-006	2.1890867E-006	2.9431144E-006	4.8056076E+001
1.4807615E-002	2.8416491E+005	2.9257178E+005	4.0785775E+005	-4.5835121E+001	8.914401913544571E+002	-1.5467257E-002	1.8465126E-006	3.6736908E+001	1.8903839E+001	1.000000000000000E+000	14	9.7194267E-003	2.3830433E-008	1.7082561E-006	1.7587940E-006	2.4518351E-006	4.5835121E+001
1.0000636E-002	3.4777588E+005	3.4523941E+005	4.9003909E+005	-4.4790298E+001	1.311813215987786E+003	-1.5466983E-002	1.8972582E-006	4.6096943E+001	2.2879757E+001	1.000000000000000E+000	14	9.7174235E-003	1.9829894E-008	1.4482315E-006	1.4376691E-006	2.0406535E-006	4.4790298E+001