EC-Lab ASCII FILE
Nb header lines : 62                          

Potentio Electrochemical Impedance Spectroscopy

Run on channel : 2 (SN 35514)
User : 
CE vs. WE compliance from -10 V to 10 V
Electrode connection : standard
Ewe ctrl range : min = -5.00 V, max = 5.00 V
Safety Limits :
	Do not start on E overload
Acquisition started on : 07/09/2023 15:55:52
Technique started on : 07/09/2023 15:55:53
Saved on :
	File : 0708_01_EIS_0.5MTFSI_Blocking_OutsideGB_Day_2_60C_C02.mpr
	Directory : C:\Users\CESL\Documents\EC-Lab\Data\PhD\Leifer\Results\Zn Ion GPE\2023\0708\
	Host : 10.110.196.171
Device : VSP (SN 1724172417241724)
Address : USB
EC-Lab for windows v11.16 (software)
Internet server v11.16 (firmware)
Command interpretor v11.16 (firmware)
Electrode material : Au/Pd
Initial state : 
Electrolyte : NaCl (0.2M)
Comments : Fe(CN)63-/Fe(CN)64- 5.10-3 M
Reference electrode : SCE Saturated Calomel Electrode (0.241 V)
Electrode surface area : 0.001 cm²
Characteristic mass : 0.001 g
Equivalent Weight : 0.000 g/eq.
Density : 0.000 g/cm3
Cycle Definition : Charge/Discharge alternance
Mode                Single sine         
E (V)               0.0000              
vs.                 Eoc                 
tE (h:m:s)          0:00:0.0000         
record              0                   
dI                  0.000               
unit dI             mA                  
dt (s)              0.000               
fi                  1.000               
unit fi             MHz                 
ff                  10.000              
unit ff             mHz                 
Nd                  6                   
Points              per decade          
spacing             Logarithmic         
Va (mV)             10.0                
pw                  0.10                
Na                  2                   
corr                1                   
E range min (V)     -5.000              
E range max (V)     5.000               
I Range             Auto                
Bandwidth           5                   
nc cycles           0                   
goto Ns'            0                   
nr cycles           0                   
inc. cycle          0                   

freq/Hz	Re(Z)/Ohm	-Im(Z)/Ohm	|Z|/Ohm	Phase(Z)/deg	time/s	<Ewe>/V	<I>/mA	Cs/µF	Cp/µF	cycle number	I Range	|Ewe|/V	|I|/A	Re(Y)/Ohm-1	Im(Y)/Ohm-1	|Y|/Ohm-1	Phase(Y)/deg	
1.0000193E+006	3.4866190E-001	3.5038838E+000	3.5211883E+000	-8.4317360E+001	1.974093907076167E+000	-2.0703603E-002	-3.7029953E-004	4.5421563E-002	4.4976220E-002	1.000000000000000E+000	9	1.1245802E-004	3.1937518E-005	2.8120693E-002	2.8259936E-001	2.8399503E-001	8.4317360E+001
6.7575181E+005	1.7354673E+001	-9.6283607E+000	1.9846663E+001	2.9021484E+001	2.677092740457738E+000	-2.1485213E-002	-9.2848605E-003	-2.4461357E-002	-5.7571861E-003	1.000000000000000E+000	10	5.9742638E-004	3.0102108E-005	4.4059694E-002	-2.4444290E-002	5.0386306E-002	-2.9021484E+001
4.5664050E+005	6.9093976E+000	-2.5446150E+000	7.3630729E+000	2.0217905E+001	3.086087319912622E+000	-2.1483069E-002	-7.4129011E-003	-1.3696942E-001	-1.6358729E-002	1.000000000000000E+000	10	2.2501585E-003	3.0560046E-004	1.2744476E-001	-4.6935767E-002	1.3581286E-001	-2.0217905E+001
3.0857416E+005	5.4672413E+000	-1.1945351E+000	5.5962167E+000	1.2324846E+001	3.495098725979915E+000	-2.1738479E-002	-8.2593644E-003	-4.3177912E-001	-1.9672994E-002	1.000000000000000E+000	10	6.0839211E-003	1.0871489E-003	1.7457385E-001	-3.8142566E-002	1.7869215E-001	-1.2324846E+001
2.0852534E+005	4.9951944E+000	-5.3108543E-001	5.0233474E+000	6.0688467E+000	3.904086292110151E+000	-2.1791477E-002	-3.7509983E-003	-1.4371328E+000	-1.6063465E-002	1.000000000000000E+000	10	1.0424272E-002	2.0751646E-003	1.9795476E-001	-2.1046406E-002	1.9907044E-001	-6.0688467E+000
1.4090817E+005	4.8136735E+000	-8.1147321E-002	4.8143573E+000	9.6578193E-001	4.445078077784274E+000	-2.1765631E-002	-4.1350806E-003	-1.3919056E+001	-3.9544082E-003	1.000000000000000E+000	10	1.0159255E-002	2.1101995E-003	2.0768254E-001	-3.5010439E-003	2.0771204E-001	-9.6578193E-001
9.5214820E+004	4.7672114E+000	3.2272822E-001	4.7781229E+000	-3.8728709E+000	4.986097036831779E+000	-2.1737602E-002	-4.0344023E-003	5.1793904E+000	2.3628594E-002	1.000000000000000E+000	10	1.0133781E-002	2.1208709E-003	2.0880927E-001	1.4135863E-002	2.0928721E-001	3.8728709E+000
6.4345688E+004	4.7893920E+000	7.3752195E-001	4.8458452E+000	-8.7542534E+000	5.395092549588298E+000	-2.1736501E-002	-3.0704609E-003	3.3537116E+000	7.7684894E-002	1.000000000000000E+000	10	1.0771159E-002	2.2227617E-003	2.0395827E-001	3.1407680E-002	2.0636235E-001	8.7542534E+000
4.3476547E+004	4.8542366E+000	1.2123398E+000	5.0033369E+000	-1.4022696E+001	5.804090942343464E+000	-2.1726822E-002	-3.3706455E-003	3.0195398E+000	1.7728417E-001	1.000000000000000E+000	10	1.0773608E-002	2.1532844E-003	1.9391054E-001	4.8428927E-002	1.9986661E-001	1.4022696E+001
2.9384758E+004	4.9533381E+000	1.8157194E+000	5.2756419E+000	-2.0131157E+001	6.213079201785149E+000	-2.1717256E-002	-2.6733309E-003	2.9829729E+000	3.5334271E-001	1.000000000000000E+000	10	1.0614665E-002	2.0120139E-003	1.7797025E-001	6.5237619E-002	1.8955040E-001	2.0131157E+001
1.9853508E+004	5.0792627E+000	2.6312706E+000	5.7203579E+000	-2.7386047E+001	6.622091407858534E+000	-2.1740325E-002	-3.5030325E-003	3.0466135E+000	6.4461738E-001	1.000000000000000E+000	10	1.0497724E-002	1.8351516E-003	1.5522236E-001	8.0411680E-002	1.7481424E-001	2.7386047E+001
1.3417967E+004	5.2220025E+000	3.7657645E+000	6.4381900E+000	-3.5796661E+001	7.031088413961697E+000	-2.1714384E-002	-2.4085890E-003	3.1497805E+000	1.0776036E+000	1.000000000000000E+000	10	1.0223353E-002	1.5879235E-003	1.2598228E-001	9.0850137E-002	1.5532316E-001	3.5796661E+001
9.0820293E+003	5.3980284E+000	5.3925738E+000	7.6301088E+000	-4.4971039E+001	7.328335894708289E+000	-2.1697190E-002	2.3477180E-003	3.2496839E+000	1.6231993E+000	1.000000000000000E+000	10	1.0348477E-002	1.3562687E-003	9.2720062E-002	9.2626370E-002	1.3105974E-001	4.4971039E+001
6.1409590E+003	5.6366324E+000	7.7755713E+000	9.6037045E+000	-5.4061062E+001	7.731637673925434E+000	-2.1715634E-002	1.4154696E-003	3.3331249E+000	2.1849356E+000	1.000000000000000E+000	10	9.9076545E-003	1.0316493E-003	6.1114199E-002	8.4305272E-002	1.0412648E-001	5.4061062E+001
4.1413242E+003	5.9740968E+000	1.1224995E+001	1.2715752E+001	-6.1977478E+001	8.197668576060096E+000	-2.1676322E-002	5.6515811E-003	3.4236925E+000	2.6679826E+000	1.000000000000000E+000	10	9.4860764E-003	7.4600987E-004	3.6947764E-002	6.9422796E-002	7.8642622E-002	6.1977478E+001
2.7973140E+003	6.4830465E+000	1.6228321E+001	1.7475363E+001	-6.8223801E+001	8.663964384846622E+000	-2.1673022E-002	6.0058278E-003	3.5059464E+000	3.0234311E+000	1.000000000000000E+000	10	9.2420699E-003	5.2886282E-004	2.1228865E-002	5.3139955E-002	5.7223417E-002	6.8223801E+001
1.8906046E+003	7.2111845E+000	2.3395542E+001	2.4481678E+001	-7.2869186E+001	9.128671580278024E+000	-2.1676453E-002	5.1630731E-003	3.5982082E+000	3.2860196E+000	1.000000000000000E+000	10	9.1011738E-003	3.7175449E-004	1.2031622E-002	3.9034691E-002	4.0846873E-002	7.2869186E+001
1.2871166E+003	8.2085648E+000	3.3571095E+001	3.4560078E+001	-7.6260033E+001	9.847195827722317E+000	-2.1693274E-002	-9.1346366E-005	3.6832972E+000	3.4755082E+000	1.000000000000000E+000	11	9.5585706E-003	2.7657839E-004	6.8725483E-003	2.8107103E-002	2.8935120E-002	7.6260033E+001
8.6306641E+002	9.7964430E+000	4.8883671E+001	4.9855629E+001	-7.8667854E+001	1.031418224985828E+001	-2.1688556E-002	-5.7965735E-005	3.7723510E+000	3.6266975E+000	1.000000000000000E+000	11	9.2462534E-003	1.8546057E-004	3.9413059E-003	1.9666877E-002	2.0057915E-002	7.8667854E+001
5.8369244E+002	1.2111412E+001	7.0406990E+001	7.1441101E+001	-8.0239502E+001	1.078122131203418E+001	-2.1698104E-002	-1.2025757E-004	3.8727572E+000	3.7614524E+000	1.000000000000000E+000	11	9.0906015E-003	1.2724609E-004	2.3730048E-003	1.3794931E-002	1.3997545E-002	8.0239502E+001
3.9411707E+002	1.5571834E+001	1.0181947E+002	1.0300333E+002	-8.1304802E+001	1.124820485422970E+001	-2.1691522E-002	-2.7383066E-005	3.9661033E+000	3.8754592E+000	1.000000000000000E+000	11	9.0293884E-003	8.7661130E-005	1.4676998E-003	9.5968395E-003	9.7084232E-003	8.1304802E+001
2.6644943E+002	2.1002232E+001	1.4678754E+002	1.4828241E+002	-8.1857437E+001	1.171164690296428E+001	-2.1693423E-002	-8.7622058E-005	4.0692668E+000	3.9876337E+000	1.000000000000000E+000	11	8.9954585E-003	6.0664366E-005	9.5518172E-004	6.6759014E-003	6.7438884E-003	8.1857437E+001
1.8005759E+002	2.9534666E+001	2.1106465E+002	2.1312105E+002	-8.2034218E+001	1.239868560226023E+001	-2.1696370E-002	-1.5420120E-004	4.1878700E+000	4.1074429E+000	1.000000000000000E+000	11	9.8558003E-003	4.6245081E-005	6.5024861E-004	4.6468941E-003	4.6921689E-003	8.2034218E+001
1.2159529E+002	4.2990051E+001	3.0545892E+002	3.0846927E+002	-8.1988853E+001	1.310812824926688E+001	-2.1691708E-002	-2.9580720E-005	4.2849975E+000	4.2017713E+000	1.000000000000000E+000	12	9.9155158E-003	3.2144257E-005	4.5179782E-004	3.2101769E-003	3.2418140E-003	8.1988853E+001
8.2236801E+001	6.3752995E+001	4.3866241E+002	4.4327097E+002	-8.1730812E+001	1.356329797752551E+001	-2.1684604E-002	-8.7271474E-005	4.4118781E+000	4.3206172E+000	1.000000000000000E+000	12	9.8792920E-003	2.2287253E-005	3.2446077E-004	2.2325017E-003	2.2559564E-003	8.1730812E+001
5.5515171E+001	1.0107349E+002	6.2624139E+002	6.3434546E+002	-8.0831696E+001	1.402488815947436E+001	-2.1690328E-002	-5.3764939E-005	4.5779042E+000	4.4616814E+000	1.000000000000000E+000	12	9.8535288E-003	1.5533380E-005	2.5118032E-004	1.5562885E-003	1.5764281E-003	8.0831696E+001
3.7560089E+001	1.5489775E+002	8.9204578E+002	9.0539435E+002	-8.0149193E+001	1.451576839614427E+001	-2.1684604E-002	-5.3932843E-005	4.7501397E+000	4.6111059E+000	1.000000000000000E+000	12	9.8499935E-003	1.0879230E-005	1.8895992E-004	1.0882071E-003	1.1044911E-003	8.0149193E+001
2.5365252E+001	2.5635760E+002	1.2737760E+003	1.2993169E+003	-7.8620781E+001	1.497487353795441E+001	-2.1690719E-002	-8.0820377E-005	4.9259262E+000	4.7341700E+000	1.000000000000000E+000	12	9.8500736E-003	7.5809635E-006	1.5185040E-004	7.5450633E-004	7.6963520E-004	7.8620781E+001
1.7132671E+001	4.0132520E+002	1.7741503E+003	1.8189753E+003	-7.7253807E+001	1.561582783506310E+001	-2.1696817E-002	-1.9519701E-005	5.2360606E+000	4.9811754E+000	1.000000000000000E+000	13	9.8590162E-003	5.4200932E-006	1.2129501E-004	5.3621229E-004	5.4976007E-004	7.7253807E+001
1.1591243E+001	6.3419385E+002	2.4673347E+003	2.5475366E+003	-7.5584969E+001	1.602526564113214E+001	-2.1699093E-002	-4.0732079E-006	5.5649605E+000	5.2200823E+000	1.000000000000000E+000	13	9.8489756E-003	3.8660783E-006	9.7719487E-005	3.8017819E-004	3.9253605E-004	7.5584969E+001
7.8281527E+000	9.9575885E+002	3.3917834E+003	3.5349302E+003	-7.3638832E+001	1.660626166875591E+001	-2.1688752E-002	-4.6792456E-006	5.9942207E+000	5.5185790E+000	1.000000000000000E+000	13	9.8454682E-003	2.7851945E-006	7.9687910E-005	2.7143536E-004	2.8289101E-004	7.3638832E+001
5.2930207E+000	1.5080631E+003	4.5951157E+003	4.8362529E+003	-7.1830772E+001	1.744268792183721E+001	-2.1688338E-002	-2.1066485E-006	6.5436502E+000	5.9073811E+000	1.000000000000000E+000	13	9.8444540E-003	2.0355540E-006	6.4476502E-005	1.9646196E-004	2.0677166E-004	7.1830772E+001
3.5755143E+000	2.3438665E+003	6.2350767E+003	6.6610728E+003	-6.9397949E+001	1.865739891279372E+001	-2.1683879E-002	-3.6833888E-005	7.1390405E+000	6.2551117E+000	1.000000000000000E+000	13	9.8451395E-003	1.4780111E-006	5.2825599E-005	1.4052495E-004	1.5012597E-004	6.9397949E+001
2.4172332E+000	3.3273738E+003	8.2598574E+003	8.9048672E+003	-6.8058617E+001	2.131062039889366E+001	-2.1683464E-002	4.8811912E-006	7.9712977E+000	6.8583436E+000	1.000000000000000E+000	14	9.8478636E-003	1.1058968E-006	4.1961077E-005	1.0416400E-004	1.1229813E-004	6.8058617E+001
1.6327059E+000	4.8403984E+003	1.0942391E+004	1.1965173E+004	-6.6137657E+001	2.392039142947760E+001	-2.1681227E-002	4.8417805E-006	8.9084053E+000	7.4505177E+000	1.000000000000000E+000	14	9.8465113E-003	8.2293099E-007	3.3809843E-005	7.6431825E-005	8.3575891E-005	6.6137657E+001
1.1020596E+000	6.9801665E+003	1.4279577E+004	1.5894309E+004	-6.3949612E+001	2.776940166563145E+001	-2.1683479E-002	4.6765817E-006	1.0113459E+001	8.1629496E+000	1.000000000000000E+000	14	9.8436782E-003	6.1932093E-007	2.7630107E-005	5.6523895E-005	6.2915606E-005	6.3949612E+001
7.4560940E-001	9.9933799E+003	1.8388555E+004	2.0928607E+004	-6.1477844E+001	3.344170588174893E+001	-2.1685066E-002	5.0518120E-006	1.1608100E+001	8.9613962E+000	1.000000000000000E+000	14	9.8432880E-003	4.7032694E-007	2.2815591E-005	4.1982370E-005	4.7781487E-005	6.1477844E+001
5.0390220E-001	1.3951356E+004	2.3064875E+004	2.6956053E+004	-5.8831322E+001	4.181756065288209E+001	-2.1683976E-002	1.1493808E-005	1.3693761E+001	1.0025646E+001	1.000000000000000E+000	14	9.8429397E-003	3.6514766E-007	1.9200115E-005	3.1742307E-005	3.7097419E-005	5.8831322E+001
3.4010270E-001	1.9484555E+004	2.8223412E+004	3.4295902E+004	-5.5380024E+001	5.421104046821711E+001	-2.1685403E-002	6.7703090E-006	1.6580612E+001	1.1228846E+001	1.000000000000000E+000	14	9.8431148E-003	2.8700555E-007	1.6565557E-005	2.3995237E-005	2.9158002E-005	5.5380024E+001
2.3021273E-001	2.5860166E+004	3.3459098E+004	4.2287816E+004	-5.2299961E+001	7.250433704376337E+001	-2.1657536E-002	7.8727981E-006	2.0662201E+001	1.2935240E+001	1.000000000000000E+000	14	9.8428614E-003	2.3275879E-007	1.4461082E-005	1.8710427E-005	2.3647473E-005	5.2299961E+001
1.5547264E-001	3.3323996E+004	3.8936098E+004	5.1249473E+004	-4.9440975E+001	9.957564099628144E+001	-2.1662625E-002	8.6693608E-006	2.6291403E+001	1.5175387E+001	1.000000000000000E+000	14	9.8429611E-003	1.9205976E-007	1.2687566E-005	1.4824280E-005	1.9512396E-005	4.9440975E+001
1.0504906E-001	4.1230051E+004	4.4555363E+004	6.0705004E+004	-4.7219852E+001	1.396251311385131E+002	-2.1671591E-002	1.0022820E-005	3.4003841E+001	1.8318039E+001	1.000000000000000E+000	14	9.8426668E-003	1.6213930E-007	1.1188320E-005	1.2090687E-005	1.6473106E-005	4.7219852E+001
7.1022727E-002	4.8792723E+004	5.0138441E+004	6.9961367E+004	-4.5779324E+001	1.988458864313434E+002	-2.1669773E-002	1.0347837E-005	4.4694279E+001	2.2954987E+001	1.000000000000000E+000	14	9.8419450E-003	1.4067686E-007	9.9686986E-006	1.0243639E-005	1.4293603E-005	4.5779324E+001
4.7988325E-002	5.7187578E+004	5.8513875E+004	8.1818656E+004	-4.5656757E+001	2.864768081936054E+002	-2.1671953E-002	1.0365690E-005	5.6679455E+001	2.8989365E+001	1.000000000000000E+000	14	9.8429127E-003	1.2030156E-007	8.5427373E-006	8.7408607E-006	1.2222152E-005	4.5656757E+001
3.2443926E-002	6.6450313E+004	6.9484711E+004	9.6144523E+004	-4.6278767E+001	4.160771412825852E+002	-2.1671148E-002	8.7511226E-006	7.0598831E+001	3.6874565E+001	1.000000000000000E+000	14	9.8431557E-003	1.0237874E-007	7.1886602E-006	7.5169241E-006	1.0401009E-005	4.6278767E+001
2.1920588E-002	7.8054289E+004	8.5798609E+004	1.1599083E+005	-4.7706005E+001	6.078782602326537E+002	-2.1673076E-002	7.5409002E-006	8.4622856E+001	4.6302120E+001	1.000000000000000E+000	14	9.8423911E-003	8.4854911E-008	5.8016226E-006	6.3772422E-006	8.6213713E-006	4.7706005E+001
1.4807615E-002	9.3492445E+004	1.0845879E+005	1.4319269E+005	-4.9238369E+001	8.917967881447548E+002	-2.1676211E-002	5.8815667E-006	9.9099228E+001	5.6853615E+001	1.000000000000000E+000	14	9.8436549E-003	6.8744114E-008	4.5596848E-006	5.2896030E-006	6.9835969E-006	4.9238369E+001
1.0000636E-002	1.1441636E+005	1.3977713E+005	1.8063430E+005	-5.0697521E+001	1.312169819791408E+003	-2.1677371E-002	3.6536721E-006	1.1385612E+002	6.8175476E+001	1.000000000000000E+000	14	9.8429574E-003	5.4491075E-008	3.5066118E-006	4.2838642E-006	5.5360474E-006	5.0697521E+001