EC-Lab ASCII FILE
Nb header lines : 62                          

Potentio Electrochemical Impedance Spectroscopy

Run on channel : 3 (SN 35515)
User : 
CE vs. WE compliance from -10 V to 10 V
Electrode connection : standard
Ewe ctrl range : min = -5.00 V, max = 5.00 V
Safety Limits :
	Do not start on E overload
Acquisition started on : 07/09/2023 15:56:02
Technique started on : 07/09/2023 15:56:04
Saved on :
	File : 0708_01_EIS_0.5MTFSI_Blocking_OutsideGB_24hr_60C_C03.mpr
	Directory : C:\Users\CESL\Documents\EC-Lab\Data\PhD\Leifer\Results\Zn Ion GPE\2023\0708\
	Host : 10.110.196.171
Device : VSP (SN 1724172417241724)
Address : USB
EC-Lab for windows v11.16 (software)
Internet server v11.16 (firmware)
Command interpretor v11.16 (firmware)
Electrode material : Au/Pd
Initial state : 
Electrolyte : NaCl (0.2M)
Comments : Fe(CN)63-/Fe(CN)64- 5.10-3 M
Reference electrode : SCE Saturated Calomel Electrode (0.241 V)
Electrode surface area : 0.001 cm²
Characteristic mass : 0.001 g
Equivalent Weight : 0.000 g/eq.
Density : 0.000 g/cm3
Cycle Definition : Charge/Discharge alternance
Mode                Single sine         
E (V)               0.0000              
vs.                 Eoc                 
tE (h:m:s)          0:00:0.0000         
record              0                   
dI                  0.000               
unit dI             mA                  
dt (s)              0.000               
fi                  1.000               
unit fi             MHz                 
ff                  10.000              
unit ff             mHz                 
Nd                  6                   
Points              per decade          
spacing             Logarithmic         
Va (mV)             10.0                
pw                  0.10                
Na                  2                   
corr                1                   
E range min (V)     -5.000              
E range max (V)     5.000               
I Range             Auto                
Bandwidth           5                   
nc cycles           0                   
goto Ns'            0                   
nr cycles           0                   
inc. cycle          0                   

freq/Hz	Re(Z)/Ohm	-Im(Z)/Ohm	|Z|/Ohm	Phase(Z)/deg	time/s	<Ewe>/V	<I>/mA	Cs/µF	Cp/µF	cycle number	I Range	|Ewe|/V	|I|/A	Re(Y)/Ohm-1	Im(Y)/Ohm-1	|Y|/Ohm-1	Phase(Y)/deg	
1.0000193E+006	-5.7467525E+001	1.8917765E+001	6.0501225E+001	-1.6177895E+002	2.638076685310807E+000	-1.5877707E-002	-2.5533219E-003	8.4128268E-003	8.2253286E-004	1.000000000000000E+000	11	2.7422264E-004	4.5325137E-006	-1.5699802E-002	5.1682256E-003	1.6528592E-002	1.6177895E+002
6.7575181E+005	3.7461143E+001	-1.0792900E+001	3.8984921E+001	1.6072178E+001	3.047078278061235E+000	-1.6545000E-002	-8.9616107E-004	-2.1822009E-002	-1.6725447E-003	1.000000000000000E+000	11	1.3531393E-003	3.4709301E-005	2.4648344E-002	-7.1014147E-003	2.5650945E-002	-1.6072178E+001
4.5664050E+005	2.2416367E+001	-4.0215836E+000	2.2774254E+001	1.0170889E+001	3.750096764793852E+000	-1.6552528E-002	8.7099738E-004	-8.6665973E-002	-2.7024301E-003	1.000000000000000E+000	10	7.6120147E-003	3.3423773E-004	4.3219220E-002	-7.7536972E-003	4.3909233E-002	-1.0170889E+001
3.0857416E+005	1.8840193E+001	-2.1359789E+000	1.8960888E+001	6.4682055E+000	4.159098357515177E+000	-1.6796226E-002	1.8388506E-003	-2.4147022E-001	-3.0643630E-003	1.000000000000000E+000	10	1.0904379E-002	5.7509856E-004	5.2404430E-002	-5.9412746E-003	5.2740145E-002	-6.4682055E+000
2.0852534E+005	1.7908079E+001	-1.2237288E+000	1.7949842E+001	3.9091666E+000	4.699097263190197E+000	-1.6819263E-002	2.1334947E-003	-6.2370050E-001	-2.8988463E-003	1.000000000000000E+000	10	1.0249300E-002	5.7099666E-004	5.5581179E-002	-3.7980783E-003	5.5710796E-002	-3.9091666E+000
1.4090817E+005	1.7508026E+001	-6.4419234E-001	1.7519873E+001	2.1071970E+000	5.240092675521737E+000	-1.6805638E-002	2.3404912E-003	-1.7533492E+000	-2.3704872E-003	1.000000000000000E+000	10	1.0149443E-002	5.7931029E-004	5.7039443E-002	-2.0987159E-003	5.7078041E-002	-2.1071970E+000
9.5214820E+004	1.7446901E+001	-2.2928876E-001	1.7448408E+001	7.5294298E-001	5.649094774940750E+000	-1.6809516E-002	1.6598253E-003	-7.2900882E+000	-1.2588869E-003	1.000000000000000E+000	10	1.0821097E-002	6.2017672E-004	5.7306871E-002	-7.5313204E-004	5.7311818E-002	-7.5294298E-001
6.4345688E+004	1.7402088E+001	1.1187234E-001	1.7402449E+001	-3.6833075E-001	6.058083647745661E+000	-1.6785471E-002	3.1927223E-003	2.2109451E+001	9.1369799E-004	1.000000000000000E+000	10	1.0529350E-002	6.0504995E-004	5.7461988E-002	3.6940433E-004	5.7463177E-002	3.6833075E-001
4.3476547E+004	1.7417400E+001	4.0810809E-001	1.7422180E+001	-1.3422551E+000	6.467082493822090E+000	-1.6791400E-002	2.4132193E-003	8.9699478E+000	4.9219285E-003	1.000000000000000E+000	10	1.0386053E-002	5.9613970E-004	5.7382349E-002	1.3445291E-003	5.7398099E-002	1.3422551E+000
2.9384758E+004	1.7495335E+001	7.5081497E-001	1.7511438E+001	-2.4573493E+000	6.876094299921533E+000	-1.6797662E-002	2.0048202E-003	7.2138162E+000	1.3261337E-002	1.000000000000000E+000	10	1.0261901E-002	5.8601127E-004	5.7053018E-002	2.4484389E-003	5.7105530E-002	2.4573493E+000
1.9853508E+004	1.7581982E+001	1.1421909E+000	1.7619043E+001	-3.7169240E+000	7.285085759358481E+000	-1.6791007E-002	2.7059990E-003	7.0184979E+000	2.9495580E-002	1.000000000000000E+000	10	1.0036650E-002	5.6964782E-004	5.6637384E-002	3.6793752E-003	5.6756772E-002	3.7169240E+000
1.3417967E+004	1.7721737E+001	1.7023370E+000	1.7803312E+001	-5.4869547E+000	7.562091052503092E+000	-1.6802264E-002	1.8985245E-003	6.9676752E+000	6.3705564E-002	1.000000000000000E+000	10	1.0562900E-002	5.9331092E-004	5.5911954E-002	5.3708609E-003	5.6169324E-002	5.4869547E+000
9.0820293E+003	1.7879049E+001	2.4627318E+000	1.8047865E+001	-7.8427973E+000	7.859331813262543E+000	-1.6789405E-002	2.4542462E-003	7.1157408E+000	1.3249597E-001	1.000000000000000E+000	10	1.0816019E-002	5.9929630E-004	5.4889940E-002	7.5607602E-003	5.5408217E-002	7.8427973E+000
6.1409590E+003	1.8106911E+001	3.5233240E+000	1.8446518E+001	-1.1011272E+001	8.262646392478928E+000	-1.6802879E-002	1.3065740E-004	7.3558235E+000	2.6835376E-001	1.000000000000000E+000	10	1.0928088E-002	5.9242011E-004	5.3212732E-002	1.0354373E-002	5.4210775E-002	1.1011272E+001
4.1413242E+003	1.8526562E+001	5.0238237E+000	1.9195633E+001	-1.5171968E+001	8.728704814609955E+000	-1.6768660E-002	2.3087885E-003	7.6497369E+000	5.2397484E-001	1.000000000000000E+000	10	1.0978847E-002	5.7194504E-004	5.0279386E-002	1.3634195E-002	5.2095182E-002	1.5171968E+001
2.7973140E+003	1.9089172E+001	7.1255841E+000	2.0375732E+001	-2.0469540E+001	9.194951156736352E+000	-1.6766181E-002	2.5922428E-003	7.9846973E+000	9.7650146E-001	1.000000000000000E+000	10	1.0981957E-002	5.3897238E-004	4.5979120E-002	1.7163033E-002	4.9077991E-002	2.0469540E+001
1.8906046E+003	1.9888342E+001	1.0023409E+001	2.2271391E+001	-2.6747379E+001	9.659706325503066E+000	-1.6765604E-002	2.7451592E-003	8.3985434E+000	1.7011404E+000	1.000000000000000E+000	10	1.0978485E-002	4.9294118E-004	4.0096261E-002	2.0207880E-002	4.4900652E-002	2.6747379E+001
1.2871166E+003	2.1011198E+001	1.3913533E+001	2.5200335E+001	-3.3512371E+001	1.012617682761629E+001	-1.6763944E-002	2.0719501E-003	8.8871975E+000	2.7091126E+000	1.000000000000000E+000	10	1.0953890E-002	4.3467240E-004	3.3085536E-002	2.1909114E-002	3.9682012E-002	3.3512371E+001
8.6306641E+002	2.2811752E+001	1.9465647E+001	2.9988121E+001	-4.0474678E+001	1.059321900978102E+001	-1.6759191E-002	2.5120496E-003	9.4734259E+000	3.9915929E+000	1.000000000000000E+000	10	1.0938311E-002	3.6475479E-004	2.5366474E-002	2.1645635E-002	3.3346538E-002	4.0474678E+001
5.8369244E+002	2.5335670E+001	2.6873598E+001	3.6933540E+001	-4.6687275E+001	1.153419892114471E+001	-1.6795779E-002	1.7082355E-004	1.0146359E+001	5.3718019E+000	1.000000000000000E+000	11	1.0218803E-002	2.7668083E-004	1.8573361E-002	1.9700805E-002	2.7075661E-002	4.6687275E+001
3.9411707E+002	2.8954227E+001	3.6903175E+001	4.6906200E+001	-5.1882275E+001	1.200118870331789E+001	-1.6794810E-002	3.4405338E-004	1.0942867E+001	6.7732658E+000	1.000000000000000E+000	11	1.0138713E-002	2.1614868E-004	1.3159866E-002	1.6772710E-002	2.1319143E-002	5.1882275E+001
2.6644943E+002	3.3938641E+001	5.0421234E+001	6.0779373E+001	-5.6055416E+001	1.246467832539929E+001	-1.6790448E-002	1.9151956E-004	1.1846549E+001	8.1527920E+000	1.000000000000000E+000	11	1.0090358E-002	1.6601615E-004	9.1871759E-003	1.3649005E-002	1.6452949E-002	5.6055416E+001
1.8005759E+002	4.0821884E+001	6.8384850E+001	7.9642410E+001	-5.9165188E+001	1.292969421415182E+001	-1.6794456E-002	3.0657015E-004	1.2925543E+001	9.5297127E+000	1.000000000000000E+000	11	1.0056937E-002	1.2627615E-004	6.4358255E-003	1.0781299E-002	1.2556124E-002	5.9165188E+001
1.2159529E+002	5.0133881E+001	9.2483925E+001	1.0519830E+002	-6.1538673E+001	1.339011791595840E+001	-1.6794326E-002	9.2315662E-005	1.4152629E+001	1.0938358E+001	1.000000000000000E+000	11	1.0039736E-002	9.5436291E-005	4.5301630E-003	8.3569689E-003	9.5058568E-003	6.1538673E+001
8.2236801E+001	6.2668228E+001	1.2479961E+002	1.3965045E+002	-6.3336445E+001	1.384530185759650E+001	-1.6792834E-002	1.4079668E-004	1.5507462E+001	1.2384614E+001	1.000000000000000E+000	11	1.0022651E-002	7.1769558E-005	3.2133849E-003	6.3992417E-003	7.1607358E-003	6.3336445E+001
5.5515171E+001	8.0130913E+001	1.6849431E+002	1.8657785E+002	-6.4565620E+001	1.430790419958066E+001	-1.6795201E-002	1.9990784E-004	1.7014658E+001	1.3876295E+001	1.000000000000000E+000	11	1.0026378E-002	5.3738306E-005	2.3018653E-003	4.8402194E-003	5.3596930E-003	6.4565620E+001
3.7560089E+001	1.0274237E+002	2.2701524E+002	2.4918250E+002	-6.5649483E+001	1.506475842221698E+001	-1.6789330E-002	-1.4969910E-005	1.8665451E+001	1.5492214E+001	1.000000000000000E+000	12	1.0039270E-002	4.0288825E-005	1.6546820E-003	3.6561158E-003	4.0131230E-003	6.5649483E+001
2.5365252E+001	1.3384344E+002	3.0685751E+002	3.3477695E+002	-6.6434395E+001	1.552386236400343E+001	-1.6794175E-002	-3.1565134E-005	2.0447687E+001	1.7179346E+001	1.000000000000000E+000	12	1.0037931E-002	2.9983936E-005	1.1942246E-003	2.7379510E-003	2.9870635E-003	6.6434395E+001
1.7132671E+001	1.7529306E+002	4.1364926E+002	4.4925870E+002	-6.7034119E+001	1.593785681034205E+001	-1.6804893E-002	-2.4591768E-004	2.2457571E+001	1.9038568E+001	1.000000000000000E+000	12	1.0026479E-002	2.2317830E-005	8.6850388E-004	2.0494594E-003	2.2258891E-003	6.7034119E+001
1.1591243E+001	2.3457161E+002	5.5778253E+002	6.0509930E+002	-6.7191147E+001	1.634729320308543E+001	-1.6802134E-002	-1.9253482E-004	2.4616440E+001	2.0917112E+001	1.000000000000000E+000	12	1.0019249E-002	1.6558024E-005	6.4065191E-004	1.5233917E-003	1.6526213E-003	6.7191147E+001
7.8281527E+000	3.0732919E+002	7.4507410E+002	8.0596936E+002	-6.7584763E+001	1.692927205740125E+001	-1.6788322E-002	-5.7408637E-005	2.7287352E+001	2.3319715E+001	1.000000000000000E+000	12	1.0023304E-002	1.2436334E-005	4.7311504E-004	1.1469972E-003	1.2407419E-003	6.7584763E+001
5.2930207E+000	4.0310471E+002	1.0069149E+003	1.0846063E+003	-6.8181976E+001	1.819275982413092E+001	-1.6792988E-002	-2.0734497E-005	2.9862335E+001	2.5737421E+001	1.000000000000000E+000	13	1.0028441E-002	9.2461578E-006	3.4266801E-004	8.5595017E-004	9.2199352E-004	6.8181976E+001
3.5755143E+000	5.2242548E+002	1.3584926E+003	1.4554829E+003	-6.8965126E+001	1.940727417511516E+001	-1.6789393E-002	-1.2589774E-005	3.2766071E+001	2.8544647E+001	1.000000000000000E+000	13	1.0024095E-002	6.8871268E-006	2.4660965E-004	6.4127316E-004	6.8705721E-004	6.8965126E+001
2.4172332E+000	6.9150305E+002	1.8473485E+003	1.9725295E+003	-6.9478020E+001	2.118449393953779E+001	-1.6784769E-002	6.6238122E-006	3.5641235E+001	3.1261036E+001	1.000000000000000E+000	13	1.0025548E-002	5.0825843E-006	1.7772442E-004	4.7479023E-004	5.0696323E-004	6.9478020E+001
1.6327059E+000	9.1071564E+002	2.5078674E+003	2.6681084E+003	-7.0041840E+001	2.379537934352993E+001	-1.6790077E-002	2.3166297E-006	3.8869381E+001	3.4340752E+001	1.000000000000000E+000	13	1.0023899E-002	3.7569312E-006	1.2793102E-004	3.5228781E-004	3.7479735E-004	7.0041840E+001
1.1020596E+000	1.1996029E+003	3.4180740E+003	3.6224683E+003	-7.0661034E+001	2.950837289486662E+001	-1.6785948E-002	2.1288417E-006	4.2250668E+001	3.7617275E+001	1.000000000000000E+000	14	1.0027515E-002	2.7681442E-006	9.1417278E-005	2.6047873E-004	2.7605487E-004	7.0661034E+001
7.4560940E-001	1.5918243E+003	4.6662827E+003	4.9303242E+003	-7.1163780E+001	3.518013572428026E+001	-1.6788248E-002	1.0744043E-006	4.5744377E+001	4.0975933E+001	1.000000000000000E+000	14	1.0024915E-002	2.0333177E-006	6.5485357E-005	1.9196412E-004	2.0282641E-004	7.1163780E+001
5.0390220E-001	2.1182783E+003	6.3870732E+003	6.7291758E+003	-7.1651855E+001	4.355596857547062E+001	-1.6794397E-002	1.5108681E-006	4.9450645E+001	4.4550442E+001	1.000000000000000E+000	14	1.0025675E-002	1.4898816E-006	4.6779893E-005	1.4105164E-004	1.4860660E-004	7.1651855E+001
3.4010270E-001	2.8606260E+003	8.7315918E+003	9.1882471E+003	-7.1860275E+001	5.594940343077178E+001	-1.6787689E-002	-3.6120963E-007	5.3594059E+001	4.8399197E+001	1.000000000000000E+000	14	1.0023845E-002	1.0909421E-006	3.3884087E-005	1.0342562E-004	1.0883469E-004	7.1860275E+001
2.3021273E-001	3.8419451E+003	1.1948772E+004	1.2551243E+004	-7.2175598E+001	7.424266928635916E+001	-1.6785897E-002	2.3975008E-006	5.7858543E+001	5.2437332E+001	1.000000000000000E+000	14	1.0023488E-002	7.9860519E-007	2.4388084E-005	7.5848984E-005	7.9673380E-005	7.2175598E+001
1.5547264E-001	5.2329731E+003	1.6254231E+004	1.7075832E+004	-7.2154282E+001	1.013139299055038E+002	-1.6788276E-002	-6.3732655E-006	6.2979576E+001	5.7064873E+001	1.000000000000000E+000	14	1.0022119E-002	5.8691830E-007	1.7946706E-005	5.5744582E-005	5.8562298E-005	7.2154282E+001
1.0504906E-001	7.2115068E+003	2.2221090E+004	2.3361992E+004	-7.2019974E+001	1.413634024210332E+002	-1.6787304E-002	-7.2075809E-006	6.8180878E+001	6.1684147E+001	1.000000000000000E+000	14	1.0023605E-002	4.2905609E-007	1.3213146E-005	4.0714171E-005	4.2804568E-005	7.2019974E+001
7.1022727E-002	1.0362850E+004	3.0139980E+004	3.1871729E+004	-7.1025795E+001	2.005841832605365E+002	-1.6787857E-002	-1.1872153E-006	7.4349808E+001	6.6489723E+001	1.000000000000000E+000	14	1.0023742E-002	3.1450261E-007	1.0201595E-005	2.9670970E-005	3.1375770E-005	7.1025795E+001
4.7988325E-002	1.4631615E+004	4.0582109E+004	4.3139215E+004	-7.0173561E+001	2.882148916894803E+002	-1.6786437E-002	3.2129533E-006	8.1724060E+001	7.2322708E+001	1.000000000000000E+000	14	1.0023594E-002	2.3235457E-007	7.8622670E-006	2.1806709E-005	2.3180764E-005	7.0173561E+001
3.2443926E-002	2.1318105E+004	5.4478703E+004	5.8501203E+004	-6.8629059E+001	4.178150250718172E+002	-1.6791102E-002	-4.4943822E-006	9.0045082E+001	7.8087929E+001	1.000000000000000E+000	14	1.0022983E-002	1.7132952E-007	6.2290092E-006	1.5918318E-005	1.7093666E-005	6.8629059E+001
2.1920588E-002	2.9799797E+004	7.0728922E+004	7.6750297E+004	-6.7153137E+001	6.096158645018731E+002	-1.6788540E-002	4.1896828E-006	1.0265282E+002	8.7177582E+001	1.000000000000000E+000	14	1.0022726E-002	1.3058876E-007	5.0588660E-006	1.2007066E-005	1.3029266E-005	6.7153137E+001
1.4807615E-002	4.3419695E+004	9.6510039E+004	1.0582749E+005	-6.5777107E+001	8.935340466539201E+002	-1.6791672E-002	-8.3131536E-006	1.1136854E+002	9.2621216E+001	1.000000000000000E+000	14	1.0022955E-002	9.4710316E-008	3.8769458E-006	8.6173850E-006	9.4493407E-006	6.5777107E+001
1.0000636E-002	6.1074656E+004	1.2460157E+005	1.3876478E+005	-6.3887772E+001	1.313906434433855E+003	-1.6781621E-002	-1.0633935E-005	1.2772297E+002	1.0298109E+002	1.000000000000000E+000	14	1.0022197E-002	7.2224353E-008	3.1717761E-006	6.4709047E-006	7.2064395E-006	6.3887772E+001