EC-Lab ASCII FILE
Nb header lines : 62                          

Potentio Electrochemical Impedance Spectroscopy

Run on channel : 3 (SN 35515)
User : 
CE vs. WE compliance from -10 V to 10 V
Electrode connection : standard
Ewe ctrl range : min = -5.00 V, max = 5.00 V
Safety Limits :
	Do not start on E overload
Acquisition started on : 07/10/2023 07:23:23
Technique started on : 07/10/2023 07:23:25
Saved on :
	File : 0708_01_EIS_0.5MTFSI_Blocking_OutsideGB_24hr_60C_overnight_C03.mpr
	Directory : C:\Users\CESL\Documents\EC-Lab\Data\PhD\Leifer\Results\Zn Ion GPE\2023\0708\
	Host : 10.110.196.171
Device : VSP (SN 1724172417241724)
Address : USB
EC-Lab for windows v11.16 (software)
Internet server v11.16 (firmware)
Command interpretor v11.16 (firmware)
Electrode material : Au/Pd
Initial state : 
Electrolyte : NaCl (0.2M)
Comments : Fe(CN)63-/Fe(CN)64- 5.10-3 M
Reference electrode : SCE Saturated Calomel Electrode (0.241 V)
Electrode surface area : 0.001 cm²
Characteristic mass : 0.001 g
Equivalent Weight : 0.000 g/eq.
Density : 0.000 g/cm3
Cycle Definition : Charge/Discharge alternance
Mode                Single sine         
E (V)               0.0000              
vs.                 Eoc                 
tE (h:m:s)          0:00:0.0000         
record              0                   
dI                  0.000               
unit dI             mA                  
dt (s)              0.000               
fi                  1.000               
unit fi             MHz                 
ff                  10.000              
unit ff             mHz                 
Nd                  6                   
Points              per decade          
spacing             Logarithmic         
Va (mV)             10.0                
pw                  0.10                
Na                  2                   
corr                1                   
E range min (V)     -5.000              
E range max (V)     5.000               
I Range             Auto                
Bandwidth           5                   
nc cycles           0                   
goto Ns'            0                   
nr cycles           0                   
inc. cycle          0                   

freq/Hz	Re(Z)/Ohm	-Im(Z)/Ohm	|Z|/Ohm	Phase(Z)/deg	time/s	<Ewe>/V	<I>/mA	Cs/µF	Cp/µF	cycle number	I Range	|Ewe|/V	|I|/A	Re(Y)/Ohm-1	Im(Y)/Ohm-1	|Y|/Ohm-1	Phase(Y)/deg	
1.0000193E+006	-5.8476921E+001	1.3008867E+001	5.9906433E+001	-1.6745813E+002	2.638078445306746E+000	2.7789745E-002	-1.3099401E-003	1.2234107E-002	5.7690503E-004	1.000000000000000E+000	11	2.4389056E-004	4.0711916E-006	-1.6294369E-002	3.6248695E-003	1.6692698E-002	1.6745813E+002
6.7575181E+005	3.2310043E+001	-1.0583381E+001	3.3999218E+001	1.8136570E+001	3.047097984730499E+000	2.7117627E-002	-1.1126526E-003	-2.2254022E-002	-2.1563510E-003	1.000000000000000E+000	11	1.1898223E-003	3.4995581E-005	2.7951149E-002	-9.1555947E-003	2.9412441E-002	-1.8136570E+001
4.5664050E+005	1.9051666E+001	-3.9345124E+000	1.9453699E+001	1.1668569E+001	4.338082872709492E+000	2.7129015E-002	2.0533050E-003	-8.8583894E-002	-3.6235328E-003	1.000000000000000E+000	10	6.6008340E-003	3.3930998E-004	5.0341781E-002	-1.0396484E-002	5.1404104E-002	-1.1668569E+001
3.0857416E+005	1.5908710E+001	-2.0705402E+000	1.6042887E+001	7.4154401E+000	4.747096838807920E+000	2.6847985E-002	2.1652018E-003	-2.4910183E-001	-4.1493420E-003	1.000000000000000E+000	10	1.0650708E-002	6.6388975E-004	6.1811592E-002	-8.0448631E-003	6.2332921E-002	-7.4154401E+000
2.0852534E+005	1.4755905E+001	-1.1938914E+000	1.4804125E+001	4.6256909E+000	5.288077371165855E+000	2.6847649E-002	3.6477449E-003	-6.3928783E-001	-4.1577718E-003	1.000000000000000E+000	10	1.0151860E-002	6.8574538E-004	6.7328729E-002	-5.4475269E-003	6.7548744E-002	-4.6256909E+000
1.4090817E+005	1.4303693E+001	-6.3667858E-001	1.4317856E+001	2.5486376E+000	5.829079103539698E+000	2.6852868E-002	2.9129982E-003	-1.7740414E+000	-3.5079082E-003	1.000000000000000E+000	10	1.0129301E-002	7.0745934E-004	6.9773771E-002	-3.1057340E-003	6.9842860E-002	-2.5486376E+000
9.5214820E+004	1.4130410E+001	-2.2755450E-001	1.4132242E+001	9.2260486E-001	6.238096456305357E+000	2.6848506E-002	2.8831621E-003	-7.3456483E+000	-1.9044906E-003	1.000000000000000E+000	10	1.0846052E-002	7.6746859E-004	7.0751011E-002	-1.1393661E-003	7.0760183E-002	-9.2260486E-001
6.4345688E+004	1.4040272E+001	1.0742883E-001	1.4040683E+001	-4.3838885E-001	6.647084742377047E+000	2.6867853E-002	3.1274550E-003	2.3023951E+001	1.3478610E-003	1.000000000000000E+000	10	1.0612831E-002	7.5586286E-004	7.1219519E-002	5.4493459E-004	7.1221605E-002	4.3838885E-001
4.3476547E+004	1.4028779E+001	4.4803011E-001	1.4035932E+001	-1.8292049E+000	7.056076815148117E+000	2.6852196E-002	3.7223380E-003	8.1706743E+000	8.3251074E-003	1.000000000000000E+000	10	1.0403534E-002	7.4120727E-004	7.1209408E-002	2.2741794E-003	7.1245715E-002	1.8292049E+000
2.9384758E+004	1.4065308E+001	8.2809484E-001	1.4089664E+001	-3.3693988E+000	7.465100327885011E+000	2.6860379E-002	3.3288570E-003	6.5406055E+000	2.2593154E-002	1.000000000000000E+000	10	1.0299198E-002	7.3097547E-004	7.0851326E-002	4.1713710E-003	7.0974015E-002	3.3693988E+000
1.9853508E+004	1.4111771E+001	1.2793026E+000	1.4169640E+001	-5.1799898E+000	7.874090507306391E+000	2.6850650E-002	2.1297657E-003	6.2662773E+000	5.1078551E-002	1.000000000000000E+000	10	1.0053093E-002	7.0948119E-004	7.0285201E-002	6.3717053E-003	7.0573427E-002	5.1799898E+000
1.3417967E+004	1.4195930E+001	1.9310749E+000	1.4326671E+001	-7.7464080E+000	8.151099187118234E+000	2.6870314E-002	3.1349140E-003	6.1423464E+000	1.1159429E-001	1.000000000000000E+000	10	1.0693978E-002	7.4643845E-004	6.9162913E-002	9.4082439E-003	6.9799885E-002	7.7464080E+000
9.0820293E+003	1.4337485E+001	2.8008111E+000	1.4608492E+001	-1.1053462E+001	8.588330381229753E+000	2.6872065E-002	3.3381809E-003	6.2568169E+000	2.2999069E-001	1.000000000000000E+000	10	1.0127698E-002	6.9327472E-004	6.7183435E-002	1.3124206E-002	6.8453334E-002	1.1053462E+001
6.1409590E+003	1.4551078E+001	4.0186591E+000	1.5095810E+001	-1.5438878E+001	8.991638027106092E+000	2.6858030E-002	1.3689112E-003	6.4491539E+000	4.5703793E-001	1.000000000000000E+000	10	1.0249053E-002	6.7893363E-004	6.3853145E-002	1.7634710E-002	6.6243544E-002	1.5438878E+001
4.1413242E+003	1.4885262E+001	5.7686963E+000	1.5963986E+001	-2.1183550E+001	9.457685195906379E+000	2.6895903E-002	4.5950818E-003	6.6619787E+000	8.6991310E-001	1.000000000000000E+000	10	1.0286929E-002	6.4438349E-004	5.8408193E-002	2.2635754E-002	6.2640995E-002	2.1183550E+001
2.7973140E+003	1.5406548E+001	8.2007189E+000	1.7453180E+001	-2.8025833E+001	9.923936338018393E+000	2.6891803E-002	4.0859799E-003	6.9378829E+000	1.5317280E+000	1.000000000000000E+000	10	1.0279956E-002	5.8900187E-004	5.0577365E-002	2.6921719E-002	5.7296149E-002	2.8025833E+001
1.8906046E+003	1.6167423E+001	1.1562067E+001	1.9876291E+001	-3.5570301E+001	1.038766820007731E+001	2.6900228E-002	4.6286467E-003	7.2808809E+000	2.4636793E+000	1.000000000000000E+000	10	1.0233874E-002	5.1487843E-004	4.0923249E-002	2.9266095E-002	5.0311197E-002	3.5570301E+001
1.2871166E+003	1.7354656E+001	1.6165092E+001	2.3716963E+001	-4.2967514E+001	1.085418254221440E+001	2.6892828E-002	4.0076529E-003	7.6493411E+000	3.5535488E+000	1.000000000000000E+000	10	1.0210629E-002	4.3052007E-004	3.0853035E-002	2.8738232E-002	4.2163916E-002	4.2967514E+001
8.6306641E+002	1.9248718E+001	2.2780066E+001	2.9823557E+001	-4.9802834E+001	1.132121613770141E+001	2.6891263E-002	3.9945957E-003	8.0950766E+000	4.7229357E+000	1.000000000000000E+000	10	1.0181333E-002	3.4138560E-004	2.1641279E-002	2.5611565E-002	3.3530541E-002	4.9802834E+001
5.8369244E+002	2.2002747E+001	3.1662746E+001	3.8557106E+001	-5.5204189E+001	1.204021193183144E+001	2.6871841E-002	1.8480876E-004	8.6116714E+000	5.8073206E+000	1.000000000000000E+000	11	1.0356951E-002	2.6861328E-004	1.4800217E-002	2.1298043E-002	2.5935557E-002	5.5204189E+001
3.9411707E+002	2.6188055E+001	4.3767521E+001	5.1004021E+001	-5.9106041E+001	1.250719579405268E+001	2.6862206E-002	1.9506387E-004	9.2266264E+000	6.7941952E+000	1.000000000000000E+000	11	1.0251935E-002	2.0100248E-004	1.0066869E-002	1.6824538E-002	1.9606298E-002	5.9106041E+001
2.6644943E+002	3.2301418E+001	5.9996624E+001	6.8139389E+001	-6.1702541E+001	1.297067317609617E+001	2.6862467E-002	4.1782929E-005	9.9558544E+000	7.7185493E+000	1.000000000000000E+000	11	1.0205937E-002	1.4978027E-004	6.9570504E-003	1.2922018E-002	1.4675800E-002	6.1702541E+001
1.8005759E+002	4.1219337E+001	8.1551910E+001	9.1376953E+001	-6.3186283E+001	1.343569671818113E+001	2.6861368E-002	1.9729875E-004	1.0838634E+001	8.6331539E+000	1.000000000000000E+000	11	1.0165592E-002	1.1124897E-004	4.9365973E-003	9.7669903E-003	1.0943678E-002	6.3186283E+001
1.2159529E+002	5.4059425E+001	1.0999032E+002	1.2255730E+002	-6.3826225E+001	1.389612207337632E+001	2.6869344E-002	8.6347944E-005	1.1900053E+001	9.5847216E+000	1.000000000000000E+000	11	1.0150558E-002	8.2822960E-005	3.5990933E-003	7.3227822E-003	8.1594493E-003	6.3826225E+001
8.2236801E+001	7.1857666E+001	1.4719409E+002	1.6379752E+002	-6.3979153E+001	1.435128486828762E+001	2.6868226E-002	-1.9567235E-005	1.3148117E+001	1.0617682E+001	1.000000000000000E+000	11	1.0141093E-002	6.1912375E-005	2.6782956E-003	5.4862523E-003	6.1050989E-003	6.3979153E+001
5.5515171E+001	9.6556229E+001	1.9638817E+002	2.1884108E+002	-6.3818493E+001	1.506386850215495E+001	2.6864927E-002	-7.4412688E-005	1.4597993E+001	1.1756176E+001	1.000000000000000E+000	12	1.0184560E-002	4.6538611E-005	2.0161490E-003	4.1006962E-003	4.5695258E-003	6.3818493E+001
3.7560089E+001	1.3072391E+002	2.5811777E+002	2.8933289E+002	-6.3140038E+001	1.555574745887134E+001	2.6869865E-002	1.6168466E-005	1.6416313E+001	1.3065193E+001	1.000000000000000E+000	12	1.0159696E-002	3.5114208E-005	1.5615626E-003	3.0833462E-003	3.4562266E-003	6.3140038E+001
2.5365252E+001	1.7785529E+002	3.3812146E+002	3.8204532E+002	-6.2255180E+001	1.601485097399564E+001	2.6863398E-002	-3.6896579E-006	1.8557020E+001	1.4535298E+001	1.000000000000000E+000	12	1.0146827E-002	2.6559224E-005	1.2185321E-003	2.3165569E-003	2.6174905E-003	6.2255180E+001
1.7132671E+001	2.3841383E+002	4.4052701E+002	5.0090439E+002	-6.1577686E+001	1.642783179362596E+001	2.6860043E-002	-3.9847783E-004	2.1087374E+001	1.6310148E+001	1.000000000000000E+000	12	1.0137141E-002	2.0237676E-005	9.5021474E-004	1.7557507E-003	1.9963889E-003	6.1577686E+001
1.1591243E+001	3.1329544E+002	5.7097101E+002	6.5127716E+002	-6.1246143E+001	1.683727845302201E+001	2.6853818E-002	-6.4941480E-005	2.4047840E+001	1.8483002E+001	1.000000000000000E+000	12	1.0146782E-002	1.5579821E-005	7.3862221E-004	1.3461157E-003	1.5354446E-003	6.1246143E+001
7.8281527E+000	4.1845560E+002	7.3265033E+002	8.4373077E+002	-6.0267014E+001	1.741928672065842E+001	2.6864424E-002	-4.0757932E-005	2.7750071E+001	2.0924246E+001	1.000000000000000E+000	12	1.0140703E-002	1.2018885E-005	5.8781623E-004	1.0291744E-003	1.1852122E-003	6.0267014E+001
5.2930207E+000	5.4245355E+002	9.4707324E+002	1.0914227E+003	-6.0197285E+001	1.868268542073929E+001	2.6865501E-002	2.6556277E-006	3.1749212E+001	2.3906397E+001	1.000000000000000E+000	13	1.0146173E-002	9.2962810E-006	4.5538275E-004	7.9505570E-004	9.1623527E-004	6.0197285E+001
3.5755143E+000	6.9891772E+002	1.2263241E+003	1.4115087E+003	-6.0319927E+001	1.989730798502569E+001	2.6874769E-002	6.6201410E-006	3.6297470E+001	2.7398058E+001	1.000000000000000E+000	13	1.0145511E-002	7.1877071E-006	3.5079950E-004	6.1551429E-004	7.0846180E-004	6.0319927E+001
2.4172332E+000	9.0202899E+002	1.5883964E+003	1.8266525E+003	-6.0408337E+001	2.167360166946986E+001	2.6869908E-002	7.1988603E-007	4.1451733E+001	3.1343580E+001	1.000000000000000E+000	13	1.0143870E-002	5.5532569E-006	2.7033896E-004	4.7604390E-004	5.4744951E-004	6.0408337E+001
1.6327059E+000	1.1449248E+003	2.0673479E+003	2.3632139E+003	-6.1021729E+001	2.428448742008186E+001	2.6872097E-002	-1.5767826E-007	4.7151836E+001	3.6084415E+001	1.000000000000000E+000	13	1.0147226E-002	4.2938245E-006	2.0500807E-004	3.7017534E-004	4.2315255E-004	6.1021729E+001
1.1020596E+000	1.4616619E+003	2.7091045E+003	3.0782629E+003	-6.1651501E+001	2.999744910476147E+001	2.6871182E-002	-6.4603080E-007	5.3307621E+001	4.1288525E+001	1.000000000000000E+000	14	1.0149069E-002	3.2970117E-006	1.5425366E-004	2.8590011E-004	3.2485853E-004	6.1651501E+001
7.4560940E-001	1.8568826E+003	3.5641333E+003	4.0188381E+003	-6.2480877E+001	3.566818260078435E+001	2.6869893E-002	1.1068533E-006	5.9890068E+001	4.7104420E+001	1.000000000000000E+000	14	1.0148053E-002	2.5251211E-006	1.1496971E-004	2.2067490E-004	2.4882815E-004	6.2480877E+001
5.0390220E-001	2.3661069E+003	4.7271738E+003	5.2862686E+003	-6.3410519E+001	4.404401257197605E+001	2.6869662E-002	-1.9347813E-006	6.6814743E+001	5.3428993E+001	1.000000000000000E+000	14	1.0146867E-002	1.9194763E-006	8.4671243E-005	1.6916213E-004	1.8916935E-004	6.3410519E+001
3.4010270E-001	3.0006665E+003	6.2761509E+003	6.9565845E+003	-6.4447250E+001	5.643745692059747E+001	2.6874425E-002	4.0465952E-007	7.4561844E+001	6.0689182E+001	1.000000000000000E+000	14	1.0145037E-002	1.4583360E-006	6.2004838E-005	1.2968844E-004	1.4374871E-004	6.4447250E+001
2.3021273E-001	3.8185310E+003	8.3960820E+003	9.2236309E+003	-6.5543999E+001	7.473073546953674E+001	2.6873944E-002	1.1884608E-006	8.2340614E+001	6.8228157E+001	1.000000000000000E+000	14	1.0144741E-002	1.0998642E-006	4.4884098E-005	9.8689925E-005	1.0841717E-004	6.5543999E+001
1.5547264E-001	4.8487075E+003	1.1291360E+004	1.2288400E+004	-6.6760468E+001	1.018019970753230E+002	2.6872402E-002	9.5751125E-007	9.0660873E+001	7.6545860E+001	1.000000000000000E+000	14	1.0145055E-002	8.2557983E-007	3.2109630E-005	7.4774849E-005	8.1377555E-005	6.6760468E+001
1.0504906E-001	6.2325039E+003	1.5290625E+004	1.6512035E+004	-6.7824043E+001	1.418513690308610E+002	2.6871387E-002	4.8764963E-007	9.9083817E+001	8.4967331E+001	1.000000000000000E+000	14	1.0144141E-002	6.1434832E-007	2.2859220E-005	5.6082066E-005	6.0561888E-005	6.7824043E+001
7.1022727E-002	8.0107871E+003	2.0819000E+004	2.2307027E+004	-6.8954147E+001	2.010720930170792E+002	2.6872979E-002	3.4010120E-007	1.0763734E+002	9.3756042E+001	1.000000000000000E+000	14	1.0143862E-002	4.5473843E-007	1.6098737E-005	4.1838532E-005	4.4828921E-005	6.8954147E+001
4.7988325E-002	1.0443415E+004	2.8417105E+004	3.0275350E+004	-6.9821388E+001	2.887028791793273E+002	2.6870616E-002	3.3606207E-007	1.1670909E+002	1.0282200E+002	1.000000000000000E+000	14	1.0143958E-002	3.3505668E-007	1.1393687E-005	3.1002844E-005	3.3030174E-005	6.9821388E+001
3.2443926E-002	1.3699164E+004	3.9062500E+004	4.1395000E+004	-7.0674301E+001	4.183019997616066E+002	2.6869843E-002	4.3242412E-007	1.2558179E+002	1.1182812E+002	1.000000000000000E+000	14	1.0146125E-002	2.4510510E-007	7.9946294E-006	2.2796296E-005	2.4157507E-005	7.0674301E+001
2.1920588E-002	1.8267697E+004	5.3370031E+004	5.6409832E+004	-7.1104759E+001	6.101028333783470E+002	2.6869530E-002	3.5893800E-007	1.3604121E+002	1.2177434E+002	1.000000000000000E+000	14	1.0145696E-002	1.7985687E-007	5.7408229E-006	1.6772117E-005	1.7727407E-005	7.1104759E+001
1.4807615E-002	2.4683717E+004	7.3392211E+004	7.7431922E+004	-7.1410866E+001	8.940210203037132E+002	2.6872929E-002	4.0298193E-007	1.4644853E+002	1.3156638E+002	1.000000000000000E+000	14	1.0144508E-002	1.3101196E-007	4.1169010E-006	1.2240803E-005	1.2914570E-005	7.1410866E+001
1.0000636E-002	3.3650047E+004	1.0098873E+005	1.0644741E+005	-7.1571617E+001	1.314393412510311E+003	2.6881358E-002	5.0708780E-007	1.5758670E+002	1.4183887E+002	1.000000000000000E+000	14	1.0144479E-002	9.5300386E-008	2.9697205E-006	8.9125660E-006	9.3943108E-006	7.1571617E+001