EC-Lab ASCII FILE
Nb header lines : 62                          

Potentio Electrochemical Impedance Spectroscopy

Run on channel : 2 (SN 35514)
User : 
CE vs. WE compliance from -10 V to 10 V
Electrode connection : standard
Ewe ctrl range : min = -5.00 V, max = 5.00 V
Safety Limits :
	Do not start on E overload
Acquisition started on : 07/08/2023 16:13:12
Technique started on : 07/08/2023 16:13:14
Saved on :
	File : 0708_01_EIS_0.5MTFSI_Blocking_OutsideGB_C01_C02.mpr
	Directory : C:\Users\CESL\Documents\EC-Lab\Data\PhD\Leifer\Results\Zn Ion GPE\2023\0708\
	Host : 10.110.196.171
Device : VSP (SN 1724172417241724)
Address : USB
EC-Lab for windows v11.16 (software)
Internet server v11.16 (firmware)
Command interpretor v11.16 (firmware)
Electrode material : Au/Pd
Initial state : 
Electrolyte : NaCl (0.2M)
Comments : Fe(CN)63-/Fe(CN)64- 5.10-3 M
Reference electrode : SCE Saturated Calomel Electrode (0.241 V)
Electrode surface area : 0.001 cm²
Characteristic mass : 0.001 g
Equivalent Weight : 0.000 g/eq.
Density : 0.000 g/cm3
Cycle Definition : Charge/Discharge alternance
Mode                Single sine         
E (V)               0.0000              
vs.                 Eoc                 
tE (h:m:s)          0:00:0.0000         
record              0                   
dI                  0.000               
unit dI             mA                  
dt (s)              0.000               
fi                  1.000               
unit fi             MHz                 
ff                  10.000              
unit ff             mHz                 
Nd                  6                   
Points              per decade          
spacing             Logarithmic         
Va (mV)             10.0                
pw                  0.10                
Na                  2                   
corr                1                   
E range min (V)     -5.000              
E range max (V)     5.000               
I Range             Auto                
Bandwidth           5                   
nc cycles           0                   
goto Ns'            0                   
nr cycles           0                   
inc. cycle          0                   

freq/Hz	Re(Z)/Ohm	-Im(Z)/Ohm	|Z|/Ohm	Phase(Z)/deg	time/s	<Ewe>/V	<I>/mA	Cs/µF	Cp/µF	cycle number	I Range	|Ewe|/V	|I|/A	Re(Y)/Ohm-1	Im(Y)/Ohm-1	|Y|/Ohm-1	Phase(Y)/deg	
1.0000193E+006	-2.5430588E+001	1.1149627E+001	2.7767408E+001	-1.5632573E+002	2.306089682824677E+000	-3.0844757E-002	1.1786504E-003	1.4274189E-002	2.3014492E-003	1.000000000000000E+000	10	2.1290124E-004	7.6673068E-006	-3.2982659E-002	1.4460714E-002	3.6013443E-002	1.5632573E+002
6.7575181E+005	4.2909435E+001	-1.2191960E+001	4.4607887E+001	1.5861566E+001	2.715081062284298E+000	-3.1763714E-002	2.2414138E-003	-1.9317877E-002	-1.4430558E-003	1.000000000000000E+000	10	1.2664379E-003	2.8390448E-005	2.1564009E-002	-6.1270334E-003	2.2417560E-002	-1.5861566E+001
4.5664050E+005	1.5996650E+001	-2.7009282E+000	1.6223064E+001	9.5836248E+000	3.124080468376633E+000	-3.1783946E-002	2.9443388E-003	-1.2904246E-001	-3.5767858E-003	1.000000000000000E+000	10	4.7878921E-003	2.9512870E-004	6.0780358E-002	-1.0262361E-002	6.1640635E-002	-9.5836248E+000
3.0857416E+005	1.2426634E+001	-1.1327384E+000	1.2478154E+001	5.2083502E+000	3.533086114475736E+000	-3.2047767E-002	2.6665414E-003	-4.5533493E-001	-3.7522302E-003	1.000000000000000E+000	10	1.0100370E-002	8.0944429E-004	7.9809181E-002	-7.2749318E-003	8.0140062E-002	-5.2083502E+000
2.0852534E+005	1.1296521E+001	-3.6495534E-001	1.1302415E+001	1.8504041E+000	4.074089580186410E+000	-3.2078497E-002	2.4633126E-003	-2.0913253E+000	-2.1805121E-003	1.000000000000000E+000	10	1.0176410E-002	9.0037484E-004	8.8430531E-002	-2.8569142E-003	8.8476665E-002	-1.8504041E+000
1.4090817E+005	1.0859634E+001	2.0794097E-001	1.0861625E+001	-1.0969691E+000	4.615083685872378E+000	-3.2052092E-002	3.5316625E-003	5.4318018E+000	1.9908312E-003	1.000000000000000E+000	10	1.0175286E-002	9.3681068E-004	9.2050381E-002	1.7625865E-003	9.2067257E-002	1.0969691E+000
9.5214820E+004	1.0751198E+001	7.7141207E-001	1.0778837E+001	-4.1040120E+000	5.024079411959974E+000	-3.2039393E-002	3.4887828E-003	2.1668515E+000	1.1098344E-002	1.000000000000000E+000	10	1.0983837E-002	1.0190187E-003	9.2536487E-002	6.6396110E-003	9.2774384E-002	4.1040120E+000
6.4345688E+004	1.0760442E+001	1.3916197E+000	1.0850056E+001	-7.3690109E+000	5.433094658044865E+000	-3.2050937E-002	3.1252049E-003	1.7773793E+000	2.9238651E-002	1.000000000000000E+000	10	1.0765856E-002	9.9223969E-004	9.1404200E-002	1.1821066E-002	9.2165425E-002	7.3690109E+000
4.3476547E+004	1.0889644E+001	2.1236110E+000	1.1094776E+001	-1.1034871E+001	5.842076997476397E+000	-3.2026526E-002	3.9157486E-003	1.7238129E+000	6.3154310E-002	1.000000000000000E+000	10	1.0509784E-002	9.4727322E-004	8.8466033E-002	1.7251939E-002	9.0132505E-002	1.1034871E+001
2.9384758E+004	1.1071937E+001	3.0593028E+000	1.1486823E+001	-1.5446085E+001	6.251087576907594E+000	-3.2029361E-002	3.9977864E-003	1.7704169E+000	1.2558004E-001	1.000000000000000E+000	10	1.0276092E-002	8.9459826E-004	8.3911933E-002	2.3185827E-002	8.7056272E-002	1.5446085E+001
1.9853508E+004	1.1334195E+001	4.3290319E+000	1.2132786E+001	-2.0904076E+001	6.660100609675283E+000	-3.2028988E-002	3.7982799E-003	1.8517915E+000	2.3575050E-001	1.000000000000000E+000	10	1.0178708E-002	8.3894242E-004	7.6996259E-002	2.9408287E-002	8.2421303E-002	2.0904076E+001
1.3417967E+004	1.1623528E+001	6.0559068E+000	1.3106503E+001	-2.7519701E+001	6.937080969481030E+000	-3.2037940E-002	4.6783183E-003	1.9586383E+000	4.1815656E-001	1.000000000000000E+000	10	1.0784992E-002	8.2287332E-004	6.7665033E-002	3.5253763E-002	7.6297998E-002	2.7519701E+001
9.0820293E+003	1.1942693E+001	8.5509434E+000	1.4688313E+001	-3.5602585E+001	7.234337170229992E+000	-3.2015111E-002	5.3775017E-003	2.0493834E+000	6.9455618E-001	1.000000000000000E+000	10	1.0905138E-002	7.4243639E-004	5.5355195E-002	3.9634205E-002	6.8081334E-002	3.5602585E+001
6.1409590E+003	1.2350829E+001	1.2183566E+001	1.7348841E+001	-4.4609394E+001	7.637627056128622E+000	-3.2037787E-002	1.7678461E-003	2.1272056E+000	1.0491012E+000	1.000000000000000E+000	10	1.0803184E-002	6.2270346E-004	4.1035071E-002	4.0479351E-002	5.7640739E-002	4.4609394E+001
4.1413242E+003	1.2912035E+001	1.7511852E+001	2.1757427E+001	-5.3597492E+001	8.103691264928784E+000	-3.1994153E-002	5.3980039E-003	2.1945670E+000	1.4216671E+000	1.000000000000000E+000	10	1.0641197E-002	4.8908341E-004	2.7275933E-002	3.6992785E-002	4.5961317E-002	5.3597492E+001
2.7973140E+003	1.3638577E+001	2.5214529E+001	2.8666761E+001	-6.1590977E+001	8.569942140398780E+000	-3.2001071E-002	3.9996309E-003	2.2564621E+000	1.7457116E+000	1.000000000000000E+000	10	1.0510595E-002	3.6664744E-004	1.6596321E-002	3.0682702E-002	3.4883607E-002	6.1590977E+001
1.8906046E+003	1.4804908E+001	3.6410988E+001	3.9305794E+001	-6.7873070E+001	9.509668745042291E+000	-3.2022066E-002	1.9044746E-004	2.3119953E+000	1.9839865E+000	1.000000000000000E+000	11	1.0109996E-002	2.5721389E-004	9.5828036E-003	2.3567816E-002	2.5441542E-002	6.7873070E+001
1.2871166E+003	1.6456263E+001	5.2153248E+001	5.4687931E+001	-7.2487602E+001	9.976183487131493E+000	-3.2024212E-002	8.3584084E-005	2.3709419E+000	2.1562574E+000	1.000000000000000E+000	11	9.7220130E-003	1.7777256E-004	5.5023506E-003	1.7438069E-002	1.8285571E-002	7.2487602E+001
8.6306641E+002	1.9095968E+001	7.5721771E+001	7.8092529E+001	-7.5845940E+001	1.044317366936593E+001	-3.2023262E-002	1.3524129E-004	2.4353151E+000	2.2896953E+000	1.000000000000000E+000	11	9.5224967E-003	1.2193864E-004	3.1312855E-003	1.2416575E-002	1.2805322E-002	7.5845940E+001
5.8369244E+002	2.2828749E+001	1.0923203E+002	1.1159206E+002	-7.8195480E+001	1.091021526485565E+001	-3.2025352E-002	1.9790314E-004	2.4962385E+000	2.3917704E+000	1.000000000000000E+000	11	9.4346981E-003	8.4546322E-005	1.8332242E-003	8.7716924E-003	8.9612110E-003	7.8195480E+001
3.9411707E+002	2.8519926E+001	1.5740089E+002	1.5996384E+002	-7.9729836E+001	1.137720552700921E+001	-3.2031823E-002	5.4487351E-005	2.5655928E+000	2.4840393E+000	1.000000000000000E+000	11	9.3893874E-003	5.8696940E-005	1.1145636E-003	6.1512529E-003	6.2514129E-003	7.9729836E+001
2.6644943E+002	3.7052776E+001	2.2614940E+002	2.2916470E+002	-8.0695213E+001	1.184068386909348E+001	-3.2026060E-002	2.9683024E-005	2.6412525E+000	2.5722034E+000	1.000000000000000E+000	11	9.3683666E-003	4.0880495E-005	7.0554612E-004	4.3062572E-003	4.3636737E-003	8.0695213E+001
1.8005759E+002	5.0655567E+001	3.2650244E+002	3.3040857E+002	-8.1181091E+001	1.255868848985847E+001	-3.2019906E-002	-8.1567032E-006	2.7072122E+000	2.6435804E+000	1.000000000000000E+000	12	9.4413469E-003	2.8574765E-005	4.6400723E-004	2.9907755E-003	3.0265560E-003	8.1181091E+001
1.2159529E+002	7.0096741E+001	4.6796368E+002	4.7318448E+002	-8.1480949E+001	1.301913709836663E+001	-3.2018993E-002	-6.1950348E-005	2.7969921E+000	2.7356124E+000	1.000000000000000E+000	12	9.3861939E-003	1.9836225E-005	3.1306659E-004	2.0900234E-003	2.1133407E-003	8.1480949E+001
8.2236801E+001	1.0745184E+002	6.7320679E+002	6.8172815E+002	-8.0931404E+001	1.347432330661104E+001	-3.2031953E-002	-4.3901298E-005	2.8747857E+000	2.8033671E+000	1.000000000000000E+000	12	9.3677416E-003	1.3741169E-005	2.3120189E-004	1.4485251E-003	1.4668604E-003	8.0931404E+001
5.5515171E+001	1.6175563E+002	9.6435370E+002	9.7782562E+002	-8.0478142E+001	1.393589023526874E+001	-3.2018263E-002	-8.1137288E-005	2.9728439E+000	2.8914919E+000	1.000000000000000E+000	12	9.3592033E-003	9.5714440E-006	1.6917523E-004	1.0085874E-003	1.0226773E-003	8.0478142E+001
3.7560089E+001	2.3250255E+002	1.3727468E+003	1.3922971E+003	-8.0387024E+001	1.442677313859167E+001	-3.2010999E-002	-5.5564495E-005	3.0867615E+000	3.0006831E+000	1.000000000000000E+000	12	9.3549471E-003	6.7190736E-006	1.1993995E-004	7.0815219E-004	7.1823748E-004	8.0387024E+001
2.5365252E+001	3.8001611E+002	1.9456532E+003	1.9824174E+003	-7.8948380E+001	1.513587053224910E+001	-3.2019235E-002	-8.1942335E-007	3.2248945E+000	3.1063917E+000	1.000000000000000E+000	13	9.3715210E-003	4.7273197E-006	9.6696749E-005	4.9507985E-004	5.0443463E-004	7.8948380E+001
1.7132671E+001	5.9919330E+002	2.7332810E+003	2.7981882E+003	-7.7635147E+001	1.554982391191879E+001	-3.2027662E-002	1.3267194E-006	3.3986835E+000	3.2428396E+000	1.000000000000000E+000	13	9.3574114E-003	3.3440965E-006	7.6526725E-005	3.4908441E-004	3.5737411E-004	7.7635147E+001
1.1591243E+001	9.2465497E+002	3.8062102E+003	3.9169150E+003	-7.6345467E+001	1.595925913131214E+001	-3.2029156E-002	-3.7394839E-006	3.6074255E+000	3.4063919E+000	1.000000000000000E+000	13	9.3502710E-003	2.3871519E-006	6.0268630E-005	2.4808728E-004	2.5530296E-004	7.6345467E+001
7.8281527E+000	1.4220277E+003	5.2537949E+003	5.4428413E+003	-7.4854820E+001	1.654026710559265E+001	-3.2013696E-002	1.0215324E-005	3.8697929E+000	3.6056421E+000	1.000000000000000E+000	13	9.3564382E-003	1.7190357E-006	4.8001719E-005	1.7734614E-004	1.8372756E-004	7.4854820E+001
5.2930207E+000	2.1130042E+003	7.2373218E+003	7.5394702E+003	-7.3724335E+001	1.737675498536555E+001	-3.2014228E-002	5.2987821E-007	4.1546903E+000	3.8283598E+000	1.000000000000000E+000	13	9.3508651E-003	1.2402550E-006	3.7172242E-005	1.2731987E-004	1.3263531E-004	7.3724335E+001
3.5755143E+000	3.1558645E+003	9.8597363E+003	1.0352481E+004	-7.2251381E+001	1.920029253858957E+001	-3.2012738E-002	2.4021397E-006	4.5145693E+000	4.0950389E+000	1.000000000000000E+000	14	9.3575204E-003	9.0389153E-007	2.9446210E-005	9.1997572E-005	9.6595199E-005	7.2251381E+001
2.4172332E+000	4.5928340E+003	1.3402012E+004	1.4167146E+004	-7.1083549E+001	2.097751408969634E+001	-3.2010023E-002	3.6244312E-006	4.9128280E+000	4.3964972E+000	1.000000000000000E+000	14	9.3552815E-003	6.6035045E-007	2.2883158E-005	6.6773668E-005	7.0585847E-005	7.1083549E+001
1.6327059E+000	6.7551245E+003	1.8122236E+004	1.9340299E+004	-6.9556892E+001	2.358840354703716E+001	-3.2012403E-002	4.1665280E-006	5.3789854E+000	4.7227788E+000	1.000000000000000E+000	14	9.3503147E-003	4.8346277E-007	1.8059553E-005	4.8449067E-005	5.1705509E-005	6.9556892E+001
1.1020596E+000	9.8509580E+003	2.4387832E+004	2.6302238E+004	-6.8004776E+001	2.743741732984199E+001	-3.2008581E-002	4.1130370E-006	5.9216380E+000	5.0909967E+000	1.000000000000000E+000	14	9.3529811E-003	3.5559640E-007	1.4239447E-005	3.5252328E-005	3.8019578E-005	6.8004776E+001
7.4560940E-001	1.4377582E+004	3.2406191E+004	3.5452449E+004	-6.6074684E+001	3.310908938592183E+001	-3.2010894E-002	4.3098089E-006	6.5868955E+000	5.5035672E+000	1.000000000000000E+000	14	9.3512889E-003	2.6376989E-007	1.1439140E-005	2.5783123E-005	2.8206796E-005	6.6074684E+001
5.0390220E-001	2.0930516E+004	4.2735031E+004	4.7585391E+004	-6.3905579E+001	4.148494535710779E+001	-3.2014042E-002	3.7919324E-006	7.3907723E+000	5.9608831E+000	1.000000000000000E+000	14	9.3509248E-003	1.9650831E-007	9.2434202E-006	1.8872819E-005	2.1014854E-005	6.3905579E+001
3.4010270E-001	3.0444428E+004	5.5187090E+004	6.3027598E+004	-6.1116299E+001	5.387834389237105E+001	-3.2016337E-002	5.3546469E-006	8.4795456E+000	6.5010877E+000	1.000000000000000E+000	14	9.3512610E-003	1.4836772E-007	7.6638389E-006	1.3892359E-005	1.5866066E-005	6.1116299E+001
2.3021273E-001	4.3483066E+004	7.0305563E+004	8.2665891E+004	-5.8263756E+001	7.217164286799380E+001	-3.2018777E-002	5.4041698E-006	9.8333406E+000	7.1125898E+000	1.000000000000000E+000	14	9.3505699E-003	1.1311280E-007	6.3630810E-006	1.0288143E-005	1.2096888E-005	5.8263756E+001
1.5547264E-001	6.0981336E+004	8.7828180E+004	1.0692293E+005	-5.5226772E+001	9.924294514046051E+001	-3.2021202E-002	5.2895634E-006	1.1655537E+001	7.8642688E+000	1.000000000000000E+000	14	9.3494318E-003	8.7440853E-008	5.3340268E-006	7.6823162E-006	9.3525305E-006	5.5226772E+001
1.0504906E-001	8.3741758E+004	1.0860328E+005	1.3713991E+005	-5.2364922E+001	1.392924248560157E+002	-3.2025091E-002	4.8606516E-006	1.3950347E+001	8.7486935E+000	1.000000000000000E+000	14	9.3507636E-003	6.8184121E-008	4.4526073E-006	5.7745115E-006	7.2918237E-006	5.2364922E+001
7.1022727E-002	1.1261648E+005	1.3285197E+005	1.7416119E+005	-4.9712593E+001	1.985131560954906E+002	-3.2016944E-002	4.1914191E-006	1.6867659E+001	9.8149490E+000	1.000000000000000E+000	14	9.3501173E-003	5.3686573E-008	3.7127797E-006	4.3799109E-006	5.7418074E-006	4.9712593E+001
4.7988325E-002	1.4950052E+005	1.6325159E+005	2.2136280E+005	-4.7517559E+001	2.861440851111256E+002	-3.2021858E-002	3.7103505E-006	2.0315481E+001	1.1049248E+001	1.000000000000000E+000	14	9.3503548E-003	4.2239957E-008	3.0509384E-006	3.3315641E-006	4.5174711E-006	4.7517559E+001
3.2443926E-002	1.9486350E+005	2.0107034E+005	2.8000191E+005	-4.5898121E+001	4.157444046801247E+002	-3.2021519E-002	2.7265917E-006	2.4397129E+001	1.2580931E+001	1.000000000000000E+000	14	9.3510831E-003	3.3396496E-008	2.4854701E-006	2.5646377E-006	3.5714042E-006	4.5898121E+001
2.1920588E-002	2.5320725E+005	2.4781902E+005	3.5429956E+005	-4.4383842E+001	6.075456067500927E+002	-3.2024965E-002	2.2099036E-006	2.9297684E+001	1.4333799E+001	1.000000000000000E+000	14	9.3507860E-003	2.6392316E-008	2.0171349E-006	1.9742104E-006	2.8224704E-006	4.4383842E+001
1.4807615E-002	3.2699556E+005	3.0877247E+005	4.4974050E+005	-4.3358173E+001	8.914642419422453E+002	-3.2029197E-002	1.9242279E-006	3.4809391E+001	1.6407770E+001	1.000000000000000E+000	14	9.3495538E-003	2.0788775E-008	1.6166568E-006	1.5265624E-006	2.2235045E-006	4.3358173E+001
1.0000636E-002	4.2333344E+005	3.8801438E+005	5.7425288E+005	-4.2507412E+001	1.311837192655570E+003	-3.2030955E-002	2.6845370E-007	4.1015186E+001	1.8725523E+001	1.000000000000000E+000	14	9.3492251E-003	1.6280676E-008	1.2837374E-006	1.1766342E-006	1.7413931E-006	4.2507412E+001