EC-Lab ASCII FILE
Nb header lines : 62                          

Potentio Electrochemical Impedance Spectroscopy

Run on channel : 1 (SN 35512)
User : 
CE vs. WE compliance from -10 V to 10 V
Electrode connection : standard
Ewe ctrl range : min = -5.00 V, max = 5.00 V
Safety Limits :
	Do not start on E overload
Acquisition started on : 07/09/2023 16:26:35
Technique started on : 07/09/2023 16:26:36
Saved on :
	File : 0708_01_EIS_0.5MTFSI_Blocking_InsideGB_day_2_60C_t2_C01.mpr
	Directory : C:\Users\CESL\Documents\EC-Lab\Data\PhD\Leifer\Results\Zn Ion GPE\2023\0708\
	Host : 10.110.196.171
Device : VSP (SN 1724172417241724)
Address : USB
EC-Lab for windows v11.16 (software)
Internet server v11.16 (firmware)
Command interpretor v11.16 (firmware)
Electrode material : Au/Pd
Initial state : 
Electrolyte : NaCl (0.2M)
Comments : Fe(CN)63-/Fe(CN)64- 5.10-3 M
Reference electrode : SCE Saturated Calomel Electrode (0.241 V)
Electrode surface area : 0.001 cm²
Characteristic mass : 0.001 g
Equivalent Weight : 0.000 g/eq.
Density : 0.000 g/cm3
Cycle Definition : Charge/Discharge alternance
Mode                Single sine         
E (V)               0.0000              
vs.                 Eoc                 
tE (h:m:s)          0:00:0.0000         
record              0                   
dI                  0.000               
unit dI             mA                  
dt (s)              0.000               
fi                  1.000               
unit fi             MHz                 
ff                  10.000              
unit ff             mHz                 
Nd                  6                   
Points              per decade          
spacing             Logarithmic         
Va (mV)             10.0                
pw                  0.10                
Na                  2                   
corr                1                   
E range min (V)     -5.000              
E range max (V)     5.000               
I Range             Auto                
Bandwidth           5                   
nc cycles           0                   
goto Ns'            0                   
nr cycles           0                   
inc. cycle          0                   

freq/Hz	Re(Z)/Ohm	-Im(Z)/Ohm	|Z|/Ohm	Phase(Z)/deg	time/s	<Ewe>/V	<I>/mA	Cs/µF	Cp/µF	cycle number	I Range	|Ewe|/V	|I|/A	Re(Y)/Ohm-1	Im(Y)/Ohm-1	|Y|/Ohm-1	Phase(Y)/deg	
1.0000193E+006	2.9797785E+000	4.4068713E+000	5.3197365E+000	-5.5934761E+001	1.974093853757950E+000	5.3284258E-002	5.4576796E-002	3.6114480E-002	2.4783457E-002	1.000000000000000E+000	9	1.5075428E-004	2.8338673E-005	1.0529403E-001	1.5572205E-001	1.8797924E-001	5.5934761E+001
6.7575181E+005	1.1503005E+001	-9.7467518E+000	1.5077079E+001	4.0275349E+001	2.677097033796599E+000	5.2808005E-002	-1.8073475E-003	-2.4164231E-002	-1.0098536E-002	1.000000000000000E+000	10	7.8108202E-004	5.1805924E-005	5.0603073E-002	-4.2877112E-002	6.6325843E-002	-4.0275349E+001
4.5664050E+005	6.8052187E+000	-3.5258303E+000	7.6643643E+000	2.7388981E+001	3.086100759886904E+000	5.2914761E-002	-9.6820784E-004	-9.8851733E-002	-2.0919669E-002	1.000000000000000E+000	10	2.6163787E-003	3.4136930E-004	1.1584835E-001	-6.0021814E-002	1.3047397E-001	-2.7388981E+001
3.0857416E+005	5.7856350E+000	-1.8213441E+000	6.0655475E+000	1.7474237E+001	3.495078806008678E+000	5.2703302E-002	2.7745089E-004	-2.8318390E-001	-2.5533631E-002	1.000000000000000E+000	10	6.7353523E-003	1.1104278E-003	1.5725738E-001	-4.9505334E-002	1.6486558E-001	-1.7474237E+001
2.0852534E+005	5.3960242E+000	-9.3689597E-001	5.4767556E+000	9.8499031E+000	3.904090398777043E+000	5.2678578E-002	2.2764695E-003	-8.1464785E-001	-2.3839982E-002	1.000000000000000E+000	10	1.0482695E-002	1.9140337E-003	1.7989835E-001	-3.1235227E-002	1.8258986E-001	-9.8499031E+000
1.4090817E+005	5.2508421E+000	-3.3533195E-001	5.2615390E+000	3.6540897E+000	4.445077384472825E+000	5.2699480E-002	5.2544433E-003	-3.3682864E+000	-1.3681487E-002	1.000000000000000E+000	10	1.0180982E-002	1.9349818E-003	1.8967207E-001	-1.2112933E-002	1.9005845E-001	-3.6540897E+000
9.5214820E+004	5.1926789E+000	1.7297402E-001	5.1955590E+000	-1.9078819E+000	4.986077916837530E+000	5.2720532E-002	4.7043459E-003	9.6635056E+000	1.0711046E-002	1.000000000000000E+000	10	1.0106893E-002	1.9452947E-003	1.9236538E-001	6.4079086E-003	1.9247207E-001	1.9078819E+000
6.4345688E+004	5.1897602E+000	6.9281852E-001	5.2358007E+000	-7.6038685E+000	5.395099509594729E+000	5.2703284E-002	5.7038483E-003	3.5701065E+000	6.2510639E-002	1.000000000000000E+000	10	1.0757674E-002	2.0546378E-003	1.8931328E-001	2.5272794E-002	1.9099276E-001	7.6038685E+000
4.3476547E+004	5.2114120E+000	1.2875464E+000	5.3681087E+000	-1.3877748E+001	5.804095209023217E+000	5.2722733E-002	4.6838340E-003	2.8431661E+000	1.6356312E-001	1.000000000000000E+000	10	1.0747517E-002	2.0021049E-003	1.8084762E-001	4.4680733E-002	1.8628535E-001	1.3877748E+001
2.9384758E+004	5.2747211E+000	2.0522747E+000	5.6599040E+000	-2.1259886E+001	6.213080935092876E+000	5.2713763E-002	5.3122505E-003	2.6391406E+000	3.4698874E-001	1.000000000000000E+000	10	1.0672959E-002	1.8857138E-003	1.6465744E-001	6.4064488E-002	1.7668144E-001	2.1259886E+001
1.9853508E+004	5.3690758E+000	3.1012721E+000	6.2003922E+000	-3.0011482E+001	6.622099354543025E+000	5.2721240E-002	5.4782019E-003	2.5848956E+000	6.4667255E-001	1.000000000000000E+000	10	1.0486508E-002	1.6912653E-003	1.3965653E-001	8.0668055E-002	1.6128013E-001	3.0011482E+001
1.3417967E+004	5.5131235E+000	4.5548463E+000	7.1513042E+000	-3.9562920E+001	7.031087800627574E+000	5.2710984E-002	5.2227210E-003	2.6041124E+000	1.0564201E+000	1.000000000000000E+000	10	1.0256767E-002	1.4342513E-003	1.0780209E-001	8.9064196E-002	1.3983463E-001	3.9562920E+001
9.0820293E+003	5.7365661E+000	6.6346741E+000	8.7708092E+000	-4.9152187E+001	7.328330881398870E+000	5.2723255E-002	7.4137771E-003	2.6412995E+000	1.5113933E+000	1.000000000000000E+000	10	1.0173735E-002	1.1599540E-003	7.4571460E-002	8.6246267E-002	1.1401457E-001	4.9152187E+001
6.1409590E+003	6.0651612E+000	9.5927172E+000	1.1349291E+001	-5.7696171E+001	7.731640207257442E+000	5.2723460E-002	9.4742998E-003	2.7017322E+000	1.9301368E+000	1.000000000000000E+000	10	9.6540581E-003	8.5063092E-004	4.7087420E-002	7.4473910E-002	8.8111229E-002	5.7696171E+001
4.1413242E+003	6.5833445E+000	1.3848624E+001	1.5333780E+001	-6.4574570E+001	8.197698842726822E+000	5.2764576E-002	1.4055938E-002	2.7750721E+000	2.2635446E+000	1.000000000000000E+000	10	9.2710555E-003	6.0461642E-004	2.7999360E-002	5.8899034E-002	6.5215491E-002	6.4574570E+001
2.7973140E+003	7.2718763E+000	1.9939436E+001	2.1224073E+001	-6.9963181E+001	8.663930171518587E+000	5.2763272E-002	1.3651287E-002	2.8534222E+000	2.5184555E+000	1.000000000000000E+000	10	9.0431217E-003	4.2607854E-004	1.6143175E-002	4.4264484E-002	4.7116309E-002	6.9963181E+001
1.8906046E+003	8.2987213E+000	2.8586420E+001	2.9766628E+001	-7.3811836E+001	9.349708444111457E+000	5.2771796E-002	1.4844712E-002	2.9448261E+000	2.7159383E+000	1.000000000000000E+000	10	9.8207742E-003	3.2992565E-004	9.3659488E-003	3.2262683E-002	3.3594668E-002	7.3811836E+001
1.2871166E+003	9.8527746E+000	4.0970829E+001	4.2138889E+001	-7.6478119E+001	1.006821933152969E+001	5.2754264E-002	7.5446168E-004	3.0180576E+000	2.8530595E+000	1.000000000000000E+000	11	1.0236114E-002	2.4291372E-004	5.5487151E-003	2.3073239E-002	2.3731047E-002	7.6478119E+001
8.6306641E+002	1.2148313E+001	5.9358467E+001	6.0588852E+001	-7.8433563E+001	1.053520930037485E+001	5.2748580E-002	6.7205587E-004	3.1066566E+000	2.9817631E+000	1.000000000000000E+000	11	9.9458396E-003	1.6415297E-004	3.3092566E-003	1.6169524E-002	1.6504686E-002	7.8433563E+001
5.8369244E+002	1.5316199E+001	8.5225891E+001	8.6591217E+001	-7.9811958E+001	1.100218846919597E+001	5.2744921E-002	7.0076506E-004	3.1993701E+000	3.0992737E+000	1.000000000000000E+000	11	9.8237796E-003	1.1345007E-004	2.0426936E-003	1.1366425E-002	1.1548515E-002	7.9811958E+001
3.9411707E+002	2.0425014E+001	1.2247507E+002	1.2416652E+002	-8.0531990E+001	1.146917958473205E+001	5.2743338E-002	5.2793982E-004	3.2972145E+000	3.2079942E+000	1.000000000000000E+000	11	9.7584939E-003	7.8591991E-005	1.3248088E-003	7.9439897E-003	8.0537004E-003	8.0531990E+001
2.6644943E+002	2.7822172E+001	1.7537242E+002	1.7756564E+002	-8.0985367E+001	1.193265203346164E+001	5.2743301E-002	6.9144211E-004	3.4059954E+000	3.3223758E+000	1.000000000000000E+000	11	9.7212559E-003	5.4747394E-005	8.8241574E-004	5.5621592E-003	5.6317202E-003	8.0985367E+001
1.8005759E+002	3.9836929E+001	2.5278371E+002	2.5590346E+002	-8.1044243E+001	1.265066380089411E+001	5.2741677E-002	1.1092912E-004	3.4967098E+000	3.4119720E+000	1.000000000000000E+000	12	9.8247565E-003	3.8392434E-005	6.0832215E-004	3.8600841E-003	3.9077238E-003	8.1044243E+001
1.2159529E+002	5.8719322E+001	3.6217297E+002	3.6690219E+002	-8.0790733E+001	1.311112854271778E+001	5.2746341E-002	1.7044489E-005	3.6139934E+000	3.5214279E+000	1.000000000000000E+000	12	9.7584799E-003	2.6596952E-005	4.3619482E-004	2.6903911E-003	2.7255220E-003	8.0790733E+001
8.2236801E+001	8.6019394E+001	5.1516986E+002	5.2230194E+002	-8.0520607E+001	1.356628877765615E+001	5.2745260E-002	-1.2230857E-004	3.7566741E+000	3.6547790E+000	1.000000000000000E+000	12	9.7247856E-003	1.8619088E-005	3.1532117E-004	1.8884572E-003	1.9146013E-003	8.0520607E+001
5.5515171E+001	1.3233455E+002	7.3678027E+002	7.4857037E+002	-7.9817566E+001	1.402890989300795E+001	5.2743264E-002	4.3471202E-005	3.8910825E+000	3.7694776E+000	1.000000000000000E+000	12	9.7120404E-003	1.2974118E-005	2.3616083E-004	1.3148395E-003	1.3358798E-003	7.9817566E+001
3.7560089E+001	2.0917738E+002	1.0339077E+003	1.0548556E+003	-7.8562462E+001	1.452076719638717E+001	5.2750852E-002	3.1292639E-005	4.0983758E+000	3.9372165E+000	1.000000000000000E+000	12	9.7042536E-003	9.1996035E-006	1.8798737E-004	9.2917122E-004	9.4799703E-004	7.8562462E+001
2.5365252E+001	3.2512155E+002	1.4442823E+003	1.4804241E+003	-7.7313652E+001	1.497987089818344E+001	5.2752811E-002	1.8127599E-004	4.3443904E+000	4.1348600E+000	1.000000000000000E+000	12	9.6997172E-003	6.5519857E-006	1.4834518E-004	6.5899151E-004	6.7548215E-004	7.7313652E+001
1.7132671E+001	4.6058432E+002	1.9935083E+003	2.0460238E+003	-7.6990540E+001	1.562181924868491E+001	5.2737072E-002	6.8118388E-006	4.6599040E+000	4.4237618E+000	1.000000000000000E+000	13	9.7174756E-003	4.7494441E-006	1.1002410E-004	4.7620799E-004	4.8875285E-004	7.6990540E+001
1.1591243E+001	6.6214685E+002	2.7642490E+003	2.8424480E+003	-7.6529213E+001	1.603127385475091E+001	5.2728478E-002	-2.9956805E-006	4.9672151E+000	4.6976671E+000	1.000000000000000E+000	13	9.7035673E-003	3.4138063E-006	8.1953855E-005	3.4213075E-004	3.5180943E-004	7.6529213E+001
7.8281527E+000	9.1917255E+002	3.8086531E+003	3.9179990E+003	-7.6431801E+001	1.661329641574412E+001	5.2739281E-002	-3.7696482E-006	5.3381333E+000	5.0443316E+000	1.000000000000000E+000	13	9.7056301E-003	2.4771905E-006	5.9878170E-005	2.4810914E-004	2.5523233E-004	7.6431801E+001
5.2930207E+000	1.1764302E+003	5.2738613E+003	5.4034805E+003	-7.7425018E+001	1.744971925550635E+001	5.2747592E-002	-8.4421623E-007	5.7014828E+000	5.4312282E+000	1.000000000000000E+000	13	9.7036846E-003	1.7958212E-006	4.0292009E-005	1.8062652E-004	1.8506590E-004	7.7425018E+001
3.5755143E+000	1.4913267E+003	7.4240835E+003	7.5723887E+003	-7.8641769E+001	1.927326675542281E+001	5.2754823E-002	2.4772478E-006	5.9956846E+000	5.7631335E+000	1.000000000000000E+000	14	9.7113010E-003	1.2824620E-006	2.6007998E-005	1.2947236E-004	1.3205873E-004	7.8641769E+001
2.4172332E+000	1.8592751E+003	1.0511414E+004	1.0674583E+004	-7.9969185E+001	2.105048457314842E+001	5.2755043E-002	6.7732373E-007	6.2638369E+000	6.0738053E+000	1.000000000000000E+000	14	9.7071100E-003	9.0936663E-007	1.6317059E-005	9.2248491E-005	9.3680472E-005	7.9969185E+001
1.6327059E+000	2.3342722E+003	1.5079813E+004	1.5259410E+004	-8.1200768E+001	2.366126283051563E+001	5.2752115E-002	5.2613933E-007	6.4642215E+000	6.3129544E+000	1.000000000000000E+000	14	9.7022690E-003	6.3582200E-007	1.0024804E-005	6.4762033E-005	6.5533335E-005	8.1200768E+001
1.1020596E+000	3.1128347E+003	2.1776143E+004	2.1997502E+004	-8.1864853E+001	2.750961501333131E+001	5.2750111E-002	8.2397264E-007	6.6318407E+000	6.4990411E+000	1.000000000000000E+000	14	9.7006829E-003	4.4099022E-007	6.4329356E-006	4.5002249E-005	4.5459707E-005	8.1864853E+001
7.4560940E-001	4.2946387E+003	3.1382961E+004	3.1675451E+004	-8.2207695E+001	3.318235688269488E+001	5.2750934E-002	1.3494227E-006	6.8016586E+000	6.6766262E+000	1.000000000000000E+000	14	9.7001567E-003	3.0623579E-007	4.2803658E-006	3.1278672E-005	3.1570191E-005	8.2207695E+001
5.0390220E-001	6.4012256E+003	4.5289527E+004	4.5739664E+004	-8.1955101E+001	4.155820826723357E+001	5.2747495E-002	1.4913780E-007	6.9739060E+000	6.8373170E+000	1.000000000000000E+000	14	9.7001670E-003	2.1207342E-007	3.0596873E-006	2.1647704E-005	2.1862863E-005	8.1955101E+001
3.4010270E-001	9.5774229E+003	6.5199746E+004	6.5899422E+004	-8.1643379E+001	5.395166794925899E+001	5.2750539E-002	7.0308340E-007	7.1773505E+000	7.0257506E+000	1.000000000000000E+000	14	9.6987607E-003	1.4717520E-007	2.2053912E-006	1.5013526E-005	1.5174640E-005	8.1643379E+001
2.3021273E-001	1.5046755E+004	9.3281242E+004	9.4487008E+004	-8.0836823E+001	7.224496231146622E+001	5.2749157E-002	9.2135986E-007	7.4113355E+000	7.2233872E+000	1.000000000000000E+000	14	9.7010117E-003	1.0267033E-007	1.6853826E-006	1.0448409E-005	1.0583466E-005	8.0836823E+001
1.5547264E-001	2.4261428E+004	1.3381948E+005	1.3600100E+005	-7.9723915E+001	9.931621378389536E+001	5.2748960E-002	1.2003226E-006	7.6497421E+000	7.4063001E+000	1.000000000000000E+000	14	9.7026015E-003	7.1342136E-008	1.3116928E-006	7.2349440E-006	7.3528872E-006	7.9723915E+001
1.0504906E-001	3.9548785E+004	1.8922005E+005	1.9330891E+005	-7.8194588E+001	1.393656439528713E+002	5.2746929E-002	1.0923608E-006	8.0068340E+000	7.6716962E+000	1.000000000000000E+000	14	9.7000366E-003	5.0178944E-008	1.0583502E-006	5.0636472E-006	5.1730676E-006	7.8194588E+001
7.1022727E-002	6.5543859E+004	2.6689119E+005	2.7482159E+005	-7.6202209E+001	1.985864723656850E+002	5.2743793E-002	1.0338100E-006	8.3963118E+000	7.9187260E+000	1.000000000000000E+000	14	9.7017875E-003	3.5302129E-008	8.6782126E-007	3.5337234E-006	3.6387244E-006	7.6202209E+001
4.7988325E-002	1.0690278E+005	3.7110409E+005	3.8619484E+005	-7.3930061E+001	2.862172768212331E+002	5.2743796E-002	1.0842821E-006	8.9369392E+000	8.2521544E+000	1.000000000000000E+000	14	9.7005656E-003	2.5118320E-008	7.1676385E-007	2.4881856E-006	2.5893664E-006	7.3930061E+001
3.2443926E-002	1.8039923E+005	5.0608194E+005	5.3727350E+005	-7.0380753E+001	4.158174478035944E+002	5.2740812E-002	1.4047789E-006	9.6931715E+000	8.6003618E+000	1.000000000000000E+000	14	9.7007323E-003	1.8055482E-008	6.2494803E-007	1.7531941E-006	1.8612494E-006	7.0380753E+001
2.1920588E-002	2.9370709E+005	6.8247263E+005	7.4298906E+005	-6.6715019E+001	6.076182763536053E+002	5.2741405E-002	1.4771718E-006	1.0638556E+001	8.9761133E+000	1.000000000000000E+000	14	9.7004054E-003	1.3055920E-008	5.3204650E-007	1.2362901E-006	1.3459148E-006	6.6715019E+001
1.4807615E-002	4.7586213E+005	8.8999819E+005	1.0092282E+006	-6.1867580E+001	8.915365396523557E+002	5.2738838E-002	1.9060295E-006	1.2076633E+001	9.3917255E+000	1.000000000000000E+000	14	9.7012157E-003	9.6125099E-009	4.6719953E-007	8.7379664E-007	9.9085617E-007	6.1867580E+001
1.0000636E-002	7.3592213E+005	1.1182334E+006	1.3386663E+006	-5.6650631E+001	1.311909041592327E+003	5.2736215E-002	2.0811365E-006	1.4231808E+001	9.9307108E+000	1.000000000000000E+000	14	9.7009214E-003	7.2467063E-009	4.1066454E-007	6.2400466E-007	7.4701217E-007	5.6650631E+001