EC-Lab ASCII FILE
Nb header lines : 62                          

Potentio Electrochemical Impedance Spectroscopy

Run on channel : 2 (SN 35514)
User : 
CE vs. WE compliance from -10 V to 10 V
Electrode connection : standard
Ewe ctrl range : min = -5.00 V, max = 5.00 V
Safety Limits :
	Do not start on E overload
Acquisition started on : 07/10/2023 07:23:13
Technique started on : 07/10/2023 07:23:14
Saved on :
	File : 0708_01_EIS_0.5MTFSI_Blocking_OutsideGB_Day_2_60C_overnight_C02.mpr
	Directory : C:\Users\CESL\Documents\EC-Lab\Data\PhD\Leifer\Results\Zn Ion GPE\2023\0708\
	Host : 10.110.196.171
Device : VSP (SN 1724172417241724)
Address : USB
EC-Lab for windows v11.16 (software)
Internet server v11.16 (firmware)
Command interpretor v11.16 (firmware)
Electrode material : Au/Pd
Initial state : 
Electrolyte : NaCl (0.2M)
Comments : Fe(CN)63-/Fe(CN)64- 5.10-3 M
Reference electrode : SCE Saturated Calomel Electrode (0.241 V)
Electrode surface area : 0.001 cm²
Characteristic mass : 0.001 g
Equivalent Weight : 0.000 g/eq.
Density : 0.000 g/cm3
Cycle Definition : Charge/Discharge alternance
Mode                Single sine         
E (V)               0.0000              
vs.                 Eoc                 
tE (h:m:s)          0:00:0.0000         
record              0                   
dI                  0.000               
unit dI             mA                  
dt (s)              0.000               
fi                  1.000               
unit fi             MHz                 
ff                  10.000              
unit ff             mHz                 
Nd                  6                   
Points              per decade          
spacing             Logarithmic         
Va (mV)             10.0                
pw                  0.10                
Na                  2                   
corr                1                   
E range min (V)     -5.000              
E range max (V)     5.000               
I Range             Auto                
Bandwidth           5                   
nc cycles           0                   
goto Ns'            0                   
nr cycles           0                   
inc. cycle          0                   

freq/Hz	Re(Z)/Ohm	-Im(Z)/Ohm	|Z|/Ohm	Phase(Z)/deg	time/s	<Ewe>/V	<I>/mA	Cs/µF	Cp/µF	cycle number	I Range	|Ewe|/V	|I|/A	Re(Y)/Ohm-1	Im(Y)/Ohm-1	|Y|/Ohm-1	Phase(Y)/deg	
1.0000193E+006	4.4568720E-001	3.3731663E+000	3.4024827E+000	-8.2473267E+001	1.975100787152769E+000	-1.9483680E-002	-5.1850150E-003	4.7181748E-002	4.6372194E-002	1.000000000000000E+000	9	1.1675604E-004	3.4314955E-005	3.8497996E-002	2.9137072E-001	2.9390302E-001	8.2473267E+001
6.7575181E+005	2.0408834E+001	-1.0303596E+001	2.2862297E+001	2.6787365E+001	2.678085487190401E+000	-2.0263631E-002	-5.8486066E-003	-2.2858309E-002	-4.6428214E-003	1.000000000000000E+000	10	6.8296556E-004	2.9873006E-005	3.9046176E-002	-1.9712836E-002	4.3740138E-002	-2.6787365E+001
4.5664050E+005	8.0190544E+000	-2.6950426E+000	8.4598160E+000	1.8576460E+001	3.087092599918833E+000	-2.0300070E-002	-6.9094887E-003	-1.2932427E-001	-1.3124703E-002	1.000000000000000E+000	10	2.5767349E-003	3.0458521E-004	1.1204728E-001	-3.7656836E-002	1.1820588E-001	-1.8576460E+001
3.0857416E+005	6.3241053E+000	-1.3014779E+000	6.4566364E+000	1.1628907E+001	3.496087712730514E+000	-2.0524727E-002	-4.4091940E-003	-3.9629972E-001	-1.6102182E-002	1.000000000000000E+000	10	6.9888309E-003	1.0824259E-003	1.5170030E-001	-3.1219369E-002	1.5487941E-001	-1.1628907E+001
2.0852534E+005	5.7666335E+000	-6.5644675E-001	5.8038769E+000	6.4943290E+000	3.905095705442363E+000	-2.0600384E-002	-4.6701981E-003	-1.1626842E+000	-1.4873885E-002	1.000000000000000E+000	10	1.0609555E-002	1.8280117E-003	1.7119299E-001	-1.9487813E-002	1.7229863E-001	-6.4943290E+000
1.4090817E+005	5.5505838E+000	-2.2903730E-001	5.5553074E+000	2.3628919E+000	4.446077544504078E+000	-2.0551357E-002	-1.9088887E-003	-4.9314852E+000	-8.3825085E-003	1.000000000000000E+000	10	1.0144155E-002	1.8260296E-003	1.7985499E-001	-7.4214712E-003	1.8000804E-001	-2.3628919E+000
9.5214820E+004	5.4826727E+000	1.1514340E-001	5.4838815E+000	-1.2031105E+000	4.987082716863370E+000	-2.0530174E-002	-1.0251214E-003	1.4516988E+001	6.3999780E-003	1.000000000000000E+000	10	1.0106223E-002	1.8428959E-003	1.8231238E-001	3.8288017E-003	1.8235259E-001	1.2031105E+000
6.4345688E+004	5.4824190E+000	4.6106571E-001	5.5017724E+000	-4.8072033E+000	5.396080176287796E+000	-2.0532057E-002	-2.0170321E-003	5.3646064E+000	3.7675437E-002	1.000000000000000E+000	10	1.0735658E-002	1.9513090E-003	1.8112025E-001	1.5232023E-002	1.8175961E-001	4.8072033E+000
4.3476547E+004	5.5239148E+000	8.3370191E-001	5.5864739E+000	-8.5826426E+000	5.805079129058868E+000	-2.0523142E-002	-1.1711570E-004	4.3909078E+000	9.7791329E-002	1.000000000000000E+000	10	1.0640572E-002	1.9047027E-003	1.7699924E-001	2.6713774E-002	1.7900379E-001	8.5826426E+000
2.9384758E+004	5.5949521E+000	1.2873302E+000	5.7411418E+000	-1.2957541E+001	6.214094881812343E+000	-2.0523535E-002	-1.2656450E-003	4.2073445E+000	2.1153948E-001	1.000000000000000E+000	10	1.0470282E-002	1.8237282E-003	1.6974612E-001	3.9056506E-002	1.7418139E-001	1.2957541E+001
1.9853508E+004	5.7007265E+000	1.8775954E+000	6.0019703E+000	-1.8229853E+001	6.623098554584431E+000	-2.0515852E-002	-1.0176729E-003	4.2695379E+000	4.1782770E-001	1.000000000000000E+000	10	1.0417854E-002	1.7357391E-003	1.5824957E-001	5.2121192E-002	1.6661195E-001	1.8229853E+001
1.3417967E+004	5.8078394E+000	2.6958294E+000	6.4030066E+000	-2.4899353E+001	7.032083213998703E+000	-2.0515535E-002	-1.0568332E-003	4.3998818E+000	7.7993417E-001	1.000000000000000E+000	10	1.0260192E-002	1.6024022E-003	1.4165981E-001	6.5754354E-002	1.5617663E-001	2.4899353E+001
9.0820293E+003	5.9388080E+000	3.8523335E+000	7.0788355E+000	-3.2970314E+001	7.329340534779476E+000	-2.0496607E-002	2.6385805E-003	4.5489731E+000	1.3472167E+000	1.000000000000000E+000	10	1.0842307E-002	1.5316511E-003	1.1851563E-001	7.6877676E-002	1.4126617E-001	3.2970314E+001
6.1409590E+003	6.1030250E+000	5.5386548E+000	8.2415781E+000	-4.2224564E+001	7.732647860641009E+000	-2.0516727E-002	9.4748562E-004	4.6792865E+000	2.1133306E+000	1.000000000000000E+000	10	1.0765068E-002	1.3061902E-003	8.9851305E-002	8.1542410E-002	1.2133598E-001	4.2224564E+001
4.1413242E+003	6.3265128E+000	8.0074883E+000	1.0205128E+001	-5.1688633E+001	8.198686922769411E+000	-2.0477267E-002	5.8678715E-003	4.7993741E+000	2.9548833E+000	1.000000000000000E+000	10	1.0469805E-002	1.0259358E-003	6.0747374E-002	7.6888151E-002	9.7989954E-002	5.1688633E+001
2.7973140E+003	6.6673269E+000	1.1575795E+001	1.3358603E+001	-6.0059288E+001	8.664936331566423E+000	-2.0471618E-002	6.0990583E-003	4.9150515E+000	3.6906903E+000	1.000000000000000E+000	10	1.0204040E-002	7.6385535E-004	3.7361957E-002	6.4867727E-002	7.4858122E-002	6.0059288E+001
1.8906046E+003	7.1174254E+000	1.6729477E+001	1.8180571E+001	-6.6953049E+001	9.129662140323489E+000	-2.0475645E-002	6.4402558E-003	5.0319586E+000	4.2607570E+000	1.000000000000000E+000	10	1.0029665E-002	5.5166945E-004	2.1533169E-002	5.0613612E-002	5.5003773E-002	6.6953049E+001
1.2871166E+003	7.7765946E+000	2.4004705E+001	2.5232941E+001	-7.2049683E+001	9.596180029126117E+000	-2.0474264E-002	5.9797214E-003	5.1511698E+000	4.6618996E+000	1.000000000000000E+000	10	9.9373590E-003	3.9382486E-004	1.2213884E-002	3.7701678E-002	3.9630737E-002	7.2049683E+001
8.6306641E+002	8.7724571E+000	3.5037926E+001	3.6119415E+001	-7.5943787E+001	1.031520819661091E+001	-2.0494573E-002	-4.2857482E-005	5.2630506E+000	4.9525957E+000	1.000000000000000E+000	11	1.0247494E-002	2.8371153E-004	6.7241881E-003	2.6856964E-002	2.7685940E-002	7.5943787E+001
5.8369244E+002	1.0226880E+001	5.0756336E+001	5.1776390E+001	-7.8608017E+001	1.078220011209487E+001	-2.0496570E-002	-6.3374035E-005	5.3721209E+000	5.1625323E+000	1.000000000000000E+000	11	1.0039217E-002	1.9389566E-004	3.8148696E-003	1.8933317E-002	1.9313822E-002	7.8608017E+001
3.9411707E+002	1.2368828E+001	7.3480667E+001	7.4514404E+001	-8.0445107E+001	1.124919640095322E+001	-2.0496756E-002	-2.6822961E-005	5.4956846E+000	5.3442593E+000	1.000000000000000E+000	11	9.9332538E-003	1.3330649E-004	2.2276561E-003	1.3234045E-002	1.3420224E-002	8.0445107E+001
2.6644943E+002	1.5663511E+001	1.0640146E+002	1.0754820E+002	-8.1625557E+001	1.171263786301279E+001	-2.0495860E-002	-5.0881416E-005	5.6138110E+000	5.4947333E+000	1.000000000000000E+000	11	9.8829912E-003	9.1893598E-005	1.3541997E-003	9.1990130E-003	9.2981560E-003	8.1625557E+001
1.8005759E+002	2.0730122E+001	1.5382739E+002	1.5521793E+002	-8.2324936E+001	1.217766463176667E+001	-2.0501118E-002	-3.9133229E-005	5.7461243E+000	5.6436310E+000	1.000000000000000E+000	11	9.8577095E-003	6.3508836E-005	8.6043467E-004	6.3848388E-003	6.4425548E-003	8.2324936E+001
1.2159529E+002	2.9218510E+001	2.2233528E+002	2.2424696E+002	-8.2513298E+001	1.263812524024979E+001	-2.0503990E-002	-1.7956465E-004	5.8870130E+000	5.7870684E+000	1.000000000000000E+000	11	9.8494105E-003	4.3922159E-005	5.8103830E-004	4.4213533E-003	4.4593690E-003	8.2513298E+001
8.2236801E+001	4.2778534E+001	3.2172696E+002	3.2455853E+002	-8.2426071E+001	1.333930967355263E+001	-2.0491384E-002	-8.2833576E-005	6.0154271E+000	5.9109235E+000	1.000000000000000E+000	12	9.8838825E-003	3.0453311E-005	4.0610656E-004	3.0542277E-003	3.0811084E-003	8.2426071E+001
5.5515171E+001	6.5376724E+001	4.6298560E+002	4.6757864E+002	-8.1962585E+001	1.380191086890409E+001	-2.0495078E-002	-7.4927884E-005	6.1921430E+000	6.0710888E+000	1.000000000000000E+000	12	9.8582720E-003	2.1083666E-005	2.9902934E-004	2.1176694E-003	2.1386778E-003	8.1962585E+001
3.7560089E+001	1.0109894E+002	6.6252588E+002	6.7019513E+002	-8.1323814E+001	1.429375467893260E+001	-2.0483570E-002	4.3119271E-005	6.3957381E+000	6.2501988E+000	1.000000000000000E+000	12	9.8478897E-003	1.4694064E-005	2.2508363E-004	1.4750281E-003	1.4921027E-003	8.1323814E+001
2.5365252E+001	1.6037585E+002	9.4826099E+002	9.6172723E+002	-8.0400612E+001	1.475285707405419E+001	-2.0495003E-002	-1.2137517E-004	6.6168771E+000	6.4328737E+000	1.000000000000000E+000	12	9.8485090E-003	1.0240439E-005	1.7339450E-004	1.0252364E-003	1.0397958E-003	8.0400612E+001
1.7132671E+001	2.3592175E+002	1.3324438E+003	1.3531687E+003	-7.9959305E+001	1.516585792033584E+001	-2.0497408E-002	-3.0770400E-004	6.9718194E+000	6.7598968E+000	1.000000000000000E+000	12	9.8518953E-003	7.2806110E-006	1.2884395E-004	7.2768767E-004	7.3900615E-004	7.9959305E+001
1.1591243E+001	4.1969574E+002	1.8886803E+003	1.9347500E+003	-7.7471512E+001	1.580126061718329E+001	-2.0503748E-002	-9.7957072E-006	7.2699547E+000	6.9278564E+000	1.000000000000000E+000	13	9.8555917E-003	5.0939871E-006	1.1212044E-004	5.0455530E-004	5.1686267E-004	7.7471512E+001
7.8281527E+000	6.5908807E+002	2.6326045E+003	2.7138540E+003	-7.5944565E+001	1.638328264481970E+001	-2.0490695E-002	-6.7983592E-006	7.7228074E+000	7.2673068E+000	1.000000000000000E+000	13	9.8494319E-003	3.6293154E-006	8.9489185E-005	3.5744783E-004	3.6847967E-004	7.5944565E+001
5.2930207E+000	1.0287640E+003	3.6068655E+003	3.7507112E+003	-7.4080589E+001	1.721968495124747E+001	-2.0487873E-002	-4.8378115E-007	8.3365545E+000	7.7093759E+000	1.000000000000000E+000	13	9.8418090E-003	2.6239848E-006	7.3128809E-005	2.5639098E-004	2.6661612E-004	7.4080589E+001
3.5755143E+000	1.5577671E+003	4.9135142E+003	5.1545376E+003	-7.2409447E+001	1.843534020896186E+001	-2.0483060E-002	-2.8645645E-006	9.0591908E+000	8.2317924E+000	1.000000000000000E+000	13	9.8466985E-003	1.9102972E-006	5.8630423E-005	1.8493230E-004	1.9400382E-004	7.2409447E+001
2.4172332E+000	2.2946709E+003	6.6441611E+003	7.0292524E+003	-7.0946800E+001	2.108856289493269E+001	-2.0482620E-002	2.1651431E-006	9.9097214E+000	8.8536720E+000	1.000000000000000E+000	14	9.8480629E-003	1.4010114E-006	4.6441059E-005	1.3446891E-004	1.4226264E-004	7.0946800E+001
1.6327059E+000	3.3035498E+003	8.9098164E+003	9.5025400E+003	-6.9656410E+001	2.369945011232630E+001	-2.0484233E-002	-5.0868761E-007	1.0940657E+001	9.6183710E+000	1.000000000000000E+000	14	9.8461714E-003	1.0361621E-006	3.6584857E-005	9.8670957E-005	1.0523502E-004	6.9656410E+001
1.1020596E+000	4.6675283E+003	1.1955987E+004	1.2834775E+004	-6.8674698E+001	2.754838056178414E+001	-2.0485194E-002	-4.9090096E-007	1.2078962E+001	1.0481512E+001	1.000000000000000E+000	14	9.8431166E-003	7.6690992E-007	2.8334165E-005	7.2578659E-005	7.7913326E-005	6.8674698E+001
7.4560940E-001	6.6292271E+003	1.5969462E+004	1.7290760E+004	-6.7455734E+001	3.322013357785181E+001	-2.0487303E-002	3.3675121E-007	1.3366524E+001	1.1401733E+001	1.000000000000000E+000	14	9.8423697E-003	5.6922715E-007	2.2173524E-005	5.3414864E-005	5.7834357E-005	6.7455734E+001
5.0390220E-001	9.4168672E+003	2.1350639E+004	2.3335105E+004	-6.6199745E+001	4.159586605569348E+001	-2.0488670E-002	1.8885805E-006	1.4793229E+001	1.2384121E+001	1.000000000000000E+000	14	9.8405965E-003	4.2170782E-007	1.7293660E-005	3.9209503E-005	4.2853888E-005	6.6199745E+001
3.4010270E-001	1.3380919E+004	2.8056154E+004	3.1083707E+004	-6.4501961E+001	5.398932147098822E+001	-2.0486115E-002	4.0174623E-007	1.6679457E+001	1.3588533E+001	1.000000000000000E+000	14	9.8406030E-003	3.1658396E-007	1.3849063E-005	2.9037721E-005	3.2171196E-005	6.4501961E+001
2.3021273E-001	1.8929408E+004	3.6653480E+004	4.1252879E+004	-6.2686253E+001	7.228161716655359E+001	-2.0486379E-002	5.0134099E-007	1.8861471E+001	1.4890095E+001	1.000000000000000E+000	14	9.8404298E-003	2.3853923E-007	1.1123169E-005	2.1538064E-005	2.4240733E-005	6.2686253E+001
1.5547264E-001	2.6700338E+004	4.7096902E+004	5.4138953E+004	-6.0450085E+001	9.935394941238337E+001	-2.0488134E-002	4.2360952E-007	2.1735710E+001	1.6448975E+001	1.000000000000000E+000	14	9.8416787E-003	1.8178554E-007	9.1095526E-006	1.6068401E-005	1.8470990E-005	6.0450085E+001
1.0504906E-001	3.7289836E+004	5.9639340E+004	7.0337633E+004	-5.7984085E+001	1.394034347546112E+002	-2.0487126E-002	5.9612876E-007	2.5403593E+001	1.8263554E+001	1.000000000000000E+000	14	9.8412689E-003	1.3991470E-007	7.5372850E-006	1.2054726E-005	1.4217140E-005	5.7984085E+001
7.1022727E-002	5.0766793E+004	7.4252109E+004	8.9948000E+004	-5.5639256E+001	1.986243058874679E+002	-2.0496700E-002	7.8482498E-007	3.0179636E+001	2.0565941E+001	1.000000000000000E+000	14	9.8426472E-003	1.0942597E-007	6.2747540E-006	9.1775291E-006	1.1117535E-005	5.5639256E+001
4.7988325E-002	6.8064680E+004	9.0783117E+004	1.1346530E+005	-5.3139256E+001	2.862551722363860E+002	-2.0497957E-002	7.6586679E-007	3.6532505E+001	2.3386404E+001	1.000000000000000E+000	14	9.8408293E-003	8.6729855E-008	5.2868336E-006	7.0514579E-006	8.8132665E-006	5.3139256E+001
3.2443926E-002	8.8759297E+004	1.1055189E+005	1.4177423E+005	-5.1239906E+001	4.158555242853763E+002	-2.0499481E-002	8.2082931E-007	4.4373184E+001	2.6981016E+001	1.000000000000000E+000	14	9.8428028E-003	6.9425894E-008	4.4159001E-006	5.5001124E-006	7.0534679E-006	5.1239906E+001
2.1920588E-002	1.1308951E+005	1.3273042E+005	1.7437489E+005	-4.9568207E+001	6.076566712888343E+002	-2.0497875E-002	8.1758634E-007	5.4701275E+001	3.1693521E+001	1.000000000000000E+000	14	9.8408516E-003	5.6435027E-008	3.7192417E-006	4.3651844E-006	5.7347706E-006	4.9568207E+001
1.4807615E-002	1.4157089E+005	1.5943345E+005	2.1321666E+005	-4.8396133E+001	8.915752778675233E+002	-2.0494197E-002	9.4988269E-007	6.7414848E+001	3.7693996E+001	1.000000000000000E+000	14	9.8416936E-003	4.6158185E-008	3.1140937E-006	3.5070116E-006	4.6900650E-006	4.8396133E+001
1.0000636E-002	1.7422163E+005	1.9367838E+005	2.6050814E+005	-4.8027321E+001	1.311948296420829E+003	-2.0495154E-002	1.0697150E-006	8.2169640E+001	4.5418316E+001	1.000000000000000E+000	14	9.8427357E-003	3.7782833E-008	2.5671986E-006	2.8538984E-006	3.8386515E-006	4.8027321E+001