EC-Lab ASCII FILE
Nb header lines : 62                          

Potentio Electrochemical Impedance Spectroscopy

Run on channel : 5 (SN 35518)
User : 
CE vs. WE compliance from -10 V to 10 V
Electrode connection : standard
Ewe ctrl range : min = -5.00 V, max = 5.00 V
Safety Limits :
	Do not start on E overload
Acquisition started on : 07/09/2023 15:26:24
Technique started on : 07/09/2023 15:26:25
Saved on :
	File : 0708_01_EIS_0.5MTFSI_SymCell_OutsideGB_unsanded_40C_C04_C05.mpr
	Directory : C:\Users\CESL\Documents\EC-Lab\Data\PhD\Leifer\Results\Zn Ion GPE\2023\0708\
	Host : 10.110.196.171
Device : VSP (SN 1724172417241724)
Address : USB
EC-Lab for windows v11.16 (software)
Internet server v11.16 (firmware)
Command interpretor v11.16 (firmware)
Electrode material : Au/Pd
Initial state : 
Electrolyte : NaCl (0.2M)
Comments : Fe(CN)63-/Fe(CN)64- 5.10-3 M
Reference electrode : SCE Saturated Calomel Electrode (0.241 V)
Electrode surface area : 0.001 cm²
Characteristic mass : 0.001 g
Equivalent Weight : 0.000 g/eq.
Density : 0.000 g/cm3
Cycle Definition : Charge/Discharge alternance
Mode                Single sine         
E (V)               0.0000              
vs.                 Eoc                 
tE (h:m:s)          0:00:0.0000         
record              0                   
dI                  0.000               
unit dI             mA                  
dt (s)              0.000               
fi                  1.000               
unit fi             MHz                 
ff                  10.000              
unit ff             mHz                 
Nd                  6                   
Points              per decade          
spacing             Logarithmic         
Va (mV)             10.0                
pw                  0.10                
Na                  2                   
corr                1                   
E range min (V)     -5.000              
E range max (V)     5.000               
I Range             Auto                
Bandwidth           5                   
nc cycles           0                   
goto Ns'            0                   
nr cycles           0                   
inc. cycle          0                   

freq/Hz	Re(Z)/Ohm	-Im(Z)/Ohm	|Z|/Ohm	Phase(Z)/deg	time/s	<Ewe>/V	<I>/mA	Cs/µF	Cp/µF	cycle number	I Range	|Ewe|/V	|I|/A	Re(Y)/Ohm-1	Im(Y)/Ohm-1	|Y|/Ohm-1	Phase(Y)/deg	
1.0000193E+006	-1.6103262E+000	4.7289634E+000	4.9956226E+000	-1.0880495E+002	1.974097747093765E+000	4.1954643E-003	6.5415137E-002	3.3654708E-002	3.0157717E-002	1.000000000000000E+000	9	2.1994566E-004	4.4027678E-005	-6.4525977E-002	1.8949017E-001	2.0017524E-001	1.0880495E+002
6.7575181E+005	6.2140649E+002	-1.5043470E+001	6.2158856E+002	1.3867879E+000	3.265080635086633E+000	3.9041582E-003	-2.2398603E-005	-1.5656145E-002	-9.1701177E-006	1.000000000000000E+000	12	3.3021535E-004	5.3124427E-007	1.6083099E-003	-3.8935163E-005	1.6087812E-003	-1.3867879E+000
4.5664050E+005	3.2835976E+001	7.5577030E+000	3.3694511E+001	-1.2961761E+001	4.130096089473227E+000	4.1007861E-003	1.2740756E-002	4.6116449E-002	2.3201560E-003	1.000000000000000E+000	10	7.9641910E-003	2.3636465E-004	2.8922219E-002	6.6568917E-003	2.9678425E-002	1.2961761E+001
3.0857416E+005	2.3649151E+001	8.6414423E+000	2.5178499E+001	-2.0072393E+001	4.671080541855190E+000	3.9877268E-003	1.2074731E-002	5.9686255E-002	7.0305150E-003	1.000000000000000E+000	10	1.0145921E-002	4.0295973E-004	3.7304040E-002	1.3630962E-002	3.9716426E-002	2.0072393E+001
2.0852534E+005	2.1721006E+001	1.1124406E+001	2.4403986E+001	-2.7119238E+001	5.212077447562478E+000	4.0210574E-003	1.2134428E-002	6.8609528E-002	1.4256620E-002	1.000000000000000E+000	10	1.0234284E-002	4.1936937E-004	3.6471903E-002	1.8679071E-002	4.0976912E-002	2.7119238E+001
1.4090817E+005	2.1806614E+001	1.5038793E+001	2.6489502E+001	-3.4591843E+001	5.753100993257249E+000	4.0305457E-003	1.1847120E-002	7.5105369E-002	2.4207467E-002	1.000000000000000E+000	10	1.0209301E-002	3.8540931E-004	3.1077111E-002	2.1432133E-002	3.7750803E-002	3.4591843E+001
9.5214820E+004	2.2811949E+001	2.0538866E+001	3.0695766E+001	-4.1998466E+001	6.162092505983310E+000	4.0171798E-003	1.1563543E-002	8.1384018E-002	3.6436368E-002	1.000000000000000E+000	10	1.0647262E-002	3.4686417E-004	2.4210595E-002	2.1798143E-002	3.2577783E-002	4.1998466E+001
6.4345688E+004	2.4799932E+001	2.8269913E+001	3.7606178E+001	-4.8740967E+001	6.571099032094935E+000	4.0309560E-003	1.2108303E-002	8.7493591E-002	4.9443223E-002	1.000000000000000E+000	10	1.0303286E-002	2.7397854E-004	1.7536065E-002	1.9989690E-002	2.6591375E-002	4.8740967E+001
4.3476547E+004	2.7564478E+001	3.9012440E+001	4.7767887E+001	-5.4756649E+001	6.980089638178470E+000	4.0114196E-003	1.0278134E-002	9.3834378E-002	6.2588729E-002	1.000000000000000E+000	10	1.0154372E-002	2.1257738E-004	1.2080301E-002	1.7097440E-002	2.0934567E-002	5.4756649E+001
2.9384758E+004	3.1989513E+001	5.3985130E+001	6.2751282E+001	-5.9350647E+001	7.552083318703808E+000	3.9370228E-003	4.2967228E-004	1.0032839E-001	7.4255221E-002	1.000000000000000E+000	11	1.0169129E-002	1.6205452E-004	8.1238607E-003	1.3709731E-002	1.5935929E-002	5.9350647E+001
1.9853508E+004	3.7984116E+001	7.4792664E+001	8.3885254E+001	-6.3075863E+001	7.961099391424796E+000	3.9421306E-003	4.5316611E-004	1.0718250E-001	8.5206091E-002	1.000000000000000E+000	11	1.0135258E-002	1.2082288E-004	5.3979731E-003	1.0628887E-002	1.1921046E-002	6.3075863E+001
1.3417967E+004	4.6584827E+001	1.0327205E+002	1.1329282E+002	-6.5720413E+001	8.238080151291797E+000	3.9424659E-003	5.0574919E-004	1.1485519E-001	9.5435835E-002	1.000000000000000E+000	11	9.4335955E-003	8.3267376E-005	3.6294414E-003	8.0459630E-003	8.8266851E-003	6.5720413E+001
9.0820293E+003	5.8570854E+001	1.4217879E+002	1.5377045E+002	-6.7610680E+001	8.675323505391134E+000	3.9367992E-003	5.8947236E-004	1.2325439E-001	1.0537226E-001	1.000000000000000E+000	11	9.8854676E-003	6.4287175E-005	2.4770561E-003	6.0129697E-003	6.5032002E-003	6.7610680E+001
6.1409590E+003	7.5353127E+001	1.9484772E+002	2.0891081E+002	-6.8857101E+001	9.078633257904585E+000	3.9992845E-003	1.1591300E-003	1.3301131E-001	1.1570641E-001	1.000000000000000E+000	11	9.4928350E-003	4.5439654E-005	1.7265513E-003	4.4645066E-003	4.7867317E-003	6.8857101E+001
4.1413242E+003	9.8578613E+001	2.6680954E+002	2.8443817E+002	-6.9722145E+001	9.544696400036628E+000	4.0309746E-003	8.7196950E-004	1.4403881E-001	1.2673789E-001	1.000000000000000E+000	11	9.2889760E-003	3.2657277E-005	1.2184480E-003	3.2978095E-003	3.5157024E-003	6.9722145E+001
2.7973140E+003	1.3144131E+002	3.6630606E+002	3.8917471E+002	-7.0260529E+001	1.026291774079436E+001	3.9796177E-003	-2.4077601E-005	1.5532266E-001	1.3760486E-001	1.000000000000000E+000	12	1.0267607E-002	2.6383028E-005	8.6784607E-004	2.4185488E-003	2.5695399E-003	7.0260529E+001
1.8906046E+003	1.7666112E+002	5.0189755E+002	5.3208112E+002	-7.0608627E+001	1.072768514956260E+001	3.9854338E-003	-4.5337780E-005	1.6772752E-001	1.4923778E-001	1.000000000000000E+000	12	9.6585341E-003	1.8152372E-005	6.2400091E-004	1.7727986E-003	1.8794127E-003	7.0608627E+001
1.2871166E+003	2.3941701E+002	6.8234137E+002	7.2312531E+002	-7.0665268E+001	1.119420359833748E+001	3.9831409E-003	-3.0735726E-005	1.8121767E-001	1.6135292E-001	1.000000000000000E+000	12	9.3835006E-003	1.2976314E-005	4.5785488E-004	1.3048920E-003	1.3828862E-003	7.0665268E+001
8.6306641E+002	3.1894885E+002	9.4026868E+002	9.9289154E+002	-7.1262535E+001	1.166121682050289E+001	3.9829360E-003	3.4125791E-005	1.9612093E-001	1.7588316E-001	1.000000000000000E+000	12	9.2327716E-003	9.2988721E-006	3.2353212E-004	9.5378037E-004	1.0071594E-003	7.1262535E+001
5.8369244E+002	4.3379608E+002	1.2769712E+003	1.3486417E+003	-7.1237015E+001	1.212820822934737E+001	3.9805500E-003	1.8311277E-005	2.1352807E-001	1.9143616E-001	1.000000000000000E+000	12	9.1710687E-003	6.8002264E-006	2.3850224E-004	7.0208212E-004	7.4148679E-004	7.1237015E+001
3.9411707E+002	5.8009021E+002	1.7653212E+003	1.8581882E+003	-7.1809311E+001	1.259520390487160E+001	3.9859931E-003	7.4724769E-005	2.2875531E-001	2.0646156E-001	1.000000000000000E+000	12	9.1283256E-003	4.9124869E-006	1.6800265E-004	5.1126297E-004	5.3815864E-004	7.1809311E+001
2.6644943E+002	8.7101691E+002	2.3678308E+003	2.5229534E+003	-6.9803734E+001	1.305865723361057E+001	3.9834208E-003	-3.5416877E-005	2.5226367E-001	2.2219668E-001	1.000000000000000E+000	12	9.1140512E-003	3.6124532E-006	1.3683845E-004	3.7199084E-004	3.9636088E-004	6.9803734E+001
1.8005759E+002	1.1231769E+003	3.3057517E+003	3.4913494E+003	-7.1234062E+001	1.377668646771053E+001	3.9927228E-003	2.5784723E-006	2.6738587E-001	2.3971340E-001	1.000000000000000E+000	13	9.1801956E-003	2.6294119E-006	9.2142844E-005	2.7119619E-004	2.8642220E-004	7.1234062E+001
1.2159529E+002	1.5544786E+003	4.5374473E+003	4.7963354E+003	-7.1089111E+001	1.423714398287120E+001	3.9969170E-003	7.6270499E-006	2.8846413E-001	2.5816411E-001	1.000000000000000E+000	13	9.1380486E-003	1.9052146E-006	6.7571840E-005	1.9723887E-004	2.0849251E-004	7.1089111E+001
8.2236801E+001	2.1571421E+003	6.2209844E+003	6.5843687E+003	-7.0875885E+001	1.469231099114404E+001	3.9930581E-003	8.0671771E-006	3.1109628E-001	2.7770567E-001	1.000000000000000E+000	13	9.1211237E-003	1.3852693E-006	4.9756567E-005	1.4349305E-004	1.5187485E-004	7.0875885E+001
5.5515171E+001	3.1611135E+003	8.4948838E+003	9.0639775E+003	-6.9588776E+001	1.515388322644867E+001	3.9917161E-003	1.0730408E-005	3.3748230E-001	2.9643416E-001	1.000000000000000E+000	13	9.1136033E-003	1.0054750E-006	3.8477108E-005	1.0339982E-004	1.1032684E-004	6.9588776E+001
3.7560089E+001	4.6207456E+003	1.1531803E+004	1.2423114E+004	-6.8164230E+001	1.564476050309895E+001	3.9954721E-003	-1.4397508E-006	3.6744836E-001	3.1661376E-001	1.000000000000000E+000	13	9.1086663E-003	7.3320314E-007	2.9939949E-005	7.4719894E-005	8.0495112E-005	6.8164230E+001
2.5365252E+001	7.2159263E+003	1.5422891E+004	1.7027482E+004	-6.4926460E+001	1.635388824343681E+001	3.9980728E-003	1.2154126E-006	4.0683207E-001	3.3376890E-001	1.000000000000000E+000	14	9.1212224E-003	5.3567652E-007	2.4888070E-005	5.3194275E-005	5.8728587E-005	6.4926460E+001
1.7132671E+001	1.1082279E+004	2.0039006E+004	2.2899316E+004	-6.1055855E+001	1.676784007644164E+001	3.9936174E-003	1.3989732E-006	4.6357378E-001	3.5499823E-001	1.000000000000000E+000	14	9.1140913E-003	3.9800713E-007	2.1134114E-005	3.8214759E-005	4.3669424E-005	6.1055855E+001
1.1591243E+001	1.7034941E+004	2.5121865E+004	3.0352881E+004	-5.5859112E+001	1.717727804250899E+001	3.9928905E-003	3.3047365E-006	5.4656053E-001	3.7440547E-001	1.000000000000000E+000	14	9.1054980E-003	2.9998793E-007	1.8490166E-005	2.7267923E-005	3.2945802E-005	5.5859112E+001
7.8281527E+000	2.5329396E+004	2.9675057E+004	3.9015219E+004	-4.9517303E+001	1.775927140351268E+001	3.9941673E-003	7.3234042E-007	6.8512416E-001	3.9635497E-001	1.000000000000000E+000	14	9.1016404E-003	2.3328435E-007	1.6640131E-005	1.9495010E-005	2.5631023E-005	4.9517303E+001
5.2930207E+000	3.5935059E+004	3.2497898E+004	4.8450406E+004	-4.2124638E+001	1.859569613660278E+001	3.9937049E-003	1.0322193E-006	9.2525458E-001	4.1627178E-001	1.000000000000000E+000	14	9.0999259E-003	1.8781940E-007	1.5308178E-005	1.3843963E-005	2.0639662E-005	4.2124638E+001
3.5755143E+000	4.7456383E+004	3.2376406E+004	5.7448586E+004	-3.4303177E+001	1.981032392758061E+001	3.9980542E-003	2.9750336E-006	1.3748426E+000	4.3666822E-001	1.000000000000000E+000	14	9.1069257E-003	1.5852306E-007	1.4379240E-005	9.8100209E-006	1.7406868E-005	3.4303177E+001
2.4172332E+000	5.7603941E+004	2.9321252E+004	6.4637063E+004	-2.6976763E+001	2.158754977196804E+001	3.9964882E-003	4.2895858E-006	2.2455311E+000	4.6208394E-001	1.000000000000000E+000	14	9.1025233E-003	1.4082514E-007	1.3787609E-005	7.0180959E-006	1.5471000E-005	2.6976763E+001
1.6327059E+000	6.6012109E+004	2.4556242E+004	7.0431578E+004	-2.0405003E+001	2.419843674931326E+001	3.9953091E-003	4.0443283E-006	3.9696321E+000	4.8254660E-001	1.000000000000000E+000	14	9.1033820E-003	1.2925143E-007	1.3307264E-005	4.9502496E-006	1.4198177E-005	2.0405003E+001
1.1020596E+000	7.1654227E+004	1.9567916E+004	7.4278070E+004	-1.5274359E+001	2.804745890546474E+001	3.9958921E-003	5.0870749E-006	7.3802395E+000	5.1219863E-001	1.000000000000000E+000	14	9.1039697E-003	1.2256605E-007	1.2987352E-005	3.5466910E-006	1.3462924E-005	1.5274359E+001
7.4560940E-001	7.5525406E+004	1.4692650E+004	7.6941281E+004	-1.1008771E+001	3.371821104150149E+001	3.9964896E-003	6.4227884E-006	1.4528093E+001	5.2977329E-001	1.000000000000000E+000	14	9.1039836E-003	1.1832378E-007	1.2757754E-005	2.4818830E-006	1.2996924E-005	1.1008771E+001
5.0390220E-001	7.7960305E+004	1.0385260E+004	7.8648984E+004	-7.5878210E+000	4.209412066600635E+001	3.9980761E-003	7.1754407E-006	3.0412807E+001	5.3027970E-001	1.000000000000000E+000	14	9.1045657E-003	1.1576203E-007	1.2603387E-005	1.6789243E-006	1.2714722E-005	7.5878210E+000
3.4010270E-001	7.9301773E+004	7.0293525E+003	7.9612703E+004	-5.0654902E+000	5.448748058799538E+001	3.9997282E-003	9.4458219E-006	6.6572479E+001	5.1899195E-001	1.000000000000000E+000	14	9.1029480E-003	1.1434039E-007	1.2511752E-005	1.1090486E-006	1.2560809E-005	5.0654902E+000
2.3021273E-001	8.0517750E+004	4.0872341E+003	8.0621422E+004	-2.9059484E+000	7.278082580358023E+001	3.9998190E-003	1.2260764E-005	1.6914583E+002	4.3472978E-001	1.000000000000000E+000	14	9.1035990E-003	1.1291787E-007	1.2387702E-005	6.2882327E-007	1.2403651E-005	2.9059484E+000
1.5547264E-001	8.0988813E+004	1.7890408E+003	8.1008570E+004	-1.2654564E+000	9.985217266270774E+001	3.9982842E-003	1.6196163E-005	5.7219745E+002	2.7907726E-001	1.000000000000000E+000	14	9.1031929E-003	1.1237321E-007	1.2341363E-005	2.7262038E-007	1.2344373E-005	1.2654564E+000
1.0504906E-001	8.0924555E+004	-2.3908186E+002	8.0924906E+004	1.6927300E-001	1.399017389116634E+002	4.0007280E-003	2.4857130E-005	-6.3369653E+003	-5.5310830E-002	1.000000000000000E+000	14	9.1050463E-003	1.1251229E-007	1.2357082E-005	-3.6507512E-008	1.2357135E-005	-1.6927300E-001
7.1022727E-002	7.9848758E+004	-3.2837305E+003	7.9916250E+004	2.3549263E+000	1.991227147645113E+002	4.0029017E-003	3.4091081E-005	-6.8242560E+002	-1.1521794E+000	1.000000000000000E+000	14	9.1051636E-003	1.1393382E-007	1.2502533E-005	-5.1415884E-007	1.2513100E-005	-2.3549263E+000
4.7988325E-002	7.9078602E+004	-6.8264907E+003	7.9372703E+004	4.9338484E+000	2.867537831134250E+002	4.0047085E-003	4.7205718E-005	-4.8583301E+002	-3.5936825E+000	1.000000000000000E+000	14	9.1057131E-003	1.1472097E-007	1.2552107E-005	-1.0835654E-006	1.2598790E-005	-4.9338484E+000
3.2443926E-002	7.7247555E+004	-1.0266354E+004	7.7926781E+004	7.5703597E+000	4.163543302290782E+002	4.0086503E-003	6.6165252E-005	-4.7782675E+002	-8.2933407E+000	1.000000000000000E+000	14	9.1043729E-003	1.1683240E-007	1.2720709E-005	-1.6906075E-006	1.2832559E-005	-7.5703597E+000
2.1920588E-002	7.3369320E+004	-1.1929591E+004	7.4332852E+004	9.2352695E+000	6.081557972858718E+002	4.0129460E-003	9.4157309E-005	-6.0861456E+002	-1.5675879E+001	1.000000000000000E+000	14	9.1046831E-003	1.2248532E-007	1.3278620E-005	-2.1590563E-006	1.3453002E-005	-9.2352695E+000
1.4807615E-002	6.6876289E+004	-1.3425627E+004	6.8210594E+004	1.1351421E+001	8.920748918112949E+002	4.0084338E-003	1.1941705E-004	-8.0057202E+002	-3.1014582E+001	1.000000000000000E+000	14	9.1037992E-003	1.3346606E-007	1.4373697E-005	-2.8855654E-006	1.4660479E-005	-1.1351421E+001
1.0000636E-002	6.6700828E+004	-1.3372540E+004	6.8028125E+004	1.1336669E+001	1.312448644497927E+003	4.0239436E-003	1.1746184E-004	-1.1900867E+003	-4.5986401E+001	1.000000000000000E+000	14	9.1034546E-003	1.3381899E-007	1.4412995E-005	-2.8895945E-006	1.4699803E-005	-1.1336669E+001