EC-Lab ASCII FILE
Nb header lines : 62                          

Potentio Electrochemical Impedance Spectroscopy

Run on channel : 3 (SN 35515)
User : 
CE vs. WE compliance from -10 V to 10 V
Electrode connection : standard
Ewe ctrl range : min = -5.00 V, max = 5.00 V
Safety Limits :
	Do not start on E overload
Acquisition started on : 07/09/2023 16:26:51
Technique started on : 07/09/2023 16:26:53
Saved on :
	File : 0708_01_EIS_0.5MTFSI_Blocking_OutsideGB_24hr_60C_t2_C03.mpr
	Directory : C:\Users\CESL\Documents\EC-Lab\Data\PhD\Leifer\Results\Zn Ion GPE\2023\0708\
	Host : 10.110.196.171
Device : VSP (SN 1724172417241724)
Address : USB
EC-Lab for windows v11.16 (software)
Internet server v11.16 (firmware)
Command interpretor v11.16 (firmware)
Electrode material : Au/Pd
Initial state : 
Electrolyte : NaCl (0.2M)
Comments : Fe(CN)63-/Fe(CN)64- 5.10-3 M
Reference electrode : SCE Saturated Calomel Electrode (0.241 V)
Electrode surface area : 0.001 cm²
Characteristic mass : 0.001 g
Equivalent Weight : 0.000 g/eq.
Density : 0.000 g/cm3
Cycle Definition : Charge/Discharge alternance
Mode                Single sine         
E (V)               0.0000              
vs.                 Eoc                 
tE (h:m:s)          0:00:0.0000         
record              0                   
dI                  0.000               
unit dI             mA                  
dt (s)              0.000               
fi                  1.000               
unit fi             MHz                 
ff                  10.000              
unit ff             mHz                 
Nd                  6                   
Points              per decade          
spacing             Logarithmic         
Va (mV)             10.0                
pw                  0.10                
Na                  2                   
corr                1                   
E range min (V)     -5.000              
E range max (V)     5.000               
I Range             Auto                
Bandwidth           5                   
nc cycles           0                   
goto Ns'            0                   
nr cycles           0                   
inc. cycle          0                   

freq/Hz	Re(Z)/Ohm	-Im(Z)/Ohm	|Z|/Ohm	Phase(Z)/deg	time/s	<Ewe>/V	<I>/mA	Cs/µF	Cp/µF	cycle number	I Range	|Ewe|/V	|I|/A	Re(Y)/Ohm-1	Im(Y)/Ohm-1	|Y|/Ohm-1	Phase(Y)/deg	
1.0000193E+006	-6.1664021E+001	1.3831294E+001	6.3196171E+001	-1.6735774E+002	2.639084738679230E+000	-3.5253842E-003	-2.4386428E-003	1.1506652E-002	5.5117946E-004	1.000000000000000E+000	11	2.5814987E-004	4.0848972E-006	-1.5440107E-002	3.4632315E-003	1.5823744E-002	1.6735774E+002
6.7575181E+005	3.4048828E+001	-1.0578166E+001	3.5654175E+001	1.7258785E+001	3.048090038093505E+000	-4.1846433E-003	-1.2222970E-003	-2.2264991E-002	-1.9598485E-003	1.000000000000000E+000	11	1.2451762E-003	3.4923713E-005	2.6784366E-002	-8.3212694E-003	2.8047206E-002	-1.7258785E+001
4.5664050E+005	1.9997395E+001	-3.9034514E+000	2.0374805E+001	1.1045138E+001	3.751099564804463E+000	-4.1935337E-003	1.5106368E-003	-8.9288779E-002	-3.2772345E-003	1.000000000000000E+000	10	6.8874313E-003	3.3803665E-004	4.8171088E-002	-9.4029009E-003	4.9080223E-002	-1.1045138E+001
3.0857416E+005	1.6690329E+001	-2.0726039E+000	1.6818523E+001	7.0787482E+000	4.160094144259347E+000	-4.4584787E-003	1.5479370E-003	-2.4885377E-001	-3.7792113E-003	1.000000000000000E+000	10	1.0660755E-002	6.3386990E-004	5.9005044E-002	-7.3272423E-003	5.9458252E-002	-7.0787482E+000
2.0852534E+005	1.5510392E+001	-1.1769803E+000	1.5554985E+001	4.3394780E+000	4.701094303251011E+000	-4.4625606E-003	1.7661218E-003	-6.4847332E-001	-3.7127121E-003	1.000000000000000E+000	10	1.0168386E-002	6.5370591E-004	6.4103775E-002	-4.8644077E-003	6.4288072E-002	-4.3394780E+000
1.4090817E+005	1.5028507E+001	-6.3252163E-001	1.5041812E+001	2.4100494E+000	5.242090702318819E+000	-4.4507808E-003	2.1577384E-003	-1.7857004E+000	-3.1576140E-003	1.000000000000000E+000	10	1.0128448E-002	6.7335292E-004	6.6422544E-002	-2.7956003E-003	6.6481352E-002	-2.4100494E+000
9.5214820E+004	1.4843582E+001	-2.1448101E-001	1.4845132E+001	8.2783258E-001	5.651093441731064E+000	-4.4479477E-003	1.6989884E-003	-7.7933950E+000	-1.6268080E-003	1.000000000000000E+000	10	1.0822039E-002	7.2899583E-004	6.7355119E-002	-9.7324175E-004	6.7362152E-002	-8.2783258E-001
6.4345688E+004	1.4807387E+001	1.0224228E-001	1.4807740E+001	-3.9561054E-001	6.060082954500103E+000	-4.4363174E-003	3.0957516E-003	2.4191910E+001	1.1533302E-003	1.000000000000000E+000	10	1.0565980E-002	7.1354443E-004	6.7530639E-002	4.6628664E-004	6.7532249E-002	3.9561054E-001
4.3476547E+004	1.4799698E+001	4.1193369E-001	1.4805429E+001	-1.5943549E+000	6.469093293912010E+000	-4.4390946E-003	2.6537848E-003	8.8866444E+000	6.8793977E-003	1.000000000000000E+000	10	1.0363933E-002	7.0000894E-004	6.7516640E-002	1.8792533E-003	6.7542791E-002	1.5943549E+000
2.9384758E+004	1.4844573E+001	7.3441088E-001	1.4862729E+001	-2.8323052E+000	6.878097286651609E+000	-4.4474448E-003	2.8570525E-003	7.3749471E+000	1.8006943E-002	1.000000000000000E+000	10	1.0262432E-002	6.9048099E-004	6.7200206E-002	3.3246195E-003	6.7282394E-002	2.8323052E+000
1.9853508E+004	1.4893681E+001	1.1320319E+000	1.4936640E+001	-4.3465533E+000	7.287084452778799E+000	-4.4293655E-003	2.9484292E-003	7.0814829E+000	4.0675767E-002	1.000000000000000E+000	10	1.0180609E-002	6.8158633E-004	6.6756912E-002	5.0740279E-003	6.6949464E-002	4.3465533E+000
1.3417967E+004	1.4995668E+001	1.6754644E+000	1.5088978E+001	-6.3752108E+000	7.564089985942701E+000	-4.4401013E-003	1.8985250E-003	7.0794287E+000	8.7286882E-002	1.000000000000000E+000	10	1.0789613E-002	7.1506586E-004	6.5863706E-002	7.3589454E-003	6.6273540E-002	6.3752108E+000
9.0820293E+003	1.5103553E+001	2.4160299E+000	1.5295571E+001	-9.0882854E+000	8.001326966710621E+000	-4.4227117E-003	2.7209190E-003	7.2532878E+000	1.8097064E-001	1.000000000000000E+000	10	1.0088172E-002	6.5954856E-004	6.4557642E-002	1.0326922E-002	6.5378398E-002	9.0882854E+000
6.1409590E+003	1.5301117E+001	3.4775839E+000	1.5691328E+001	-1.2804470E+001	8.404630692559294E+000	-4.4366159E-003	5.7635468E-004	7.4525743E+000	3.6605144E-001	1.000000000000000E+000	10	1.0222270E-002	6.5145985E-004	6.2144645E-002	1.4124015E-002	6.3729465E-002	1.2804470E+001
4.1413242E+003	1.5587955E+001	4.9445577E+000	1.6353378E+001	-1.7599222E+001	8.870689781360852E+000	-4.4026938E-003	3.5060160E-003	7.7723699E+000	7.1054792E-001	1.000000000000000E+000	10	1.0258898E-002	6.2732591E-004	5.8287330E-002	1.8488960E-002	6.1149444E-002	1.7599222E+001
2.7973140E+003	1.6051558E+001	6.9844203E+000	1.7505274E+001	-2.3515022E+001	9.336934390157694E+000	-4.3960959E-003	3.3792064E-003	8.1460772E+000	1.2967954E+000	1.000000000000000E+000	10	1.0256422E-002	5.8590469E-004	5.2381672E-002	2.2792531E-002	5.7125643E-002	2.3515022E+001
1.8906046E+003	1.6794174E+001	9.8670540E+000	1.9478271E+001	-3.0435442E+001	9.801671052242455E+000	-4.4033276E-003	3.6831736E-003	8.5316277E+000	2.1893041E+000	1.000000000000000E+000	10	1.0243272E-002	5.2588200E-004	4.4264734E-002	2.6006784E-002	5.1339258E-002	3.0435442E+001
1.2871166E+003	1.7800547E+001	1.3721259E+001	2.2475151E+001	-3.7626244E+001	1.026818134103087E+001	-4.4038123E-003	3.2579883E-003	9.0117321E+000	3.3588529E+000	1.000000000000000E+000	10	1.0216773E-002	4.5458088E-004	3.5239365E-002	2.7163688E-002	4.4493582E-002	3.7626244E+001
8.6306641E+002	1.9455811E+001	1.9293320E+001	2.7400013E+001	-4.4759735E+001	1.073520733651822E+001	-4.4021532E-003	3.7428432E-003	9.5580425E+000	4.7389417E+000	1.000000000000000E+000	10	1.0197279E-002	3.7216328E-004	2.5914796E-002	2.5698360E-002	3.6496334E-002	4.4759735E+001
5.8369244E+002	2.1818743E+001	2.6673405E+001	3.4460529E+001	-5.0716965E+001	1.145419646400842E+001	-4.4315648E-003	3.7258433E-004	1.0222511E+001	6.1244998E+000	1.000000000000000E+000	11	1.0378373E-002	3.0116696E-004	1.8373245E-002	2.2461284E-002	2.9018708E-002	5.0716965E+001
3.9411707E+002	2.5265631E+001	3.6721359E+001	4.4573650E+001	-5.5470612E+001	1.192118792622932E+001	-4.4302600E-003	3.5766626E-004	1.0997049E+001	7.4637527E+000	1.000000000000000E+000	11	1.0271656E-002	2.3044234E-004	1.2716681E-002	1.8482568E-002	2.2434779E-002	5.5470612E+001
2.6644943E+002	3.0300198E+001	5.0185577E+001	5.8623325E+001	-5.8877972E+001	1.238467792159645E+001	-4.4330186E-003	3.2354071E-004	1.1902178E+001	8.7225475E+000	1.000000000000000E+000	11	1.0217659E-002	1.7429341E-004	8.8166697E-003	1.4602863E-002	1.7058056E-002	5.8877972E+001
1.8005759E+002	3.7290798E+001	6.8178429E+001	7.7710373E+001	-6.1323154E+001	1.284969893035304E+001	-4.4320305E-003	3.9943215E-004	1.2964677E+001	9.9792452E+000	1.000000000000000E+000	11	1.0187039E-002	1.3108982E-004	6.1750952E-003	1.1289871E-002	1.2868294E-002	6.1323154E+001
1.2159529E+002	4.6982937E+001	9.2179802E+001	1.0346262E+002	-6.2992607E+001	1.331012780554011E+001	-4.4355346E-003	2.3944059E-004	1.4199322E+001	1.1271255E+001	1.000000000000000E+000	11	1.0166012E-002	9.8257828E-005	4.3890779E-003	8.6113038E-003	9.6653271E-003	6.2992607E+001
8.2236801E+001	6.0156467E+001	1.2400539E+002	1.3782648E+002	-6.4121437E+001	1.376531222710037E+001	-4.4326270E-003	2.9053210E-004	1.5606782E+001	1.2633660E+001	1.000000000000000E+000	11	1.0156862E-002	7.3693118E-005	3.1667734E-003	6.5279268E-003	7.2555002E-003	6.4121437E+001
5.5515171E+001	7.7594101E+001	1.6686873E+002	1.8402722E+002	-6.5061531E+001	1.422689907575841E+001	-4.4325525E-003	3.3174214E-004	1.7180408E+001	1.4126002E+001	1.000000000000000E+000	11	1.0151179E-002	5.5161290E-005	2.2912084E-003	4.9273204E-003	5.4339785E-003	6.5061531E+001
3.7560089E+001	1.0165384E+002	2.2489449E+002	2.4680161E+002	-6.5676712E+001	1.498375207171193E+001	-4.4218726E-003	-8.8341214E-005	1.8841467E+001	1.5645029E+001	1.000000000000000E+000	12	1.0172905E-002	4.1218958E-005	1.6688902E-003	3.6921802E-003	4.0518376E-003	6.5676712E+001
2.5365252E+001	1.3361617E+002	3.0124298E+002	3.2954608E+002	-6.6080345E+001	1.544285108018084E+001	-4.4407160E-003	-1.2956586E-005	2.0828789E+001	1.7404663E+001	1.000000000000000E+000	12	1.0157228E-002	3.0821873E-005	1.2303444E-003	2.7738607E-003	3.0344769E-003	6.6080345E+001
1.7132671E+001	1.7877242E+002	4.0398749E+002	4.4177536E+002	-6.6129669E+001	1.585583525979018E+001	-4.4418904E-003	-1.8224213E-004	2.2994667E+001	1.9229145E+001	1.000000000000000E+000	12	1.0149475E-002	2.2974289E-005	9.1600430E-004	2.0699743E-003	2.2635940E-003	6.6129669E+001
1.1591243E+001	2.3448955E+002	5.4271259E+002	5.9120410E+002	-6.6632301E+001	1.626528858588426E+001	-4.4470346E-003	-6.4475273E-005	2.5299984E+001	2.1319899E+001	1.000000000000000E+000	12	1.0153789E-002	1.7174762E-005	6.7088578E-004	1.5527267E-003	1.6914633E-003	6.6632301E+001
7.8281527E+000	3.1250812E+002	7.2246375E+002	7.8715637E+002	-6.6608673E+001	1.684727946683415E+001	-4.4381348E-003	-2.9449218E-005	2.8141340E+001	2.3705814E+001	1.000000000000000E+000	12	1.0154908E-002	1.2900750E-005	5.0435844E-004	1.1659878E-003	1.2703956E-003	6.6608673E+001
5.2930207E+000	4.1073923E+002	9.6892413E+002	1.0523881E+003	-6.7027298E+001	1.811067112690216E+001	-4.4352300E-003	-2.9763794E-006	3.1033213E+001	2.6305979E+001	1.000000000000000E+000	13	1.0154872E-002	9.6493613E-006	3.7086368E-004	8.7485876E-004	9.5021981E-004	6.7027298E+001
3.5755143E+000	5.3771606E+002	1.2994827E+003	1.4063406E+003	-6.7520599E+001	1.932529913118924E+001	-4.4297716E-003	3.0746198E-006	3.4253990E+001	2.9246311E+001	1.000000000000000E+000	13	1.0152407E-002	7.2190242E-006	2.7187672E-004	6.5703649E-004	7.1106531E-004	6.7520599E+001
2.4172332E+000	7.0586560E+002	1.7467031E+003	1.8839369E+003	-6.7995720E+001	2.110251590897678E+001	-4.4291462E-003	8.8395865E-007	3.7694889E+001	3.2403206E+001	1.000000000000000E+000	13	1.0151492E-002	5.3884460E-006	1.9887919E-004	4.9213745E-004	5.3080334E-004	6.7995720E+001
1.6327059E+000	9.2001691E+002	2.3572371E+003	2.5304146E+003	-6.8679565E+001	2.371340323294862E+001	-4.4283620E-003	1.1189649E-006	4.1353180E+001	3.5886581E+001	1.000000000000000E+000	13	1.0151138E-002	4.0116502E-006	1.4368535E-004	3.6814585E-004	3.9519215E-004	6.8679565E+001
1.1020596E+000	1.2071522E+003	3.2018992E+003	3.4218965E+003	-6.9342987E+001	2.942640755765024E+001	-4.4343350E-003	-1.6991468E-006	4.5103203E+001	3.9490166E+001	1.000000000000000E+000	14	1.0155242E-002	2.9677233E-006	1.0309280E-004	2.7344748E-004	2.9223561E-004	6.9342987E+001
7.4560940E-001	1.5867458E+003	4.3544585E+003	4.6345518E+003	-6.9978477E+001	3.509804268038715E+001	-4.4339094E-003	-9.3580888E-007	4.9020149E+001	4.3274040E+001	1.000000000000000E+000	14	1.0155175E-002	2.1911881E-006	7.3874049E-005	2.0273031E-004	2.1577060E-004	6.9978477E+001
5.0390220E-001	2.1025823E+003	5.9520098E+003	6.3124697E+003	-7.0543938E+001	4.347388745157514E+001	-4.4299485E-003	-2.5933984E-006	5.3065250E+001	4.7177929E+001	1.000000000000000E+000	14	1.0153666E-002	1.6085093E-006	5.2766020E-005	1.4937056E-004	1.5841660E-004	7.0543938E+001
3.4010270E-001	2.7887581E+003	8.1355195E+003	8.6002236E+003	-7.1078903E+001	5.586727462688577E+001	-4.4275289E-003	-2.1581673E-006	5.7520775E+001	5.1472569E+001	1.000000000000000E+000	14	1.0151788E-002	1.1804098E-006	3.7704340E-005	1.0999319E-004	1.1627605E-004	7.1078903E+001
2.3021273E-001	3.7460869E+003	1.1147938E+004	1.1760514E+004	-7.1425896E+001	7.416053936243407E+001	-4.4279411E-003	-1.0643306E-006	6.2014927E+001	5.5722775E+001	1.000000000000000E+000	14	1.0152536E-002	8.6327310E-007	2.7084778E-005	8.0601276E-005	8.5030297E-005	7.1425896E+001
1.5547264E-001	5.0375317E+003	1.5294465E+004	1.6102714E+004	-7.1769691E+001	1.012318068616005E+002	-4.4299429E-003	-2.5042539E-006	6.6931702E+001	6.0381279E+001	1.000000000000000E+000	14	1.0152908E-002	6.3050913E-007	1.9427618E-005	5.8984260E-005	6.2101331E-005	7.1769691E+001
1.0504906E-001	6.9116177E+003	2.1044133E+004	2.2150078E+004	-7.1818039E+001	1.412812388438324E+002	-4.4251243E-003	-2.0316400E-006	7.1994102E+001	6.4984306E+001	1.000000000000000E+000	14	1.0151114E-002	4.5828799E-007	1.4087346E-005	4.2892414E-005	4.5146568E-005	7.1818039E+001
7.1022727E-002	9.3725352E+003	2.8873738E+004	3.0356830E+004	-7.2016350E+001	2.005020226166816E+002	-4.4224756E-003	7.6252018E-006	7.7610374E+001	7.0212265E+001	1.000000000000000E+000	14	1.0148899E-002	3.3432011E-007	1.0170548E-005	3.1332147E-005	3.2941516E-005	7.2016350E+001
4.7988325E-002	1.3758476E+004	3.9727637E+004	4.2042605E+004	-7.0898003E+001	2.881328117922531E+002	-4.4184742E-003	-4.2243878E-006	8.3481796E+001	7.4541481E+001	1.000000000000000E+000	14	1.0151021E-002	2.4144606E-007	7.7837904E-006	2.2475711E-005	2.3785395E-005	7.0898003E+001
3.2443926E-002	1.8542785E+004	5.3734395E+004	5.6843820E+004	-7.0961357E+001	4.177329457345768E+002	-4.4203540E-003	-4.9756995E-006	9.1292351E+001	8.1577911E+001	1.000000000000000E+000	14	1.0154123E-002	1.7863196E-007	5.7386319E-006	1.6629754E-005	1.7592061E-005	7.0961357E+001
2.1920588E-002	2.7642650E+004	7.3123781E+004	7.8174188E+004	-6.9292130E+001	6.095338141246466E+002	-4.4207126E-003	-4.3804671E-006	9.9290863E+001	8.6875999E+001	1.000000000000000E+000	14	1.0151712E-002	1.2986015E-007	4.5232750E-006	1.1965529E-005	1.2791947E-005	6.9292130E+001
1.4807615E-002	4.1443078E+004	9.7005117E+004	1.0548707E+005	-6.6866585E+001	8.934520039033669E+002	-4.4143004E-003	-6.8154613E-006	1.1080016E+002	9.3698189E+001	1.000000000000000E+000	14	1.0151745E-002	9.6236860E-008	3.7243760E-006	8.7175858E-006	9.4798352E-006	6.6866585E+001
1.0000636E-002	5.7092043E+004	1.3107122E+005	1.4296561E+005	-6.6463005E+001	1.313824396216631E+003	-4.4151624E-003	-7.8267476E-006	1.2141859E+002	1.0205556E+002	1.000000000000000E+000	14	1.0150230E-002	7.0997707E-008	2.7932670E-006	6.4127480E-006	6.9946891E-006	6.6463005E+001