EC-Lab ASCII FILE
Nb header lines : 62                          

Potentio Electrochemical Impedance Spectroscopy

Run on channel : 1 (SN 35512)
User : 
CE vs. WE compliance from -10 V to 10 V
Electrode connection : standard
Ewe ctrl range : min = -5.00 V, max = 5.00 V
Safety Limits :
	Do not start on E overload
Acquisition started on : 07/09/2023 14:50:00
Technique started on : 07/09/2023 14:50:02
Saved on :
	File : 0708_01_EIS_0.5MTFSI_Blocking_InsideGB_day_2_RT_C01.mpr
	Directory : C:\Users\CESL\Documents\EC-Lab\Data\PhD\Leifer\Results\Zn Ion GPE\2023\0708\
	Host : 10.110.196.171
Device : VSP (SN 1724172417241724)
Address : USB
EC-Lab for windows v11.16 (software)
Internet server v11.16 (firmware)
Command interpretor v11.16 (firmware)
Electrode material : Au/Pd
Initial state : 
Electrolyte : NaCl (0.2M)
Comments : Fe(CN)63-/Fe(CN)64- 5.10-3 M
Reference electrode : SCE Saturated Calomel Electrode (0.241 V)
Electrode surface area : 0.001 cm²
Characteristic mass : 0.001 g
Equivalent Weight : 0.000 g/eq.
Density : 0.000 g/cm3
Cycle Definition : Charge/Discharge alternance
Mode                Single sine         
E (V)               0.0000              
vs.                 Eoc                 
tE (h:m:s)          0:00:0.0000         
record              0                   
dI                  0.000               
unit dI             mA                  
dt (s)              0.000               
fi                  1.000               
unit fi             MHz                 
ff                  10.000              
unit ff             mHz                 
Nd                  6                   
Points              per decade          
spacing             Logarithmic         
Va (mV)             10.0                
pw                  0.10                
Na                  2                   
corr                1                   
E range min (V)     -5.000              
E range max (V)     5.000               
I Range             Auto                
Bandwidth           5                   
nc cycles           0                   
goto Ns'            0                   
nr cycles           0                   
inc. cycle          0                   

freq/Hz	Re(Z)/Ohm	-Im(Z)/Ohm	|Z|/Ohm	Phase(Z)/deg	time/s	<Ewe>/V	<I>/mA	Cs/µF	Cp/µF	cycle number	I Range	|Ewe|/V	|I|/A	Re(Y)/Ohm-1	Im(Y)/Ohm-1	|Y|/Ohm-1	Phase(Y)/deg	
1.0000193E+006	-2.7400961E+001	1.9105333E+001	3.3403988E+001	-1.4511385E+002	2.307081229577307E+000	5.0195519E-002	2.8973671E-003	8.3302325E-003	2.7250203E-003	1.000000000000000E+000	10	2.6191378E-004	7.8407938E-006	-2.4556652E-002	1.7122136E-002	2.9936545E-002	1.4511385E+002
6.7575181E+005	2.4908442E+001	-1.0418840E+001	2.6999680E+001	2.2698851E+001	2.716090342350071E+000	4.9607083E-002	4.1989540E-003	-2.2605469E-002	-3.3661623E-003	1.000000000000000E+000	10	1.3574454E-003	5.0276351E-005	3.4168769E-002	-1.4292301E-002	3.7037477E-002	-2.2698851E+001
4.5664050E+005	1.3893147E+001	-3.5841670E+000	1.4348023E+001	1.4465804E+001	3.125085961772129E+000	4.9725529E-002	5.9853774E-003	-9.7242795E-002	-6.0680588E-003	1.000000000000000E+000	10	4.7765179E-003	3.3290425E-004	6.7486428E-002	-1.7410211E-002	6.9696009E-002	-1.4465804E+001
3.0857416E+005	1.1570581E+001	-1.7561837E+000	1.1703099E+001	8.6304865E+000	3.534098274511052E+000	4.9510341E-002	6.3490146E-003	-2.9369098E-001	-6.6134604E-003	1.000000000000000E+000	10	1.0080194E-002	8.6132687E-004	8.4479906E-002	-1.2822367E-002	8.5447453E-002	-8.6304865E+000
2.0852534E+005	1.0760942E+001	-8.3850497E-001	1.0793562E+001	4.4555497E+000	4.075077793560922E+000	4.9494788E-002	7.5461701E-003	-9.1023940E-001	-5.4933513E-003	1.000000000000000E+000	10	1.0110100E-002	9.3667873E-004	9.2367828E-002	-7.1974071E-003	9.2647821E-002	-4.4555497E+000
1.4090817E+005	1.0437527E+001	-1.9905902E-001	1.0439425E+001	1.0925826E+000	4.616089419258060E+000	4.9493540E-002	8.1540728E-003	-5.6741667E+000	-2.0630641E-003	1.000000000000000E+000	10	1.0173137E-002	9.7449217E-004	9.5773302E-002	-1.8265382E-003	9.5790721E-002	-1.0925826E+000
9.5214820E+004	1.0323802E+001	3.5791531E-001	1.0330005E+001	-1.9855889E+000	5.025088425347349E+000	4.9509052E-002	8.2417177E-003	4.6701980E+000	5.6065386E-003	1.000000000000000E+000	10	1.1000252E-002	1.0648835E-003	9.6747257E-002	3.3541252E-003	9.6805379E-002	1.9855889E+000
6.4345688E+004	1.0294436E+001	9.5406944E-001	1.0338552E+001	-5.2949424E+000	5.434088178095408E+000	4.9502339E-002	8.2473103E-003	2.5925117E+000	2.2078075E-002	1.000000000000000E+000	10	1.0759759E-002	1.0407413E-003	9.6312597E-002	8.9260750E-003	9.6725337E-002	5.2949424E+000
4.3476547E+004	1.0297507E+001	1.6538383E+000	1.0429470E+001	-9.1241112E+000	5.843076784192817E+000	4.9511272E-002	7.9396274E-003	2.2134619E+000	5.5658776E-002	1.000000000000000E+000	10	1.0475391E-002	1.0044030E-003	9.4668970E-002	1.5204375E-002	9.5882148E-002	9.1241112E+000
2.9384758E+004	1.0359444E+001	2.5785036E+000	1.0675521E+001	-1.3977109E+001	6.252084936946630E+000	4.9503088E-002	8.1596663E-003	2.1005368E+000	1.2254275E-001	1.000000000000000E+000	10	1.0335952E-002	9.6819183E-004	9.0898827E-002	2.2625053E-002	9.3672246E-002	1.3977109E+001
1.9853508E+004	1.0459558E+001	3.8354621E+000	1.1140608E+001	-2.0137707E+001	6.661094769689953E+000	4.9504094E-002	7.3373197E-003	2.0900910E+000	2.4773240E-001	1.000000000000000E+000	10	1.0293005E-002	9.2391769E-004	8.4274389E-002	3.0902950E-002	8.9761712E-002	2.0137707E+001
1.3417967E+004	1.0606786E+001	5.6590705E+000	1.2022020E+001	-2.8081394E+001	7.070076229138067E+000	4.9508698E-002	7.6990733E-003	2.0959857E+000	4.6443358E-001	1.000000000000000E+000	10	1.0039825E-002	8.3511963E-004	7.3388644E-002	3.9155267E-002	8.3180696E-002	2.8081394E+001
9.0820293E+003	1.0823177E+001	8.2437057E+000	1.3605141E+001	-3.7295494E+001	7.367332456546137E+000	4.9524941E-002	9.3605453E-003	2.1257625E+000	7.8046536E-001	1.000000000000000E+000	10	1.0201531E-002	7.4982917E-004	5.8472101E-002	4.4536538E-002	7.3501632E-002	3.7295494E+001
6.1409590E+003	1.1153493E+001	1.1966056E+001	1.6358084E+001	-4.7012894E+001	7.770635755779949E+000	4.9519908E-002	8.6109219E-003	2.1658726E+000	1.1589644E+000	1.000000000000000E+000	10	1.0067219E-002	6.1542779E-004	4.1681763E-002	4.4718388E-002	6.1131854E-002	4.7012894E+001
4.1413242E+003	1.1653300E+001	1.7389996E+001	2.0933498E+001	-5.6173363E+001	8.236697884574824E+000	4.9553696E-002	1.0602452E-002	2.2099447E+000	1.5250945E+000	1.000000000000000E+000	10	9.8845242E-003	4.7218692E-004	2.6592875E-002	3.9684039E-002	4.7770325E-002	5.6173363E+001
2.7973140E+003	1.2364280E+001	2.5166918E+001	2.8040134E+001	-6.3835529E+001	8.702942840027390E+000	4.9559999E-002	1.0893345E-002	2.2607307E+000	1.8211627E+000	1.000000000000000E+000	10	9.7482922E-003	3.4765498E-004	1.5725652E-002	3.2008834E-002	3.5663169E-002	6.3835529E+001
1.8906046E+003	1.3587739E+001	3.6530579E+001	3.8975758E+001	-6.9597054E+001	9.418664127384545E+000	4.9526360E-002	9.6774247E-004	2.3044264E+000	2.0243556E+000	1.000000000000000E+000	11	1.0399780E-002	2.6682689E-004	8.9445403E-003	2.4047360E-002	2.5656974E-002	6.9597054E+001
1.2871166E+003	1.5267332E+001	5.2423267E+001	5.4601192E+001	-7.3762749E+001	9.885180256183958E+000	4.9530219E-002	9.1591210E-004	2.3587296E+000	2.1743131E+000	1.000000000000000E+000	11	9.9749807E-003	1.8268796E-004	5.1210490E-003	1.7584087E-002	1.8314619E-002	7.3762749E+001
8.6306641E+002	1.7781828E+001	7.6086052E+001	7.8136299E+001	-7.6845688E+001	1.035221897167503E+001	4.9533091E-002	7.9249055E-004	2.4236553E+000	2.2981336E+000	1.000000000000000E+000	11	9.7574852E-003	1.2487776E-004	2.9125318E-003	1.2462335E-002	1.2798149E-002	7.6845688E+001
5.8369244E+002	2.1578773E+001	1.0961440E+002	1.1171822E+002	-7.8863121E+001	1.081920990053914E+001	4.9529266E-002	6.6608761E-004	2.4875307E+000	2.3947251E+000	1.000000000000000E+000	11	9.6664568E-003	8.6525339E-005	1.7289351E-003	8.7825293E-003	8.9510912E-003	7.8863121E+001
3.9411707E+002	2.7152014E+001	1.5832971E+002	1.6064099E+002	-8.0268982E+001	1.128619962939410E+001	4.9524717E-002	7.4569421E-004	2.5505419E+000	2.4776764E+000	1.000000000000000E+000	11	9.6222991E-003	5.9899401E-005	1.0521784E-003	6.1354958E-003	6.2250611E-003	8.0268982E+001
2.6644943E+002	3.5451954E+001	2.2721344E+002	2.2996259E+002	-8.1131683E+001	1.174968309143878E+001	4.9524605E-002	7.0355961E-004	2.6288834E+000	2.5664039E+000	1.000000000000000E+000	11	9.5934542E-003	4.1717456E-005	6.7038753E-004	4.2965482E-003	4.3485337E-003	8.1131683E+001
1.8005759E+002	5.0069489E+001	3.2838632E+002	3.3218146E+002	-8.1330803E+001	1.246768864554178E+001	4.9536336E-002	5.2610099E-005	2.6916814E+000	2.6305285E+000	1.000000000000000E+000	12	9.6650096E-003	2.9095572E-005	4.5375613E-004	2.9760092E-003	3.0104029E-003	8.1330803E+001
1.2159529E+002	6.6579109E+001	4.7471222E+002	4.7935840E+002	-8.2016258E+001	1.292811765402439E+001	4.9535755E-002	4.1382631E-005	2.7572298E+000	2.7040401E+000	1.000000000000000E+000	12	9.6221790E-003	2.0073037E-005	2.8974583E-004	2.0659021E-003	2.0861218E-003	8.2016258E+001
8.2236801E+001	1.0650656E+002	6.8419476E+002	6.9243494E+002	-8.1151947E+001	1.338328855563304E+001	4.9531244E-002	-8.5866632E-005	2.8286171E+000	2.7616951E+000	1.000000000000000E+000	12	9.5934225E-003	1.3854619E-005	2.2213580E-004	1.4269928E-003	1.4441790E-003	8.1151947E+001
5.5515171E+001	1.5986707E+002	9.6992859E+002	9.8301526E+002	-8.0640457E+001	1.384487625761540E+001	4.9527533E-002	-4.8147081E-004	2.9557569E+000	2.8775818E+000	1.000000000000000E+000	12	9.5910272E-003	9.7567427E-006	1.6543923E-004	1.0037353E-003	1.0172782E-003	8.0640457E+001
3.7560089E+001	2.2827171E+002	1.3709342E+003	1.3898088E+003	-8.0546516E+001	1.433575492093223E+001	4.9536176E-002	8.0398051E-005	3.0908430E+000	3.0074611E+000	1.000000000000000E+000	12	9.5842080E-003	6.8960621E-006	1.1817943E-004	7.0975174E-004	7.1952341E-004	8.0546516E+001
2.5365252E+001	3.8810519E+002	1.9515970E+003	1.9898132E+003	-7.8752586E+001	1.504486900792108E+001	4.9535997E-002	-1.0742430E-005	3.2150729E+000	3.0927620E+000	1.000000000000000E+000	13	9.6005211E-003	4.8248353E-006	9.8022283E-005	4.9290759E-004	5.0255971E-004	7.8752586E+001
1.7132671E+001	5.9919226E+002	2.7321553E+003	2.7970884E+003	-7.7630226E+001	1.545882457426342E+001	4.9526993E-002	-2.2564036E-005	3.4000843E+000	3.2440538E+000	1.000000000000000E+000	13	9.5921094E-003	3.4293193E-006	7.6586803E-005	3.4921509E-004	3.5751463E-004	7.7630226E+001
1.1591243E+001	9.0067346E+002	3.7879070E+003	3.8935142E+003	-7.6624809E+001	1.586826499368181E+001	4.9528074E-002	1.2861498E-005	3.6248567E+000	3.4308832E+000	1.000000000000000E+000	13	9.5837926E-003	2.4614762E-006	5.9413334E-005	2.4987097E-004	2.5683737E-004	7.6624809E+001
7.8281527E+000	1.3035846E+003	5.2366914E+003	5.3965054E+003	-7.6021317E+001	1.645025419464218E+001	4.9529202E-002	2.1485830E-006	3.8824322E+000	3.6558857E+000	1.000000000000000E+000	13	9.5813805E-003	1.7754787E-006	4.4762466E-005	1.7981742E-004	1.8530511E-004	7.6021317E+001
5.2930207E+000	1.8291547E+003	7.2021240E+003	7.4307734E+003	-7.5749641E+001	1.728673975443235E+001	4.9533844E-002	3.0397134E-006	4.1749945E+000	3.9220135E+000	1.000000000000000E+000	13	9.5828120E-003	1.2896116E-006	3.3127017E-005	1.3043452E-004	1.3457549E-004	7.5749641E+001
3.5755143E+000	2.4066174E+003	9.8369072E+003	1.0127021E+004	-7.6252518E+001	1.911029272098676E+001	4.9539678E-002	8.2619209E-007	4.5250463E+000	4.2694979E+000	1.000000000000000E+000	14	9.5835133E-003	9.4633094E-007	2.3466251E-005	9.5916905E-005	9.8745724E-005	7.6252518E+001
2.4172332E+000	3.0253901E+003	1.3693628E+004	1.4023853E+004	-7.7541542E+001	2.088758600541041E+001	4.9536914E-002	3.1278230E-008	4.8082056E+000	4.5844307E+000	1.000000000000000E+000	14	9.5779579E-003	6.8297624E-007	1.5383199E-005	6.9627997E-005	7.1307084E-005	7.7541542E+001
1.6327059E+000	3.7245354E+003	1.9258689E+004	1.9615537E+004	-7.9054405E+001	2.349841775608365E+001	4.9536798E-002	9.9972783E-007	5.0615726E+000	4.8790865E+000	1.000000000000000E+000	14	9.5797367E-003	4.8837495E-007	9.6799195E-006	5.0052564E-005	5.0979997E-005	7.9054405E+001
1.1020596E+000	4.5064063E+003	2.7534449E+004	2.7900781E+004	-8.0705132E+001	2.734742996559362E+001	4.9535971E-002	7.6923232E-007	5.2449174E+000	5.1080918E+000	1.000000000000000E+000	14	9.5792115E-003	3.4333129E-007	5.7889215E-006	3.5370700E-005	3.5841291E-005	8.0705132E+001
7.4560940E-001	5.6067461E+003	3.9599086E+004	3.9994039E+004	-8.1941185E+001	3.301917828831938E+001	4.9536448E-002	1.0432836E-006	5.3904324E+000	5.2844934E+000	1.000000000000000E+000	14	9.5791863E-003	2.3951534E-007	3.5052612E-006	2.4756806E-005	2.5003726E-005	8.1941185E+001
5.0390220E-001	7.1823027E+003	5.7279973E+004	5.7728508E+004	-8.2853012E+001	4.139500921950093E+001	4.9533386E-002	5.9830953E-008	5.5140548E+000	5.4287019E+000	1.000000000000000E+000	14	9.5775528E-003	1.6590681E-007	2.1551784E-006	1.7187873E-005	1.7322463E-005	8.2853012E+001
3.4010270E-001	9.7999580E+003	8.2840711E+004	8.3418359E+004	-8.3253334E+001	5.378846218143008E+001	4.9532969E-002	5.7910336E-007	5.6489305E+000	5.5709667E+000	1.000000000000000E+000	14	9.5777605E-003	1.1481598E-007	1.4083184E-006	1.1904757E-005	1.1987769E-005	8.3253334E+001
2.3021273E-001	1.3141477E+004	1.2000898E+005	1.2072635E+005	-8.3750778E+001	7.208174294371565E+001	4.9532048E-002	9.7072075E-007	5.7607236E+000	5.6924648E+000	1.000000000000000E+000	14	9.5787039E-003	7.9342279E-008	9.0165378E-007	8.2339757E-006	8.2831957E-006	8.3750778E+001
1.5547264E-001	1.8373588E+004	1.7292348E+005	1.7389686E+005	-8.3934921E+001	9.915303060284350E+001	4.9530394E-002	8.3927171E-007	5.9198704E+000	5.8537836E+000	1.000000000000000E+000	14	9.5795523E-003	5.5087554E-008	6.0759010E-007	5.7183465E-006	5.7505349E-006	8.3934921E+001
1.0504906E-001	2.6010258E+004	2.5050425E+005	2.5185097E+005	-8.4072128E+001	1.392024582383747E+002	4.9527999E-002	7.2223679E-007	6.0480151E+000	5.9835072E+000	1.000000000000000E+000	14	9.5778061E-003	3.8029658E-008	4.1006948E-007	3.9493698E-006	3.9706019E-006	8.4072128E+001
7.1022727E-002	3.8092641E+004	3.6228325E+005	3.6428038E+005	-8.3997635E+001	1.984232574512425E+002	4.9528275E-002	8.6741397E-007	6.1854959E+000	6.1178594E+000	1.000000000000000E+000	14	9.5775239E-003	2.6291627E-008	2.8705779E-007	2.7300882E-006	2.7451383E-006	8.3997635E+001
4.7988325E-002	5.6930699E+004	5.2561300E+005	5.2868719E+005	-8.3818222E+001	2.860540666801680E+002	4.9526360E-002	9.1611344E-007	6.3098412E+000	6.2366743E+000	1.000000000000000E+000	14	9.5774643E-003	1.8115561E-008	2.0368032E-007	1.8804792E-006	1.8914776E-006	8.3818222E+001
3.2443926E-002	8.5372445E+004	7.5448788E+005	7.5930256E+005	-8.3544281E+001	4.156542234491499E+002	4.9523696E-002	9.0085319E-007	6.5018129E+000	6.4196196E+000	1.000000000000000E+000	14	9.5766746E-003	1.2612461E-008	1.4807706E-007	1.3086470E-006	1.3169980E-006	8.3544281E+001
2.1920588E-002	1.3037352E+005	1.0890158E+006	1.0967920E+006	-8.3173225E+001	6.074551169592305E+002	4.9523968E-002	8.5524340E-007	6.6670504E+000	6.5728474E+000	1.000000000000000E+000	14	9.5774457E-003	8.7322354E-009	1.0837786E-007	9.0528567E-007	9.1174991E-007	8.3173225E+001
1.4807615E-002	2.0966494E+005	1.5676228E+006	1.5815816E+006	-8.2382065E+001	8.913733774845896E+002	4.9526256E-002	7.7580501E-007	6.8563576E+000	6.7358646E+000	1.000000000000000E+000	14	9.5782401E-003	6.0561147E-009	8.3819046E-008	6.2669801E-007	6.3227844E-007	8.2382065E+001
1.0000636E-002	3.0806359E+005	2.2564470E+006	2.2773793E+006	-8.2225700E+001	1.311745878411268E+003	4.9525090E-002	8.9097171E-007	7.0528941E+000	6.9238386E+000	1.000000000000000E+000	14	9.5741758E-003	4.2040322E-009	5.9397728E-008	4.3506529E-007	4.3910123E-007	8.2225700E+001